# MHz S MA R 50

0.1	0.1335966	43.127385	0.90332301	-5.8720169	0.26861863	43.458817	0.2678212	-136.72346	
	0.90332301	-5.8720169	0.13378843	45.916129	0.26874899	-137.0943	0.26952022	42.68326	
	0.26861863	43.458817	0.26874899	-137.0943	0.54134644	41.894975	0.69484389	-31.58101	
	0.2678212	-136.72346	0.26952022	42.68326	0.69484389	-31.58101	0.54569239	41.845073	
	
0.102310062021247	0.13351362	41.906191	0.90123804	-5.9412246	0.27263771	43.101845	0.27190211	-136.99652	
	0.90123804	-5.9412246	0.13490944	44.180494	0.27246231	-137.3258	0.27300682	42.516721	
	0.27263771	43.101845	0.27246231	-137.3258	0.54944708	41.311647	0.68811155	-32.075221	
	0.27190211	-136.99652	0.27300682	42.516721	0.68811155	-32.075221	0.55165831	41.495633	
	
0.104673487907914	0.13861667	41.842837	0.89912931	-5.9445694	0.27393299	42.088217	0.27335121	-137.79715	
	0.89912931	-5.9445694	0.13691513	42.111933	0.27316515	-137.8317	0.27390569	42.296146	
	0.27393299	42.088217	0.27316515	-137.8317	0.55455581	40.738383	0.67996607	-32.203976	
	0.27335121	-137.79715	0.27390569	42.296146	0.67996607	-32.203976	0.5519224	40.796209	
	
0.107091510398389	0.13831241	41.269368	0.89772622	-5.949073	0.27779199	41.563289	0.27701261	-138.44209	
	0.89772622	-5.949073	0.13869958	41.994435	0.27704312	-138.36681	0.27703291	41.566802	
	0.27779199	41.563289	0.27704312	-138.36681	0.56053826	40.227382	0.67431183	-32.506187	
	0.27701261	-138.44209	0.27703291	41.566802	0.67431183	-32.506187	0.55994778	40.301314	
	
0.109565390708082	0.14060432	40.895743	0.89588582	-5.9647229	0.28072802	40.889746	0.28003933	-139.0062	
	0.89588582	-5.9647229	0.14044421	41.746025	0.28061289	-139.30646	0.28084075	40.859918	
	0.28072802	40.889746	0.28061289	-139.30646	0.56660397	39.587855	0.66639294	-32.852444	
	0.28003933	-139.0062	0.28084075	40.859918	0.66639294	-32.852444	0.56599564	39.59761	
	
0.112096419187261	0.14111498	39.619897	0.89350231	-5.9535874	0.28314444	40.354798	0.28269548	-139.5878	
	0.89350231	-5.9535874	0.14157014	41.030498	0.28275345	-139.74584	0.28311352	40.177788	
	0.28314444	40.354798	0.28275345	-139.74584	0.57140657	39.04273	0.65880887	-33.146141	
	0.28269548	-139.5878	0.28311352	40.177788	0.65880887	-33.146141	0.57094027	39.122522	
	
0.114685915994083	0.14318597	39.56618	0.89185465	-5.9527291	0.28614847	39.72345	0.28561115	-140.32635	
	0.89185465	-5.9527291	0.14187103	40.817804	0.28632557	-140.27774	0.28705263	39.632175	
	0.28614847	39.72345	0.28632557	-140.27774	0.57766274	38.465703	0.65211681	-33.383468	
	0.28561115	-140.32635	0.28705263	39.632175	0.65211681	-33.383468	0.57729477	38.544216	
	
0.117335231783182	0.14464921	38.771853	0.8895317	-5.9553983	0.28889073	39.190445	0.28901539	-140.80117	
	0.8895317	-5.9553983	0.14451187	40.029688	0.28871167	-140.85196	0.28955637	39.069586	
	0.28889073	39.190445	0.28871167	-140.85196	0.58231298	37.873153	0.6448179	-33.816986	
	0.28901539	-140.80117	0.28955637	39.069586	0.6448179	-33.816986	0.58287056	37.889029	
	
0.120045748410147	0.14624273	37.894639	0.88750491	-5.964506	0.29191733	38.705129	0.29119108	-141.46454	
	0.88750491	-5.964506	0.14452041	40.103834	0.29118941	-141.40813	0.29220347	38.442989	
	0.29191733	38.705129	0.29118941	-141.40813	0.5875698	37.250097	0.63756015	-33.950192	
	0.29119108	-141.46454	0.29220347	38.442989	0.63756015	-33.950192	0.58724384	37.221066	
	
0.122818879652292	0.14653287	37.810495	0.88533391	-5.9397688	0.29438234	37.924755	0.29379704	-142.12024	
	0.88533391	-5.9397688	0.1473808	38.317447	0.29409868	-142.0854	0.29472746	37.736033	
	0.29438234	37.924755	0.29409868	-142.0854	0.59307544	36.633816	0.62974113	-34.287938	
	0.29379704	-142.12024	0.29472746	37.736033	0.62974113	-34.287938	0.59309819	36.672027	
	
0.125656071946061	0.14807023	36.927903	0.88383505	-5.936872	0.29748221	37.365763	0.29738694	-142.60811	
	0.88383505	-5.936872	0.14770817	38.209638	0.29714812	-142.75866	0.29801883	37.251788	
	0.29748221	37.365763	0.29714812	-142.75866	0.59726842	36.051008	0.62254687	-34.525301	
	0.29738694	-142.60811	0.29801883	37.251788	0.62254687	-34.525301	0.59811329	36.13837	
	
0.128558805141477	0.14906964	36.106793	0.88077568	-5.9600761	0.2997723	36.80579	0.29900716	-143.34487	
	0.88077568	-5.9600761	0.15076773	37.639972	0.29893784	-143.33652	0.29988667	36.626824	
	0.2997723	36.80579	0.29893784	-143.33652	0.60289576	35.446178	0.61432268	-34.72581	
	0.29900716	-143.34487	0.29988667	36.626824	0.61432268	-34.72581	0.60305797	35.435091	
	
0.131528593274019	0.15075167	36.017434	0.87949179	-5.9080518	0.30237395	36.121926	0.30217237	-143.96386	
	0.87949179	-5.9080518	0.15193874	37.289188	0.30223817	-143.96672	0.30315898	36.030749	
	0.30237395	36.121926	0.30223817	-143.96672	0.6079232	34.909233	0.60737263	-35.035127	
	0.30217237	-143.96386	0.30315898	36.030749	0.60737263	-35.035127	0.60912763	34.93129	
	
0.134566985354323	0.15309104	35.022278	0.87669254	-5.8744531	0.3042416	35.539865	0.30388021	-144.52554	
	0.87669254	-5.8744531	0.15327259	36.499638	0.30360387	-144.5674	0.30471021	35.440698	
	0.3042416	35.539865	0.30360387	-144.5674	0.61208998	34.434202	0.59936842	-35.211769	
	0.30388021	-144.52554	0.30471021	35.440698	0.59936842	-35.211769	0.61275433	34.306404	
	
0.13767556617613	0.15428605	34.379769	0.87424637	-5.884499	0.30669035	35.045101	0.30577731	-145.02529	
	0.87424637	-5.884499	0.15506837	35.92916	0.30609288	-145.09687	0.30742484	34.898298	
	0.30669035	35.045101	0.30609288	-145.09687	0.61625324	33.757323	0.59300041	-35.46088	
	0.30577731	-145.02529	0.30742484	34.898298	0.59300041	-35.46088	0.61613198	33.790327	
	
0.140855957142902	0.15536827	33.801549	0.87266776	-5.8644083	0.30922013	34.450205	0.30881795	-145.56643	
	0.87266776	-5.8644083	0.15563865	34.926444	0.30853613	-145.85986	0.30941146	34.168189	
	0.30922013	34.450205	0.30853613	-145.85986	0.61969143	33.259077	0.58362089	-35.712529	
	0.30881795	-145.56643	0.30941146	34.168189	0.58362089	-35.712529	0.62075284	33.331435	
	
0.144109817113524	0.1568925	33.27734	0.87077715	-5.7890228	0.31122366	33.83868	0.3107786	-146.20225	
	0.87077715	-5.7890228	0.15661728	34.248763	0.31126024	-146.32884	0.3116194	33.652173	
	0.31122366	33.83868	0.31126024	-146.32884	0.62513132	32.671959	0.57766965	-35.841918	
	0.3107786	-146.20225	0.3116194	33.652173	0.57766965	-35.841918	0.62552524	32.758341	
	
0.147438843267552	0.15818256	33.402266	0.8690833	-5.7508871	0.31462172	33.153021	0.31338885	-146.96523	
	0.8690833	-5.7508871	0.15839705	33.611845	0.31406363	-147.04015	0.3145939	33.086847	
	0.31462172	33.153021	0.31406363	-147.04015	0.63156987	32.073866	0.57005404	-36.022581	
	0.31338885	-146.96523	0.3145939	33.086847	0.57005404	-36.022581	0.63064992	32.105599	
	
0.150844771990442	0.15862597	32.274111	0.86713086	-5.7350976	0.31679436	32.691129	0.31566386	-147.33649	
	0.86713086	-5.7350976	0.15804973	33.178558	0.31587936	-147.46427	0.31654353	32.409636	
	0.31679436	32.691129	0.31587936	-147.46427	0.63501542	31.515357	0.56293486	-36.154783	
	0.31566386	-147.33649	0.31654353	32.409636	0.56293486	-36.154783	0.63464967	31.466293	
	
0.154329379779229	0.16079213	31.885134	0.86542315	-5.6890445	0.3188832	32.040244	0.31771316	-148.03992	
	0.86542315	-5.6890445	0.16007548	33.002143	0.31904078	-148.16909	0.31894135	31.811821	
	0.3188832	32.040244	0.31904078	-148.16909	0.63924024	30.946149	0.55560564	-36.37343	
	0.31771316	-148.03992	0.31894135	31.811821	0.55560564	-36.37343	0.63986351	30.954306	
	
0.157894484169135	0.16132446	31.031585	0.86362866	-5.6320769	0.32060008	31.438991	0.32032291	-148.60425	
	0.86362866	-5.6320769	0.16046049	32.212792	0.32053895	-148.68754	0.32124842	31.34742	
	0.32060008	31.438991	0.32053895	-148.68754	0.64380802	30.385287	0.5483192	-36.502933	
	0.32032291	-148.60425	0.32124842	31.34742	0.5483192	-36.502933	0.64270124	30.386428	
	
0.16154194468157	0.16339454	30.47314	0.86157589	-5.6385895	0.32260288	30.939874	0.32249984	-149.13927	
	0.86157589	-5.6385895	0.16130701	31.147361	0.32279179	-149.28194	0.32306605	30.771688	
	0.32260288	30.939874	0.32279179	-149.28194	0.64655167	29.816543	0.54070293	-36.678214	
	0.32249984	-149.13927	0.32306605	30.771688	0.54070293	-36.678214	0.64778282	29.868245	
	
0.165273663794043	0.16371337	29.704808	0.85940941	-5.5918609	0.32480473	30.330376	0.32400906	-149.66127	
	0.85940941	-5.5918609	0.16325809	30.787238	0.32422973	-149.84459	0.32471592	30.228038	
	0.32480473	30.330376	0.32422973	-149.84459	0.65040336	29.267438	0.53347038	-36.763408	
	0.32400906	-149.66127	0.32471592	30.228038	0.53347038	-36.763408	0.65078792	29.281635	
	
0.169091587932473	0.16359561	29.338628	0.85767876	-5.5530093	0.32682673	29.778215	0.32574903	-150.26458	
	0.85767876	-5.5530093	0.16516367	30.082461	0.32621096	-150.29272	0.32671116	29.662332	
	0.32682673	29.778215	0.32621096	-150.29272	0.65452081	28.757794	0.526544	-36.883986	
	0.32574903	-150.26458	0.32671116	29.662332	0.526544	-36.883986	0.65442748	28.775383	
	
0.172997708486424	0.16513372	28.620087	0.85566615	-5.4613481	0.32908758	29.256479	0.3281968	-150.90632	
	0.85566615	-5.4613481	0.16630376	29.658414	0.32825317	-150.93237	0.32873241	29.099617	
	0.32908758	29.256479	0.32825317	-150.93237	0.65819253	28.130364	0.51960729	-36.896708	
	0.3281968	-150.90632	0.32873241	29.099617	0.51960729	-36.896708	0.65898232	28.323231	
	
0.176994062847797	0.16667532	28.451092	0.85454686	-5.4357108	0.3307149	28.646338	0.32987502	-151.38955	
	0.85454686	-5.4357108	0.16580872	29.384359	0.32981935	-151.52866	0.33087543	28.54938	
	0.3307149	28.646338	0.32981935	-151.52866	0.66280024	27.668597	0.51251555	-36.978244	
	0.32987502	-151.38955	0.33087543	28.54938	0.51251555	-36.978244	0.6613897	27.66115	
	
0.181082735473506	0.16755901	27.516516	0.852242	-5.3846089	0.33229583	28.058052	0.33198173	-151.87146	
	0.852242	-5.3846089	0.16750947	28.56261	0.33180875	-152.10826	0.33254928	27.962141	
	0.33229583	28.058052	0.33180875	-152.10826	0.66567467	27.144604	0.50506439	-37.079865	
	0.33198173	-151.87146	0.33254928	27.962141	0.50506439	-37.079865	0.66519237	27.161273	
	
0.185265858972714	0.16886271	27.244214	0.85082053	-5.290788	0.33392184	27.574638	0.33356378	-152.46955	
	0.85082053	-5.290788	0.1686592	28.101655	0.33377946	-152.60127	0.33431269	27.412401	
	0.33392184	27.574638	0.33377946	-152.60127	0.66788511	26.643601	0.49850903	-37.097767	
	0.33356378	-152.46955	0.33431269	27.412401	0.49850903	-37.097767	0.66850348	26.630049	
	
0.18954561521918	0.16986212	27.109569	0.84862151	-5.2396056	0.33555968	26.973149	0.33437946	-152.9634	
	0.84862151	-5.2396056	0.16930133	27.881863	0.33497087	-153.13698	0.33602797	26.9149	
	0.33555968	26.973149	0.33497087	-153.13698	0.67232428	26.075804	0.4912425	-37.078211	
	0.33437946	-152.9634	0.33602797	26.9149	0.4912425	-37.078211	0.67253538	26.028697	
	
0.193924236489297	0.17073827	26.326002	0.84781384	-5.2339725	0.3372126	26.477139	0.33643505	-153.50065	
	0.84781384	-5.2339725	0.16981919	26.826966	0.33717125	-153.65041	0.33747626	26.391491	
	0.3372126	26.477139	0.33717125	-153.65041	0.67507752	25.582142	0.48467368	-37.087078	
	0.33643505	-153.50065	0.33747626	26.391491	0.48467368	-37.087078	0.67558037	25.538656	
	
0.19840400662643	0.17159492	25.357308	0.84626234	-5.1500074	0.33900412	26.027822	0.33807559	-154.04127	
	0.84626234	-5.1500074	0.16997701	26.36127	0.33878175	-154.16069	0.33954523	25.868946	
	0.33900412	26.027822	0.33878175	-154.16069	0.67845103	25.076066	0.47770809	-37.137618	
	0.33807559	-154.04127	0.33954523	25.868946	0.47770809	-37.137618	0.67829407	25.088478	
	
0.202987262232139	0.17179762	24.71276	0.84373906	-5.0667761	0.34019651	25.421865	0.33922391	-154.47368	
	0.84373906	-5.0667761	0.17256014	26.016113	0.33898652	-154.70251	0.33970167	25.225517	
	0.34019651	25.421865	0.33898652	-154.70251	0.6797703	24.528364	0.47112562	-37.113847	
	0.33922391	-154.47368	0.33970167	25.225517	0.47112562	-37.113847	0.67983381	24.619093	
	
0.207676393884933	0.17259249	24.659966	0.84299366	-5.0160552	0.34183347	24.871714	0.34067429	-155.05031	
	0.84299366	-5.0160552	0.17286677	25.488353	0.3413101	-155.27405	0.34212681	24.767385	
	0.34183347	24.871714	0.3413101	-155.27405	0.68378732	24.051289	0.4645988	-37.039158	
	0.34067429	-155.05031	0.34212681	24.767385	0.4645988	-37.039158	0.68349065	24.180155	
	
0.212473847387164	0.17417813	23.897689	0.84132614	-4.9452307	0.34352762	24.426264	0.34266876	-155.60157	
	0.84132614	-4.9452307	0.17301037	24.769249	0.34309436	-155.7326	0.34398284	24.247533	
	0.34352762	24.426264	0.34309436	-155.7326	0.6862281	23.626146	0.45808116	-36.995083	
	0.34266876	-155.60157	0.34398284	24.247533	0.45808116	-36.995083	0.68708508	23.62303	
	
0.217382125040737	0.17517421	23.363362	0.84030414	-4.9004622	0.34455148	23.93396	0.34402328	-156.17136	
	0.84030414	-4.9004622	0.17330984	24.156843	0.34417644	-156.26528	0.34506476	23.812924	
	0.34455148	23.93396	0.34417644	-156.26528	0.6889032	23.12383	0.45178539	-36.834409	
	0.34402328	-156.17136	0.34506476	23.812924	0.45178539	-36.834409	0.68988324	23.153656	
	
0.222403786952283	0.17551252	23.167924	0.83883744	-4.8232944	0.3459236	23.350549	0.34523552	-156.60523	
	0.83883744	-4.8232944	0.1749247	24.17425	0.34539442	-156.80944	0.3461316	23.223586	
	0.3459236	23.350549	0.34539442	-156.80944	0.69118205	22.623098	0.445423	-36.847689	
	0.34523552	-156.60523	0.3461316	23.223586	0.445423	-36.847689	0.69198424	22.661346	
	
0.227541452368483	0.17594358	22.295716	0.83719113	-4.7237946	0.34712828	22.915173	0.34613597	-157.03719	
	0.83719113	-4.7237946	0.17510513	23.327713	0.34663245	-157.22849	0.3474788	22.761566	
	0.34712828	22.915173	0.34663245	-157.22849	0.6939683	22.140715	0.43982378	-36.687747	
	0.34613597	-157.03719	0.3474788	22.761566	0.43982378	-36.687747	0.69388806	22.213684	
	
0.232797801042241	0.17745859	21.994565	0.83617681	-4.6378023	0.34798839	22.374154	0.34757691	-157.61857	
	0.83617681	-4.6378023	0.17574575	23.130579	0.34771235	-157.70081	0.34882612	22.270229	
	0.34798839	22.374154	0.34771235	-157.70081	0.69672554	21.700875	0.43302444	-36.593621	
	0.34757691	-157.61857	0.34882612	22.270229	0.43302444	-36.593621	0.69530157	21.815293	
	
0.238175574630416	0.17705483	21.537857	0.83479803	-4.5971698	0.34970081	21.900802	0.34923273	-158.07604	
	0.83479803	-4.5971698	0.17638652	22.439489	0.34894677	-158.16537	0.3500364	21.775166	
	0.34970081	21.900802	0.34894677	-158.16537	0.69931136	21.27637	0.42805669	-36.46281	
	0.34923273	-158.07604	0.3500364	21.775166	0.42805669	-36.46281	0.69906698	21.228293	
	
0.24367757812384	0.17774591	21.080534	0.83384729	-4.5198512	0.35095595	21.499344	0.35008818	-158.54518	
	0.83384729	-4.5198512	0.17728816	22.098145	0.35060405	-158.69792	0.35123684	21.290109	
	0.35095595	21.499344	0.35060405	-158.69792	0.70084202	20.838974	0.42193309	-36.29872	
	0.35008818	-158.54518	0.35123684	21.290109	0.42193309	-36.29872	0.7007259	20.801582	
	
0.249306681310373	0.1773777	20.421878	0.83357905	-4.4488037	0.3524966	20.992146	0.35212275	-159.0019	
	0.83357905	-4.4488037	0.17637872	21.358999	0.35218834	-159.07891	0.35284884	20.871856	
	0.3524966	20.992146	0.35218834	-159.07891	0.70309186	20.348921	0.4165181	-36.143194	
	0.35212275	-159.0019	0.35284884	20.871856	0.4165181	-36.143194	0.70437674	20.398372	
	
0.255065820271756	0.17852356	19.926661	0.83209499	-4.3778357	0.35326584	20.559245	0.35229992	-159.44195	
	0.83209499	-4.3778357	0.17725249	20.805644	0.35267888	-159.65338	0.3530683	20.426546	
	0.35326584	20.559245	0.35267888	-159.65338	0.70482882	19.912448	0.41073481	-35.895291	
	0.35229992	-159.44195	0.3530683	20.426546	0.41073481	-35.895291	0.70433383	19.955952	
	
0.260957998915036	0.18003405	19.670649	0.8304925	-4.2910099	0.35310033	20.206163	0.35267004	-159.94309	
	0.8304925	-4.2910099	0.17868196	20.238427	0.35338163	-160.04799	0.35392395	20.014641	
	0.35310033	20.206163	0.35338163	-160.04799	0.70596378	19.463676	0.40490457	-35.725706	
	0.35267004	-159.94309	0.35392395	20.014641	0.40490457	-35.725706	0.70529626	19.502306	
	
0.266986290539378	0.17975294	19.212468	0.82985202	-4.2115826	0.35462204	19.651568	0.35435732	-160.42951	
	0.82985202	-4.2115826	0.17907256	20.136833	0.35451576	-160.50252	0.35546489	19.526192	
	0.35462204	19.651568	0.35451576	-160.50252	0.70936725	19.055925	0.39934661	-35.502255	
	0.35435732	-160.42951	0.35546489	19.526192	0.39934661	-35.502255	0.70883693	19.060882	
	
0.273153839439064	0.1807261	18.960407	0.8290736	-4.1617326	0.35559711	19.27116	0.35504661	-160.78342	
	0.8290736	-4.1617326	0.1791071	19.526007	0.3553316	-160.9167	0.35579377	19.14463	
	0.35559711	19.27116	0.3553316	-160.9167	0.70953973	18.656146	0.3944434	-35.23096	
	0.35504661	-160.78342	0.35579377	19.14463	0.3944434	-35.23096	0.71013942	18.681018	
	
0.279463862543524	0.18007232	18.116665	0.82783964	-4.0683036	0.35725321	18.911397	0.35635321	-161.18709	
	0.82783964	-4.0683036	0.17982371	19.213053	0.35610836	-161.29259	0.35645306	18.645779	
	0.35725321	18.911397	0.35610836	-161.29259	0.71298296	18.264975	0.38977322	-35.083451	
	0.35635321	-161.18709	0.35645306	18.645779	0.38977322	-35.083451	0.71136818	18.230189	
	
0.285919651095252	0.18100875	18.390862	0.82765902	-3.9963681	0.35720527	18.365485	0.35688442	-161.7225	
	0.82765902	-3.9963681	0.17983292	18.715611	0.35685114	-161.7681	0.35760021	18.251519	
	0.35720527	18.365485	0.35685114	-161.7681	0.7131504	17.854184	0.38533883	-34.763405	
	0.35688442	-161.7225	0.35760021	18.251519	0.38533883	-34.763405	0.71386069	17.865298	
	
0.292524572366485	0.18093851	17.459561	0.82620128	-3.9432991	0.35785558	17.975274	0.35740094	-162.10751	
	0.82620128	-3.9432991	0.18062524	18.918864	0.35801759	-162.27014	0.3581998	17.744197	
	0.35785558	17.975274	0.35801759	-162.27014	0.71520868	17.429826	0.38022908	-34.473096	
	0.35740094	-162.10751	0.3581998	17.744197	0.38022908	-34.473096	0.71531879	17.429387	
	
0.299282071415539	0.18273599	17.327026	0.82480776	-3.8368348	0.35797135	17.541486	0.35731757	-162.50015	
	0.82480776	-3.8368348	0.18156891	18.523065	0.3576377	-162.6626	0.3584384	17.3238	
	0.35797135	17.541486	0.3576377	-162.6626	0.71558779	17.072628	0.37544074	-34.157832	
	0.35731757	-162.50015	0.3584384	17.3238	0.37544074	-34.157832	0.71627108	17.081435	
	
0.30619567288371	0.18219016	16.942151	0.82448933	-3.7955557	0.35849109	17.196814	0.35780942	-162.83737	
	0.82448933	-3.7955557	0.18212851	17.558473	0.35844652	-162.9779	0.35880621	17.009715	
	0.35849109	17.196814	0.35844652	-162.9779	0.7169731	16.729831	0.37065615	-33.8411	
	0.35780942	-162.83737	0.35880621	17.009715	0.37065615	-33.8411	0.71694593	16.662103	
	
0.313268982833699	0.18208044	16.259135	0.82369643	-3.6873457	0.35986309	16.822744	0.35863175	-163.22842	
	0.82369643	-3.6873457	0.18156485	17.303029	0.35958756	-163.39678	0.36028227	16.603541	
	0.35986309	16.822744	0.35958756	-163.39678	0.71890406	16.299226	0.36636139	-33.484748	
	0.35863175	-163.22842	0.36028227	16.603541	0.36636139	-33.484748	0.71832625	16.324447	
	
0.320505690630487	0.18211254	15.894176	0.82338888	-3.596342	0.36026916	16.469825	0.36020278	-163.52576	
	0.82338888	-3.596342	0.181323	16.870166	0.35990553	-163.68002	0.36117736	16.298283	
	0.36026916	16.469825	0.35990553	-163.68002	0.71936852	15.927181	0.36254006	-33.186469	
	0.36020278	-163.52576	0.36117736	16.298283	0.36254006	-33.186469	0.72003768	15.945683	
	
0.327909570865677	0.18091837	14.849696	0.82283845	-3.5154045	0.36199109	16.187525	0.36081837	-163.92408	
	0.82283845	-3.5154045	0.1810201	15.93676	0.36120246	-163.97711	0.36183406	15.965564	
	0.36199109	16.187525	0.36120246	-163.97711	0.72154756	15.579353	0.35837246	-32.863072	
	0.36081837	-163.92408	0.36183406	15.965564	0.35837246	-32.863072	0.72098188	15.517373	
	
0.335484485326279	0.18238922	15.184685	0.82240719	-3.4466911	0.361958	15.771849	0.36135048	-164.3008	
	0.82240719	-3.4466911	0.18164169	15.562775	0.36166248	-164.34312	0.36235934	15.723691	
	0.361958	15.771849	0.36166248	-164.34312	0.7215705	15.174872	0.35442161	-32.525593	
	0.36135048	-164.3008	0.36235934	15.723691	0.35442161	-32.525593	0.72239189	15.212918	
	
0.343234385008977	0.18196983	14.828319	0.82178542	-3.3846538	0.36259804	15.360944	0.36187605	-164.62982	
