# MHz S MA R 50

0.1	0.48976756	3.5335524	0.50923434	-3.6151042	0.48613268	3.9153646	0.48500563	-176.25887	
	0.50923434	-3.6151042	0.48638264	3.7499616	0.48724062	-176.61448	0.48836177	3.3522971	
	0.48613268	3.9153646	0.48724062	-176.61448	0.4887184	3.2667171	0.50898848	-3.5868124	
	0.48500563	-176.25887	0.48836177	3.3522971	0.50898848	-3.5868124	0.48841282	3.5210139	
	
0.102310062021247	0.48967702	3.3287786	0.50761686	-3.4747758	0.48660015	3.9208586	0.48546454	-176.18935	
	0.50761686	-3.4747758	0.48899606	3.6060425	0.48727324	-176.4888	0.48830317	3.5187657	
	0.48660015	3.9208586	0.48727324	-176.4888	0.49103114	3.3390488	0.50745797	-3.510331	
	0.48546454	-176.18935	0.48830317	3.5187657	0.50745797	-3.510331	0.48960294	3.4240156	
	
0.104673487907914	0.49026314	3.3958226	0.508172	-3.4289217	0.48667503	3.5798042	0.48568767	-176.43389	
	0.508172	-3.4289217	0.49005169	3.4846286	0.48590009	-176.49183	0.48658118	3.7179062	
	0.48667503	3.5798042	0.48590009	-176.49183	0.48980752	3.5803057	0.50709734	-3.3536212	
	0.48568767	-176.43389	0.48658118	3.7179062	0.50709734	-3.3536212	0.48951568	3.4590521	
	
0.107091510398389	0.49000126	3.2489133	0.50751971	-3.3818157	0.48703174	3.5505337	0.48631246	-176.48889	
	0.50751971	-3.3818157	0.49008063	3.299456	0.48601448	-176.53321	0.48701885	3.558555	
	0.48703174	3.5505337	0.48601448	-176.53321	0.49040333	3.3351938	0.50738786	-3.3003969	
	0.48631246	-176.48889	0.48701885	3.558555	0.50738786	-3.3003969	0.49048826	3.5234335	
	
0.109565390708082	0.49120433	3.2838646	0.50778837	-3.3490066	0.48725387	3.4963359	0.48630485	-176.53029	
	0.50778837	-3.3490066	0.4890719	3.3857785	0.48648129	-176.70985	0.48760317	3.4414074	
	0.48725387	3.4963359	0.48648129	-176.70985	0.48927031	3.3412547	0.50752888	-3.2722836	
	0.48630485	-176.53029	0.48760317	3.4414074	0.50752888	-3.2722836	0.48897681	3.2495301	
	
0.112096419187261	0.49075502	3.1074807	0.50805291	-3.2289726	0.48694652	3.4077583	0.48667618	-176.61172	
	0.50805291	-3.2289726	0.48950458	3.2357842	0.48674889	-176.70281	0.48722741	3.3460212	
	0.48694652	3.4077583	0.48674889	-176.70281	0.49034378	3.2667027	0.50775791	-3.2459969	
	0.48667618	-176.61172	0.48722741	3.3460212	0.50775791	-3.2459969	0.48994842	3.2588687	
	
0.114685915994083	0.48999446	3.1003588	0.50756664	-3.1330951	0.48733831	3.3253193	0.48602856	-176.72897	
	0.50756664	-3.1330951	0.48962132	3.1847856	0.48718311	-176.70881	0.48814942	3.2837977	
	0.48733831	3.3253193	0.48718311	-176.70881	0.49111353	3.2450619	0.5067464	-3.1453517	
	0.48602856	-176.72897	0.48814942	3.2837977	0.5067464	-3.1453517	0.48990499	3.2529583	
	
0.117335231783182	0.49097177	3.096835	0.50707273	-3.0861486	0.48716707	3.3532217	0.48693509	-176.77431	
	0.50707273	-3.0861486	0.48982332	3.1204199	0.48656871	-176.79193	0.48832784	3.2295675	
	0.48716707	3.3532217	0.48656871	-176.79193	0.49099562	3.0132703	0.50672157	-3.0610563	
	0.48693509	-176.77431	0.48832784	3.2295675	0.50672157	-3.0610563	0.48971438	3.0531515	
	
0.120045748410147	0.49174889	2.9877836	0.50594098	-3.0147891	0.4875236	3.289019	0.48570656	-176.84985	
	0.50594098	-3.0147891	0.48941371	3.003809	0.4861087	-176.89262	0.48779685	3.0676758	
	0.4875236	3.289019	0.4861087	-176.89262	0.49059268	2.9716813	0.50656189	-2.9753695	
	0.48570656	-176.84985	0.48779685	3.0676758	0.50656189	-2.9753695	0.48938195	2.9792781	
	
0.122818879652292	0.49030017	2.9669638	0.50718903	-2.9841217	0.48756473	3.189666	0.48677134	-176.8811	
	0.50718903	-2.9841217	0.49021337	3.0064321	0.48711091	-176.97979	0.4882434	3.0300666	
	0.48756473	3.189666	0.48711091	-176.97979	0.49080906	2.9025532	0.50688473	-2.9610116	
	0.48677134	-176.8811	0.4882434	3.0300666	0.50688473	-2.9610116	0.48970407	2.9861749	
	
0.125656071946061	0.49082185	2.8159268	0.50704396	-2.9392173	0.48771603	3.1171746	0.48724309	-176.92175	
	0.50704396	-2.9392173	0.48976698	2.9055831	0.48754429	-177.02621	0.48837545	3.0042364	
	0.48771603	3.1171746	0.48754429	-177.02621	0.49055794	2.9399326	0.50703104	-2.8745047	
	0.48724309	-176.92175	0.48837545	3.0042364	0.50703104	-2.8745047	0.48986591	2.7670074	
	
0.128558805141477	0.49030736	2.8072993	0.50689437	-2.8808463	0.48733019	3.0730508	0.48611204	-177.03873	
	0.50689437	-2.8808463	0.48972912	2.9247162	0.48643519	-177.16442	0.48811745	2.9573857	
	0.48733019	3.0730508	0.48643519	-177.16442	0.49049698	2.8027958	0.50657678	-2.8185847	
	0.48611204	-177.03873	0.48811745	2.9573857	0.50657678	-2.8185847	0.48927459	2.8410108	
	
0.131528593274019	0.49094371	2.7070587	0.50657897	-2.7777075	0.48821381	2.9764475	0.48755435	-177.15233	
	0.50657897	-2.7777075	0.49029572	2.8321159	0.48776372	-177.18576	0.48853153	2.8861366	
	0.48821381	2.9764475	0.48776372	-177.18576	0.49133929	2.7807482	0.5070527	-2.7369779	
	0.48755435	-177.15233	0.48853153	2.8861366	0.5070527	-2.7369779	0.48961916	2.765157	
	
0.134566985354323	0.49046316	2.6349161	0.50689011	-2.7412882	0.48734738	2.8902721	0.48682056	-177.21819	
	0.50689011	-2.7412882	0.49070723	2.810682	0.48698752	-177.29531	0.48797957	2.819389	
	0.48734738	2.8902721	0.48698752	-177.29531	0.49148193	2.6637188	0.50636517	-2.6938801	
	0.48682056	-177.21819	0.48797957	2.819389	0.50636517	-2.6938801	0.48965592	2.6263917	
	
0.13767556617613	0.4909722	2.5893337	0.50614632	-2.7200118	0.48724202	2.8658879	0.48600433	-177.1658	
	0.50614632	-2.7200118	0.49000482	2.7734793	0.48681822	-177.27012	0.48790333	2.7513387	
	0.48724202	2.8658879	0.48681822	-177.27012	0.49083705	2.4785236	0.50640206	-2.646553	
	0.48600433	-177.1658	0.48790333	2.7513387	0.50640206	-2.646553	0.49011702	2.5717475	
	
0.140855957142902	0.49197054	2.4986713	0.50671918	-2.7060013	0.48765243	2.8539165	0.48707226	-177.23698	
	0.50671918	-2.7060013	0.48915989	2.6498782	0.48669674	-177.42807	0.48805192	2.7266374	
	0.48765243	2.8539165	0.48669674	-177.42807	0.49081748	2.6215595	0.50602351	-2.6032041	
	0.48707226	-177.23698	0.48805192	2.7266374	0.50602351	-2.6032041	0.48891479	2.5488058	
	
0.144109817113524	0.4915584	2.4843076	0.50656981	-2.5590961	0.48768054	2.7692765	0.4866863	-177.32347	
	0.50656981	-2.5590961	0.48969011	2.6081169	0.48714162	-177.43494	0.48821894	2.6349614	
	0.48768054	2.7692765	0.48714162	-177.43494	0.49104245	2.4928822	0.50567508	-2.576599	
	0.4866863	-177.32347	0.48821894	2.6349614	0.50567508	-2.576599	0.49008437	2.5559338	
	
0.147438843267552	0.49122724	2.4187531	0.50619609	-2.4954703	0.48864499	2.6949736	0.48684868	-177.49952	
	0.50619609	-2.4954703	0.49032228	2.4998965	0.48740072	-177.50791	0.48828286	2.6185014	
	0.48864499	2.6949736	0.48740072	-177.50791	0.48999514	2.5424426	0.50606879	-2.571456	
	0.48684868	-177.49952	0.48828286	2.6185014	0.50606879	-2.571456	0.48982543	2.5033113	
	
0.150844771990442	0.49110583	2.3560209	0.50604979	-2.5325709	0.48797137	2.658482	0.48666334	-177.37178	
	0.50604979	-2.5325709	0.48929136	2.4054389	0.48653906	-177.52904	0.48801601	2.5609219	
	0.48797137	2.658482	0.48653906	-177.52904	0.49090228	2.4277499	0.50596199	-2.4429339	
	0.48666334	-177.37178	0.48801601	2.5609219	0.50596199	-2.4429339	0.49031821	2.482169	
	
0.154329379779229	0.49170065	2.4734337	0.50621494	-2.4332945	0.48807105	2.6295717	0.48699179	-177.48935	
	0.50621494	-2.4332945	0.49003722	2.4981475	0.48784644	-177.6044	0.48892745	2.4567134	
	0.48807105	2.6295717	0.48784644	-177.6044	0.49025116	2.2160903	0.50576213	-2.4156861	
	0.48699179	-177.48935	0.48892745	2.4567134	0.50576213	-2.4156861	0.49070582	2.5131409	
	
0.157894484169135	0.4907659	2.3205882	0.50694545	-2.3701522	0.48800833	2.5565755	0.48761495	-177.51655	
	0.50694545	-2.3701522	0.48932722	2.4723277	0.48762424	-177.6327	0.48864833	2.4953548	
	0.48800833	2.5565755	0.48762424	-177.6327	0.49174462	2.2787377	0.50612018	-2.3786078	
	0.48761495	-177.51655	0.48864833	2.4953548	0.50612018	-2.3786078	0.48994975	2.3264433	
	
0.16154194468157	0.4919966	2.1318826	0.50636159	-2.3425663	0.48804194	2.4641702	0.48714023	-177.64278	
	0.50636159	-2.3425663	0.48925835	2.2152391	0.48748654	-177.70358	0.4886195	2.4437805	
	0.48804194	2.4641702	0.48748654	-177.70358	0.4911225	2.2428282	0.50510923	-2.3161517	
	0.48714023	-177.64278	0.4886195	2.4437805	0.50510923	-2.3161517	0.49136468	2.3571255	
	
0.165273663794043	0.49136524	2.1890963	0.50574138	-2.3224334	0.48777119	2.4686291	0.48663722	-177.60602	
	0.50574138	-2.3224334	0.49085096	2.2808543	0.48690322	-177.75055	0.48803346	2.3920999	
	0.48777119	2.4686291	0.48690322	-177.75055	0.49048939	2.1813052	0.50571029	-2.3125438	
	0.48663722	-177.60602	0.48803346	2.3920999	0.50571029	-2.3125438	0.48996408	2.2614336	
	
0.169091587932473	0.49108907	2.0784064	0.50540046	-2.2999882	0.48805837	2.4033815	0.4865698	-177.6345	
	0.50540046	-2.2999882	0.49113806	2.2656941	0.48676935	-177.76451	0.4879868	2.3405988	
	0.48805837	2.4033815	0.48676935	-177.76451	0.49125706	2.1817318	0.50512319	-2.2788298	
	0.4865698	-177.6345	0.4879868	2.3405988	0.50512319	-2.2788298	0.49038412	2.2073278	
	
0.172997708486424	0.49088621	2.0322733	0.50597001	-2.223849	0.4881175	2.4530858	0.48692674	-177.81034	
	0.50597001	-2.223849	0.49023856	2.1753907	0.4874209	-177.80744	0.48788039	2.2609413	
	0.4881175	2.4530858	0.4874209	-177.80744	0.49170078	2.0944254	0.50608704	-2.1675401	
	0.48692674	-177.81034	0.48788039	2.2609413	0.50608704	-2.1675401	0.4901411	2.0848578	
	
0.176994062847797	0.49160529	1.9736836	0.50576482	-2.2295114	0.48808922	2.2818834	0.4869516	-177.80839	
	0.50576482	-2.2295114	0.49026967	2.1985187	0.48743716	-177.95594	0.48809685	2.2374602	
	0.48808922	2.2818834	0.48743716	-177.95594	0.49139985	2.1691918	0.50567085	-2.1546868	
	0.4869516	-177.80839	0.48809685	2.2374602	0.50567085	-2.1546868	0.48977429	1.9952452	
	
0.181082735473506	0.49105553	1.8494202	0.5057113	-2.1027363	0.48814335	2.1897591	0.48724324	-177.79074	
	0.5057113	-2.1027363	0.4902	2.0399781	0.48762884	-178.00162	0.48841255	2.210353	
	0.48814335	2.1897591	0.48762884	-178.00162	0.49120011	2.0861982	0.50586691	-2.1175428	
	0.48724324	-177.79074	0.48841255	2.210353	0.50586691	-2.1175428	0.49027888	1.9380117	
	
0.185265858972714	0.49091305	1.9192521	0.50616676	-2.0611686	0.48833929	2.2039684	0.48753455	-177.85821	
	0.50616676	-2.0611686	0.48996849	2.0243086	0.48788265	-178.03071	0.48835924	2.0803946	
	0.48833929	2.2039684	0.48788265	-178.03071	0.49179213	1.9190693	0.50574024	-2.0497853	
	0.48753455	-177.85821	0.48835924	2.0803946	0.50574024	-2.0497853	0.49071105	1.9852346	
	
0.18954561521918	0.49166919	1.9438201	0.50529168	-2.0606314	0.48804036	2.1086835	0.48674051	-177.92016	
	0.50529168	-2.0606314	0.48966264	2.0886611	0.48732357	-178.17811	0.48854869	2.0870826	
	0.48804036	2.1086835	0.48732357	-178.17811	0.49058938	1.9158614	0.50584049	-2.0182647	
	0.48674051	-177.92016	0.48854869	2.0870826	0.50584049	-2.0182647	0.49029572	1.9236399	
	
0.193924236489297	0.49140339	1.9113681	0.50552407	-2.0340602	0.48793424	2.1427372	0.48647979	-178.02796	
	0.50552407	-2.0340602	0.49020563	1.9512242	0.48726878	-178.11887	0.4881677	2.0766695	
	0.48793424	2.1427372	0.48726878	-178.11887	0.49063654	1.908279	0.50564999	-1.9343442	
	0.48647979	-178.02796	0.4881677	2.0766695	0.50564999	-1.9343442	0.49065376	1.8468031	
	
0.19840400662643	0.49144964	1.8494785	0.50597496	-1.9633573	0.48821845	2.1094652	0.48694822	-178.06449	
	0.50597496	-1.9633573	0.49017191	1.8665262	0.4876324	-178.16664	0.48844857	2.040119	
	0.48821845	2.1094652	0.4876324	-178.16664	0.49061848	1.7858812	0.50542969	-1.9535589	
	0.48694822	-178.06449	0.48844857	2.040119	0.50542969	-1.9535589	0.49058371	1.8829724	
	
0.202987262232139	0.49164848	1.7801986	0.50580236	-1.9459932	0.48800137	1.9954066	0.48704298	-177.9816	
	0.50580236	-1.9459932	0.49022539	1.9702204	0.48687797	-178.19074	0.48755752	1.9693046	
	0.48800137	1.9954066	0.48687797	-178.19074	0.49093354	1.7656755	0.50500194	-1.9442983	
	0.48704298	-177.9816	0.48755752	1.9693046	0.50500194	-1.9442983	0.49089994	1.7817215	
	
0.207676393884933	0.49140982	1.8386593	0.50545826	-1.9372201	0.48832709	2.0305323	0.48679398	-178.1054	
	0.50545826	-1.9372201	0.49043497	1.7399743	0.48726275	-178.2818	0.48849724	1.924531	
	0.48832709	2.0305323	0.48726275	-178.2818	0.4917737	1.7656507	0.5047888	-1.8631726	
	0.48679398	-178.1054	0.48849724	1.924531	0.5047888	-1.8631726	0.48974944	1.7275142	
	
0.212473847387164	0.49180307	1.6812881	0.50566097	-1.8817208	0.48852012	1.9576922	0.48756782	-178.18174	
	0.50566097	-1.8817208	0.49010855	1.7741749	0.4875175	-178.26706	0.48853931	1.8555507	
	0.48852012	1.9576922	0.4875175	-178.26706	0.4904822	1.6697513	0.50548828	-1.841066	
	0.48756782	-178.18174	0.48853931	1.8555507	0.50548828	-1.841066	0.49087283	1.7267588	
	
0.217382125040737	0.49189507	1.6435239	0.50531904	-1.8488094	0.48805491	1.9194649	0.48666736	-178.23857	
	0.50531904	-1.8488094	0.49067051	1.6628271	0.48757644	-178.34579	0.48863834	1.8899491	
	0.48805491	1.9194649	0.48757644	-178.34579	0.49060039	1.7582316	0.50503997	-1.7830762	
	0.48666736	-178.23857	0.48863834	1.8899491	0.50503997	-1.7830762	0.49041132	1.7140348	
	
0.222403786952283	0.49164595	1.6893737	0.50542665	-1.8313348	0.48817123	1.8682281	0.48744535	-178.21819	
	0.50542665	-1.8313348	0.49058467	1.8707402	0.48765466	-178.39549	0.48875927	1.8204766	
	0.48817123	1.8682281	0.48765466	-178.39549	0.49189062	1.703569	0.50494162	-1.7868047	
	0.48744535	-178.21819	0.48875927	1.8204766	0.50494162	-1.7868047	0.49037537	1.7020417	
	
0.227541452368483	0.49166231	1.5547143	0.50547896	-1.755443	0.48811299	1.9206824	0.4871814	-178.29176	
	0.50547896	-1.755443	0.49060585	1.6512678	0.48729369	-178.3488	0.4882534	1.7168629	
	0.48811299	1.9206824	0.48729369	-178.3488	0.49151601	1.7014539	0.50468718	-1.7367586	
	0.4871814	-178.29176	0.4882534	1.7168629	0.50468718	-1.7367586	0.49129538	1.6064149	
	
0.232797801042241	0.49238863	1.4877385	0.50549712	-1.8017146	0.48801434	1.7625464	0.48730431	-178.34856	
	0.50549712	-1.8017146	0.48994987	1.6524243	0.48747636	-178.42354	0.48903306	1.7821589	
	0.48801434	1.7625464	0.48747636	-178.42354	0.49107368	1.6000449	0.50485539	-1.7321728	
	0.48730431	-178.34856	0.48903306	1.7821589	0.50485539	-1.7321728	0.49006105	1.6245679	
	
0.238175574630416	0.49176028	1.4863549	0.50497074	-1.7690842	0.48804016	1.7884525	0.48716027	-178.35942	
	0.50497074	-1.7690842	0.49006187	1.6489073	0.48735605	-178.44071	0.48839401	1.7220683	
	0.48804016	1.7884525	0.48735605	-178.44071	0.49217132	1.6944397	0.50540627	-1.7073942	
	0.48716027	-178.35942	0.48839401	1.7220683	0.50540627	-1.7073942	0.49036201	1.6053592	
	
0.24367757812384	0.49154624	1.4235084	0.50540976	-1.6742036	0.48847854	1.7687996	0.48697431	-178.39448	
	0.50540976	-1.6742036	0.49064439	1.6205486	0.48787073	-178.54638	0.48864923	1.680673	
	0.48847854	1.7687996	0.48787073	-178.54638	0.49023531	1.4951973	0.5051907	-1.649236	
	0.48697431	-178.39448	0.48864923	1.680673	0.5051907	-1.649236	0.49027289	1.5657759	
	
0.249306681310373	0.49121045	1.3808586	0.50596963	-1.7276452	0.48913844	1.7360194	0.48808706	-178.37772	
	0.50596963	-1.7276452	0.48938535	1.5456719	0.48825281	-178.43625	0.4889256	1.7237443	
	0.48913844	1.7360194	0.48825281	-178.43625	0.49074771	1.5979674	0.50573955	-1.6671125	
	0.48808706	-178.37772	0.4889256	1.7237443	0.50573955	-1.6671125	0.4906577	1.4636314	
	
0.255065820271756	0.49171956	1.3260938	0.50555183	-1.6831462	0.48874354	1.7563338	0.48772961	-178.41667	
	0.50555183	-1.6831462	0.49008136	1.4611731	0.48804843	-178.6007	0.48873527	1.6494371	
	0.48874354	1.7563338	0.48804843	-178.6007	0.49117806	1.5023302	0.50540799	-1.6183	
	0.48772961	-178.41667	0.48873527	1.6494371	0.50540799	-1.6183	0.49036035	1.5251745	
	
0.260957998915036	0.49281223	1.4069161	0.50512262	-1.5874215	0.48792042	1.731105	0.4873849	-178.49673	
	0.50512262	-1.5874215	0.49068542	1.4337321	0.48777157	-178.58375	0.48854558	1.6093791	
	0.48792042	1.731105	0.48777157	-178.58375	0.49094509	1.3797387	0.50512585	-1.6119022	
	0.4873849	-178.49673	0.48854558	1.6093791	0.50512585	-1.6119022	0.49085281	1.4605738	
	
0.266986290539378	0.49184169	1.4121145	0.50527394	-1.6127994	0.48870328	1.6186642	0.48801648	-178.54922	
	0.50527394	-1.6127994	0.49070871	1.4731758	0.48797958	-178.6357	0.48938283	1.5503516	
	0.48870328	1.6186642	0.48797958	-178.6357	0.49128343	1.4337432	0.50479062	-1.5430416	
	0.48801648	-178.54922	0.48938283	1.5503516	0.50479062	-1.5430416	0.49048807	1.3885215	
	
0.273153839439064	0.49161649	1.4616311	0.50583914	-1.6462333	0.48890725	1.6329166	0.48807336	-178.54385	
	0.50583914	-1.6462333	0.4901807	1.4637014	0.48859157	-178.62842	0.4890392	1.5963687	
	0.48890725	1.6329166	0.48859157	-178.62842	0.4910912	1.4291355	0.50523819	-1.5145191	
	0.48807336	-178.54385	0.4890392	1.5963687	0.50523819	-1.5145191	0.49088213	1.3148058	
	
0.279463862543524	0.4924929	1.254232	0.50544031	-1.5950392	0.48936254	1.6329083	0.48850062	-178.54177	
	0.50544031	-1.5950392	0.48982394	1.3738959	0.48810827	-178.62899	0.48838384	1.4831542	
	0.48936254	1.6329083	0.48810827	-178.62899	0.49202396	1.2509073	0.50537623	-1.5199343	
	0.48850062	-178.54177	0.48838384	1.4831542	0.50537623	-1.5199343	0.49051539	1.3860431	
	
0.285919651095252	0.49156045	1.3912014	0.50534004	-1.5451601	0.48860181	1.560715	0.48814498	-178.64179	
	0.50534004	-1.5451601	0.49123463	1.4605165	0.48830333	-178.72746	0.48916933	1.4785887	
	0.48860181	1.560715	0.48830333	-178.72746	0.49130472	1.3534063	0.50530565	-1.5492307	
	0.48814498	-178.64179	0.48916933	1.4785887	0.50530565	-1.5492307	0.49062807	1.2971649	
	
0.292524572366485	0.49166228	1.2096613	0.50491504	-1.5698914	0.48851589	1.5575996	0.48822241	-178.67293	
	0.50491504	-1.5698914	0.49142518	1.4631353	0.4887597	-178.85609	0.48937749	1.4063945	
	0.48851589	1.5575996	0.4887597	-178.85609	0.49188821	1.3455666	0.50522531	-1.4990019	
	0.48822241	-178.67293	0.48937749	1.4063945	0.50522531	-1.4990019	0.49115884	1.2878281	
	
0.299282071415539	0.49228726	1.1987155	0.50501138	-1.5346775	0.48812232	1.4917216	0.48757974	-178.71566	
	0.50501138	-1.5346775	0.4907471	1.5238695	0.48790679	-178.8681	0.48875643	1.3249088	
	0.48812232	1.4917216	0.48790679	-178.8681	0.49107611	1.3671715	0.50510817	-1.4724244	
	0.48757974	-178.71566	0.48875643	1.3249088	0.50510817	-1.4724244	0.49076921	1.3886882	
	
0.30619567288371	0.49185111	1.3755012	0.50509862	-1.5790172	0.48906867	1.4950622	0.4875333	-178.73261	
	0.50509862	-1.5790172	0.49088693	1.4512641	0.48839464	-178.83251	0.48862669	1.3731965	
	0.48906867	1.4950622	0.48839464	-178.83251	0.49119755	1.3500168	0.50470871	-1.4241686	
	0.4875333	-178.73261	0.48862669	1.3731965	0.50470871	-1.4241686	0.49170931	1.2432904	
	
0.313268982833699	0.49181836	1.126341	0.50506834	-1.4419099	0.48914736	1.4758425	0.48810846	-178.7334	
	0.50506834	-1.4419099	0.49098522	1.3384447	0.48863345	-178.83476	0.48931613	1.3522002	
	0.48914736	1.4758425	0.48863345	-178.83476	0.49150266	1.1873362	0.50489517	-1.3348602	
	0.48810846	-178.7334	0.48931613	1.3522002	0.50489517	-1.3348602	0.49057172	1.2217777	
	
0.320505690630487	0.49165453	1.1122154	0.50530654	-1.4033447	0.48849054	1.468141	0.4879561	-178.70758	
	0.50530654	-1.4033447	0.49037066	1.1893925	0.48795976	-178.81954	0.48952517	1.3716285	
	0.48849054	1.468141	0.48795976	-178.81954	0.49134162	1.1546305	0.50503659	-1.2997078	
	0.4879561	-178.70758	0.48952517	1.3716285	0.50503659	-1.2997078	0.49015918	1.1397104	
	
0.327909570865677	0.49129479	0.92729549	0.5047791	-1.341513	0.48881524	1.5539169	0.48773532	-178.68517	
	0.5047791	-1.341513	0.49001567	1.0794697	0.48805106	-178.82946	0.48927966	1.3847339	
	0.48881524	1.5539169	0.48805106	-178.82946	0.4915827	1.1033751	0.5049613	-1.2791875	
	0.48773532	-178.68517	0.48927966	1.3847339	0.5049613	-1.2791875	0.49110912	1.0697383	
	
0.335484485326279	0.49205611	1.0560653	0.50476881	-1.3537457	0.48870989	1.47002	0.48762986	-178.76396	
	0.50476881	-1.3537457	0.49074723	1.1072868	0.48802438	-178.80867	0.48909496	1.4322566	
	0.48870989	1.47002	0.48802438	-178.80867	0.49098904	0.94512333	0.50505196	-1.2576779	
	0.48762986	-178.76396	0.48909496	1.4322566	0.50505196	-1.2576779	0.49057514	1.0292758	
	
0.343234385008977	0.49107583	1.0633377	0.50509064	-1.3512304	0.48930775	1.4264386	0.48839466	-178.75746	
