# MHz S MA R 50

0.1	0.1267398	46.086377	0.91262424	-5.8448936	0.25578978	46.642848	0.25521928	-133.49716	
	0.91262424	-5.8448936	0.12785378	48.918567	0.25608709	-133.95126	0.25670411	45.986236	
	0.25578978	46.642848	0.25608709	-133.95126	0.515408	45.321957	0.73219965	-30.214524	
	0.25521928	-133.49716	0.25670411	45.986236	0.73219965	-30.214524	0.52008812	45.339007	
	
0.102310062021247	0.12675934	45.076958	0.91096337	-5.9191654	0.25951798	46.368745	0.25929724	-133.69869	
	0.91096337	-5.9191654	0.12930633	46.990631	0.25992753	-134.13497	0.26052669	45.761702	
	0.25951798	46.368745	0.25992753	-134.13497	0.5229498	44.736562	0.72553599	-30.749422	
	0.25929724	-133.69869	0.26052669	45.761702	0.72553599	-30.749422	0.52552203	44.879472	
	
0.104673487907914	0.13219066	44.839362	0.90868374	-5.9383452	0.26146559	45.374626	0.2611363	-134.60699	
	0.90868374	-5.9383452	0.13122154	45.221928	0.2610975	-134.58283	0.26164242	45.518137	
	0.26146559	45.374626	0.2610975	-134.58283	0.5290173	44.139857	0.71772671	-30.879253	
	0.2611363	-134.60699	0.26164242	45.518137	0.71772671	-30.879253	0.52698919	44.167493	
	
0.107091510398389	0.13193998	44.165059	0.90706663	-5.9405011	0.26499639	44.855172	0.26453271	-135.15036	
	0.90706663	-5.9405011	0.13304603	44.89109	0.26435846	-135.14617	0.26481838	44.795452	
	0.26499639	44.855172	0.26435846	-135.14617	0.53493897	43.602108	0.71152183	-31.277849	
	0.26453271	-135.15036	0.26481838	44.795452	0.71152183	-31.277849	0.53495592	43.601894	
	
0.109565390708082	0.13471864	43.577578	0.90535166	-5.9716496	0.26827953	44.068666	0.26814202	-135.8613	
	0.90535166	-5.9716496	0.13411643	45.040626	0.26810441	-136.02291	0.26867061	44.040048	
	0.26827953	44.068666	0.26810441	-136.02291	0.54118004	42.998459	0.70430431	-31.623511	
	0.26814202	-135.8613	0.26867061	44.040048	0.70430431	-31.623511	0.54112413	42.879274	
	
0.112096419187261	0.13509507	42.487723	0.90277188	-5.9848922	0.27127584	43.585071	0.27076326	-136.40638	
	0.90277188	-5.9848922	0.13548451	43.759177	0.27058713	-136.65791	0.27083616	43.363018	
	0.27127584	43.585071	0.27058713	-136.65791	0.54597688	42.290721	0.69679039	-32.011341	
	0.27076326	-136.40638	0.27083616	43.363018	0.69679039	-32.011341	0.5463205	42.310002	
	
0.114685915994083	0.13742226	42.746503	0.90138823	-5.9727308	0.27438172	42.913637	0.27402111	-137.12807	
	0.90138823	-5.9727308	0.13670153	43.738835	0.27442042	-137.08746	0.27540543	42.82609	
	0.27438172	42.913637	0.27442042	-137.08746	0.55301598	41.725013	0.69041944	-32.28131	
	0.27402111	-137.12807	0.27540543	42.82609	0.69041944	-32.28131	0.55355722	41.858857	
	
0.117335231783182	0.13862895	41.636214	0.89903811	-6.0134419	0.2775086	42.406137	0.27767417	-137.69038	
	0.89903811	-6.0134419	0.13793605	42.935242	0.27712165	-137.76639	0.2782079	42.166116	
	0.2775086	42.406137	0.27712165	-137.76639	0.55916225	41.12036	0.68285973	-32.721053	
	0.27767417	-137.69038	0.2782079	42.166116	0.68285973	-32.721053	0.55977568	41.271445	
	
0.120045748410147	0.1405275	40.72434	0.89680828	-6.0325385	0.28036537	41.837484	0.27959079	-138.29854	
	0.89680828	-6.0325385	0.13915494	42.97441	0.28011871	-138.35814	0.28096886	41.499059	
	0.28036537	41.837484	0.28011871	-138.35814	0.56395631	40.431064	0.67560277	-32.922313	
	0.27959079	-138.29854	0.28096886	41.499059	0.67560277	-32.922313	0.5643148	40.464845	
	
0.122818879652292	0.14081042	40.562721	0.89497728	-6.0235297	0.28347773	41.022193	0.28311269	-139.04896	
	0.89497728	-6.0235297	0.14135661	41.411679	0.28338812	-139.01713	0.28370258	40.81795	
	0.28347773	41.022193	0.28338812	-139.01713	0.57057173	39.843778	0.66769265	-33.281225	
	0.28311269	-139.04896	0.28370258	40.81795	0.66769265	-33.281225	0.57087463	39.914939	
	
0.125656071946061	0.14259108	39.855045	0.89305109	-6.0336214	0.28671835	40.461646	0.28632246	-139.49558	
	0.89305109	-6.0336214	0.14208005	41.240411	0.28657918	-139.68873	0.28683674	40.344776	
	0.28671835	40.461646	0.28657918	-139.68873	0.57557681	39.255711	0.66089496	-33.589368	
	0.28632246	-139.49558	0.28683674	40.344776	0.66089496	-33.589368	0.57618974	39.325049	
	
0.128558805141477	0.14316417	39.161776	0.89038233	-6.0474115	0.28900351	39.815463	0.28859792	-140.27317	
	0.89038233	-6.0474115	0.14426392	40.438183	0.28852915	-140.39332	0.2890934	39.576139	
	0.28900351	39.815463	0.28852915	-140.39332	0.58174409	38.630149	0.65274767	-33.841195	
	0.28859792	-140.27317	0.2890934	39.576139	0.65274767	-33.841195	0.58192578	38.613689	
	
0.131528593274019	0.14597027	39.055008	0.88889855	-6.0417743	0.29208893	39.179054	0.29226478	-140.85623	
	0.88889855	-6.0417743	0.14627072	40.118872	0.2924029	-140.91375	0.29251591	39.069019	
	0.29208893	39.179054	0.2924029	-140.91375	0.58741903	38.005253	0.6454525	-34.187588	
	0.29226478	-140.85623	0.29251591	39.069019	0.6454525	-34.187588	0.58790353	38.21074	
	
0.134566985354323	0.14754922	37.93831	0.88570946	-5.9890851	0.29424305	38.48033	0.29391785	-141.49023	
	0.88570946	-5.9890851	0.1479425	39.355505	0.29373091	-141.61096	0.29473881	38.467544	
	0.29424305	38.48033	0.29373091	-141.61096	0.59223413	37.517066	0.63735911	-34.432318	
	0.29391785	-141.49023	0.29473881	38.467544	0.63735911	-34.432318	0.59272055	37.416683	
	
0.13767556617613	0.14918488	37.268992	0.88322902	-5.9990247	0.29684717	38.009316	0.29599096	-141.96361	
	0.88322902	-5.9990247	0.1498266	38.972087	0.29663319	-142.12324	0.29706571	37.871004	
	0.29684717	38.009316	0.29663319	-142.12324	0.59708156	36.852523	0.63104183	-34.718345	
	0.29599096	-141.96361	0.29706571	37.871004	0.63104183	-34.718345	0.5958418	36.816806	
	
0.140855957142902	0.1507484	36.395708	0.88101414	-5.9990171	0.2993383	37.329888	0.29931183	-142.70272	
	0.88101414	-5.9990171	0.15096393	37.712443	0.29863874	-142.86455	0.29999138	37.169182	
	0.2993383	37.329888	0.29863874	-142.86455	0.60066191	36.135464	0.62083771	-35.060018	
	0.29931183	-142.70272	0.29999138	37.169182	0.62083771	-35.060018	0.60220764	36.44498	
	
0.144109817113524	0.15160925	35.843931	0.87932419	-5.9697138	0.30208926	36.740857	0.30147599	-143.28955	
	0.87932419	-5.9697138	0.15188971	37.431314	0.30196421	-143.41919	0.30240417	36.474644	
	0.30208926	36.740857	0.30196421	-143.41919	0.60645141	35.664895	0.61474197	-35.231826	
	0.30147599	-143.28955	0.30240417	36.474644	0.61474197	-35.231826	0.60658582	35.68686	
	
0.147438843267552	0.15343935	35.856863	0.87744013	-5.9751797	0.30549546	36.013917	0.30449807	-144.05772	
	0.87744013	-5.9751797	0.15399888	36.567241	0.30473272	-144.07304	0.30532793	35.966612	
	0.30549546	36.013917	0.30473272	-144.07304	0.61235717	35.051529	0.60667746	-35.482484	
	0.30449807	-144.05772	0.30532793	35.966612	0.60667746	-35.482484	0.61262288	35.149758	
	
0.150844771990442	0.15404337	34.98705	0.87519473	-5.9099302	0.30746274	35.531367	0.30656262	-144.46652	
	0.87519473	-5.9099302	0.15336196	35.867908	0.30696195	-144.62582	0.30769256	35.310178	
	0.30746274	35.531367	0.30696195	-144.62582	0.6173169	34.460465	0.60003438	-35.666463	
	0.30656262	-144.46652	0.30769256	35.310178	0.60003438	-35.666463	0.61723233	34.494327	
	
0.154329379779229	0.15583089	34.490028	0.87353135	-5.8928317	0.30988956	34.870091	0.309057	-145.22557	
	0.87353135	-5.8928317	0.15584901	35.570097	0.30980892	-145.31543	0.30990138	34.61364	
	0.30988956	34.870091	0.30980892	-145.31543	0.62125328	33.881212	0.59191269	-35.878257	
	0.309057	-145.22557	0.30990138	34.61364	0.59191269	-35.878257	0.62198519	33.881577	
	
0.157894484169135	0.15680859	33.635202	0.87189638	-5.8416952	0.31242971	34.253968	0.31203853	-145.82126	
	0.87189638	-5.8416952	0.15544385	34.980696	0.31195956	-145.88956	0.31282432	34.119656	
	0.31242971	34.253968	0.31195956	-145.88956	0.62643892	33.234923	0.5844333	-36.126878	
	0.31203853	-145.82126	0.31282432	34.119656	0.5844333	-36.126878	0.62619958	33.287697	
	
0.16154194468157	0.15944123	32.906891	0.86898408	-5.8523855	0.31415723	33.735581	0.31340989	-146.41985	
	0.86898408	-5.8523855	0.15717253	33.672666	0.31401922	-146.40176	0.31469087	33.556413	
	0.31415723	33.735581	0.31401922	-146.40176	0.62971972	32.594789	0.57611924	-36.27447	
	0.31340989	-146.41985	0.31469087	33.556413	0.57611924	-36.27447	0.62994784	32.74662	
	
0.165273663794043	0.15913242	32.387893	0.86710582	-5.8038619	0.31687029	33.055098	0.31613051	-146.93557	
	0.86710582	-5.8038619	0.15908504	33.373443	0.31588482	-147.03932	0.31700053	32.918188	
	0.31687029	33.055098	0.31588482	-147.03932	0.63429551	32.057372	0.56897923	-36.489853	
	0.31613051	-146.93557	0.31700053	32.918188	0.56897923	-36.489853	0.63469992	32.11865	
	
0.169091587932473	0.16008508	31.75191	0.86493945	-5.7693881	0.31906358	32.432929	0.31784122	-147.53513	
	0.86493945	-5.7693881	0.16097144	32.769717	0.31808147	-147.62228	0.31875989	32.384927	
	0.31906358	32.432929	0.31808147	-147.62228	0.63872355	31.559201	0.56144967	-36.656732	
	0.31784122	-147.53513	0.31875989	32.384927	0.56144967	-36.656732	0.63851093	31.531835	
	
0.172997708486424	0.16122939	31.431634	0.86376427	-5.6849288	0.32126646	31.91884	0.3210301	-148.22044	
	0.86376427	-5.6849288	0.1616879	32.239431	0.32066437	-148.21174	0.3211633	31.725001	
	0.32126646	31.91884	0.32066437	-148.21174	0.6430341	30.88723	0.55422672	-36.723512	
	0.3210301	-148.22044	0.3211633	31.725001	0.55422672	-36.723512	0.64395454	30.972454	
	
0.176994062847797	0.16319506	30.946663	0.86153828	-5.6882797	0.32324039	31.271305	0.32265147	-148.70806	
	0.86153828	-5.6882797	0.16200957	31.992798	0.32241208	-148.8546	0.32352265	31.170109	
	0.32324039	31.271305	0.32241208	-148.8546	0.6479829	30.419448	0.54691209	-36.850432	
	0.32265147	-148.70806	0.32352265	31.170109	0.54691209	-36.850432	0.6471577	30.412551	
	
0.181082735473506	0.16328155	29.755231	0.85933471	-5.6402923	0.32493438	30.578861	0.3248241	-149.32315	
	0.85933471	-5.6402923	0.16423389	31.096789	0.32474124	-149.51361	0.32518597	30.601587	
	0.32493438	30.578861	0.32474124	-149.51361	0.6510877	29.821938	0.53885439	-37.013996	
	0.3248241	-149.32315	0.32518597	30.601587	0.53885439	-37.013996	0.65075992	29.806813	
	
0.185265858972714	0.16481947	29.359163	0.85764582	-5.5763127	0.32691991	30.100016	0.325989	-149.93875	
	0.85764582	-5.5763127	0.16505927	30.609908	0.32690723	-150.07087	0.3272343	29.94845	
	0.32691991	30.100016	0.32690723	-150.07087	0.65431745	29.229537	0.53139535	-37.074264	
	0.325989	-149.93875	0.3272343	29.94845	0.53139535	-37.074264	0.65481829	29.263219	
	
0.18954561521918	0.16579262	29.1526	0.85553023	-5.5235894	0.3287984	29.466634	0.32824398	-150.46811	
	0.85553023	-5.5235894	0.16518611	30.26388	0.32789847	-150.65892	0.3293099	29.384719	
	0.3287984	29.466634	0.32789847	-150.65892	0.65859085	28.596938	0.5241739	-37.108427	
	0.32824398	-150.46811	0.3293099	29.384719	0.5241739	-37.108427	0.65885426	28.655231	
	
0.193924236489297	0.16779272	28.743508	0.85441807	-5.4831715	0.3306562	28.906219	0.32991749	-151.06638	
	0.85441807	-5.4831715	0.16581277	29.312302	0.33048752	-151.17677	0.33098575	28.845359	
	0.3306562	28.906219	0.33048752	-151.17677	0.66194225	28.079483	0.5173946	-37.214801	
	0.32991749	-151.06638	0.33098575	28.845359	0.5173946	-37.214801	0.66237986	28.163502	
	
0.19840400662643	0.16857283	27.922187	0.85295631	-5.4289179	0.33288407	28.450588	0.33199913	-151.69359	
	0.85295631	-5.4289179	0.16695155	28.892345	0.33266854	-151.79598	0.33296109	28.251002	
	0.33288407	28.450588	0.33266854	-151.79598	0.6657393	27.586923	0.51054861	-37.3434	
	0.33199913	-151.69359	0.33296109	28.251002	0.51054861	-37.3434	0.66588463	27.517617	
	
0.202987262232139	0.1681914	27.000222	0.85008049	-5.358489	0.33364668	27.769121	0.33301627	-152.06844	
	0.85008049	-5.358489	0.17002791	28.155414	0.33309098	-152.30392	0.33350521	27.652548	
	0.33364668	27.769121	0.33309098	-152.30392	0.66729146	27.023967	0.50242934	-37.336508	
	0.33301627	-152.06844	0.33350521	27.652548	0.50242934	-37.336508	0.66777806	27.142678	
	
0.207676393884933	0.1692845	26.939861	0.8493917	-5.2886244	0.33601291	27.288782	0.33503975	-152.74728	
	0.8493917	-5.2886244	0.16935781	27.84484	0.33496233	-152.88389	0.33627813	27.177952	
	0.33601291	27.288782	0.33496233	-152.88389	0.67173918	26.532767	0.49584586	-37.359217	
	0.33503975	-152.74728	0.33627813	27.177952	0.49584586	-37.359217	0.6720339	26.525809	
	
0.212473847387164	0.17091608	26.113182	0.84747051	-5.2179442	0.33770322	26.741493	0.33681827	-153.311	
	0.84747051	-5.2179442	0.17022885	27.250167	0.33732715	-153.32531	0.33761228	26.58151	
	0.33770322	26.741493	0.33732715	-153.32531	0.67535994	26.011481	0.48908069	-37.377232	
	0.33681827	-153.311	0.33761228	26.58151	0.48908069	-37.377232	0.67510655	25.991082	
	
0.217382125040737	0.1723545	25.506823	0.84591894	-5.1664025	0.33865837	26.163323	0.33794708	-153.77125	
	0.84591894	-5.1664025	0.16993483	26.371349	0.33844794	-153.97868	0.33952096	26.093236	
	0.33865837	26.163323	0.33844794	-153.97868	0.67820085	25.49046	0.48190425	-37.290542	
	0.33794708	-153.77125	0.33952096	26.093236	0.48190425	-37.290542	0.67770388	25.503057	
	
0.222403786952283	0.17288388	25.234402	0.84483805	-5.10906	0.34007172	25.616392	0.33975362	-154.32295	
	0.84483805	-5.10906	0.17133052	26.386614	0.33992001	-154.59456	0.3405203	25.476136	
	0.34007172	25.616392	0.33992001	-154.59456	0.68096063	24.931673	0.47533093	-37.347812	
	0.33975362	-154.32295	0.3405203	25.476136	0.47533093	-37.347812	0.68054469	25.020898	
	
0.227541452368483	0.17288526	24.403629	0.84279595	-5.0226743	0.34147614	25.148787	0.34116126	-154.77886	
	0.84279595	-5.0226743	0.17269615	25.533751	0.34115396	-154.9798	0.34206055	24.908191	
	0.34147614	25.148787	0.34115396	-154.9798	0.68285116	24.476977	0.46893799	-37.238656	
	0.34116126	-154.77886	0.34206055	24.908191	0.46893799	-37.238656	0.68347852	24.509066	
	
0.232797801042241	0.1743316	24.066174	0.84180962	-4.9381343	0.34259956	24.572342	0.34231147	-155.3994	
	0.84180962	-4.9381343	0.17265238	24.979399	0.34243137	-155.51612	0.34359658	24.471121	
	0.34259956	24.572342	0.34243137	-155.51612	0.68637931	24.004131	0.46218966	-37.229936	
	0.34231147	-155.3994	0.34359658	24.471121	0.46218966	-37.229936	0.68577164	23.965249	
	
0.238175574630416	0.17465491	23.619908	0.84013801	-4.9132492	0.34447535	24.089247	0.34407197	-155.89607	
	0.84013801	-4.9132492	0.17358116	24.544974	0.34368436	-156.0061	0.34503794	23.963151	
	0.34447535	24.089247	0.34368436	-156.0061	0.68942432	23.542736	0.45635433	-37.126485	
	0.34407197	-155.89607	0.34503794	23.963151	0.45635433	-37.126485	0.68895121	23.498011	
	
0.24367757812384	0.17488336	22.954781	0.83873109	-4.8282957	0.34593199	23.631281	0.34480902	-156.40495	
	0.83873109	-4.8282957	0.17479532	24.09184	0.34514305	-156.62252	0.34615494	23.423158	
	0.34593199	23.631281	0.34514305	-156.62252	0.69124872	23.021955	0.44945431	-37.02037	
	0.34480902	-156.40495	0.34615494	23.423158	0.44945431	-37.02037	0.6912448	23.042708	
	
0.249306681310373	0.17473568	22.166249	0.83851105	-4.7708051	0.34743013	23.054073	0.34673073	-156.90785	
	0.83851105	-4.7708051	0.17357508	23.237979	0.34643521	-157.00224	0.34725405	22.986161	
	0.34743013	23.054073	0.34643521	-157.00224	0.69374743	22.513471	0.44411602	-36.946977	
	0.34673073	-156.90785	0.34725405	22.986161	0.44411602	-36.946977	0.69303766	22.5975	
	
0.255065820271756	0.1754764	21.910385	0.83708142	-4.6916283	0.34830527	22.674791	0.34769251	-157.36537	
	0.83708142	-4.6916283	0.17525361	22.896199	0.34790505	-157.52501	0.34835128	22.482341	
	0.34830527	22.674791	0.34790505	-157.52501	0.6952815	22.105959	0.43737846	-36.762835	
	0.34769251	-157.36537	0.34835128	22.482341	0.43737846	-36.762835	0.69517726	22.057109	
	
0.260957998915036	0.1773887	21.605379	0.83553109	-4.6072973	0.34881811	22.235186	0.34817666	-157.85322	
	0.83553109	-4.6072973	0.17575534	22.266557	0.34859279	-157.95666	0.34925495	22.039967	
	0.34881811	22.235186	0.34859279	-157.95666	0.69756077	21.592542	0.43179054	-36.663053	
	0.34817666	-157.85322	0.34925495	22.039967	0.43179054	-36.663053	0.69652046	21.669516	
	
0.266986290539378	0.17756025	21.258012	0.83470773	-4.5251581	0.35033491	21.734153	0.34984342	-158.34292	
	0.83470773	-4.5251581	0.17631633	22.123877	0.34979905	-158.44478	0.35070755	21.595194	
	0.35033491	21.734153	0.34979905	-158.44478	0.70100594	21.183948	0.42595035	-36.509888	
	0.34984342	-158.34292	0.35070755	21.595194	0.42595035	-36.509888	0.69983013	21.160022	
	
0.273153839439064	0.1778496	20.709555	0.83385012	-4.4783632	0.35117496	21.26465	0.35038946	-158.7752	
	0.83385012	-4.4783632	0.17654511	21.543287	0.35066696	-158.90703	0.35125575	21.163949	
	0.35117496	21.26465	0.35066696	-158.90703	0.70136193	20.747558	0.42056496	-36.320275	
	0.35038946	-158.7752	0.35125575	21.163949	0.42056496	-36.320275	0.70152404	20.757504	
	
0.279463862543524	0.1771824	19.96896	0.83263782	-4.4031683	0.35273437	20.87636	0.35206958	-159.18955	
	0.83263782	-4.4031683	0.17744332	20.958309	0.35190145	-159.30592	0.35230562	20.61788	
	0.35273437	20.87636	0.35190145	-159.30592	0.7047947	20.255625	0.41536235	-36.190654	
	0.35206958	-159.18955	0.35230562	20.61788	0.41536235	-36.190654	0.70391599	20.349537	
	
0.285919651095252	0.17872855	20.201415	0.83182517	-4.327669	0.35307109	20.341354	0.35280011	-159.71278	
	0.83182517	-4.327669	0.17820168	20.649674	0.35268779	-159.82756	0.35329997	20.22131	
	0.35307109	20.341354	0.35268779	-159.82756	0.70528384	19.854	0.41018763	-35.969482	
	0.35280011	-159.71278	0.35329997	20.22131	0.41018763	-35.969482	0.70502223	19.876715	
	
0.292524572366485	0.1793602	19.438416	0.83050267	-4.2719653	0.35382271	19.961247	0.35354939	-160.08774	
	0.83050267	-4.2719653	0.17812943	21.057231	0.353566	-160.33532	0.35412014	19.738618	
	0.35382271	19.961247	0.353566	-160.33532	0.7070765	19.45739	0.40447591	-35.707668	
	0.35354939	-160.08774	0.35412014	19.738618	0.40447591	-35.707668	0.70745745	19.477583	
	
0.299282071415539	0.18053074	19.264229	0.82915522	-4.1784032	0.35433508	19.471378	0.35381613	-160.56015	
	0.82915522	-4.1784032	0.17950673	20.428763	0.3540145	-160.75129	0.35475059	19.262543	
	0.35433508	19.471378	0.3540145	-160.75129	0.70846616	19.04568	0.39970858	-35.492608	
	0.35381613	-160.56015	0.35475059	19.262543	0.39970858	-35.492608	0.70919405	19.062906	
	
0.30619567288371	0.18035625	18.748212	0.8284852	-4.1272226	0.35508164	19.089454	0.3542169	-160.92146	
	0.8284852	-4.1272226	0.18019066	19.581807	0.35470842	-161.06387	0.35459741	18.934935	
	0.35508164	19.089454	0.35470842	-161.06387	0.70976851	18.709968	0.39453547	-35.23822	
	0.3542169	-160.92146	0.35459741	18.934935	0.39453547	-35.23822	0.70994674	18.617964	
	
0.313268982833699	0.18079478	18.081907	0.82721566	-4.0170831	0.35651889	18.736975	0.3553631	-161.31414	
	0.82721566	-4.0170831	0.18017352	19.142655	0.35596223	-161.50756	0.35659309	18.547491	
	0.35651889	18.736975	0.35596223	-161.50756	0.71236236	18.254889	0.38941447	-34.957943	
	0.3553631	-161.31414	0.35659309	18.547491	0.38941447	-34.957943	0.71131454	18.277409	
	
0.320505690630487	0.18021501	17.561042	0.82683821	-3.9356712	0.3568526	18.350438	0.35652762	-161.69838	
	0.82683821	-3.9356712	0.17972496	18.515054	0.35635607	-161.84311	0.35782647	18.13753	
	0.3568526	18.350438	0.35635607	-161.84311	0.71351652	17.843449	0.38499827	-34.761676	
	0.35652762	-161.69838	0.35782647	18.13753	0.38499827	-34.761676	0.71333563	17.794039	
	
0.327909570865677	0.17914313	16.837877	0.82652207	-3.8578845	0.35825329	18.100367	0.35772886	-162.02597	
	0.82652207	-3.8578845	0.17967491	17.848041	0.35734746	-162.19458	0.35861768	17.796908	
	0.35825329	18.100367	0.35734746	-162.19458	0.71538172	17.446087	0.38031021	-34.510788	
	0.35772886	-162.02597	0.35861768	17.796908	0.38031021	-34.510788	0.71520962	17.495873	
	
0.335484485326279	0.18082253	16.919822	0.82591283	-3.7711772	0.35887797	17.620412	0.35818675	-162.43137	
	0.82591283	-3.7711772	0.18007769	17.401988	0.35874918	-162.53069	0.35928989	17.546272	
	0.35887797	17.620412	0.35874918	-162.53069	0.71529055	17.059724	0.37611299	-34.259671	
	0.35818675	-162.43137	0.35928989	17.546272	0.37611299	-34.259671	0.71639093	17.061183	
	
0.343234385008977	0.18061183	16.429341	0.82533613	-3.7443308	0.35967834	17.178604	0.35920363	-162.83754	
