# MHz S MA R 50

0.1	0.3538561	11.944786	0.65354408	-6.5379455	0.42328745	12.346345	0.42205474	-167.68955	
	0.65354408	-6.5379455	0.35236531	12.691703	0.42401904	-168.11007	0.42514525	11.776984	
	0.42328745	12.346345	0.42401904	-168.11007	0.50874796	11.741304	0.50971716	-12.157514	
	0.42205474	-167.68955	0.42514525	11.776984	0.50971716	-12.157514	0.50876406	12.087235	
	
0.102310062021247	0.35568963	11.457437	0.65136834	-6.5283451	0.42416982	12.301092	0.42375483	-167.74244	
	0.65136834	-6.5283451	0.35496612	11.959343	0.42496422	-168.06644	0.42604386	11.855838	
	0.42416982	12.301092	0.42496422	-168.06644	0.51152602	11.669085	0.50688895	-12.089806	
	0.42375483	-167.74244	0.42604386	11.855838	0.50688895	-12.089806	0.51101161	11.932692	
	
0.104673487907914	0.3574629	11.569102	0.65093661	-6.4193014	0.42489631	11.792039	0.4242616	-168.09839	
	0.65093661	-6.4193014	0.35701543	11.662669	0.42403716	-168.17188	0.42434731	11.94366	
	0.42489631	11.792039	0.42403716	-168.17188	0.51146236	11.791564	0.50540634	-11.834405	
	0.4242616	-168.09839	0.42434731	11.94366	0.50540634	-11.834405	0.51090237	11.761717	
	
0.107091510398389	0.35692196	11.334692	0.65016671	-6.3308559	0.42592895	11.701684	0.42531907	-168.29264	
	0.65016671	-6.3308559	0.35769124	11.455349	0.42520871	-168.32546	0.42565123	11.665449	
	0.42592895	11.701684	0.42520871	-168.32546	0.51261473	11.514855	0.50467939	-11.708476	
	0.42531907	-168.29264	0.42565123	11.665449	0.50467939	-11.708476	0.51211521	11.626082	
	
0.109565390708082	0.35816306	11.20977	0.64955986	-6.2265518	0.42649925	11.48537	0.42555532	-168.49577	
	0.64955986	-6.2265518	0.3566884	11.49057	0.42625472	-168.72597	0.42720508	11.420747	
	0.42649925	11.48537	0.42625472	-168.72597	0.51248493	11.309844	0.50310935	-11.544869	
	0.42555532	-168.49577	0.42720508	11.420747	0.50310935	-11.544869	0.51221405	11.257219	
	
0.112096419187261	0.35855466	10.733139	0.64884209	-6.1474588	0.42690307	11.234287	0.42614736	-168.67787	
	0.64884209	-6.1474588	0.35704922	11.079329	0.42645665	-168.83297	0.42682262	11.206525	
	0.42690307	11.234287	0.42645665	-168.83297	0.51341696	11.001365	0.50181615	-11.413371	
	0.42614736	-168.67787	0.42682262	11.206525	0.50181615	-11.413371	0.51338902	11.143501	
	
0.114685915994083	0.35842575	10.766949	0.64806587	-6.0130523	0.4277354	11.086832	0.42696663	-168.89012	
	0.64806587	-6.0130523	0.35762653	10.91303	0.4276866	-168.96861	0.42866161	10.989388	
	0.4277354	11.086832	0.4276866	-168.96861	0.51431127	10.898753	0.50049837	-11.264076	
	0.42696663	-168.89012	0.42866161	10.989388	0.50049837	-11.264076	0.51431574	10.952945	
	
0.117335231783182	0.35979637	10.486759	0.64695113	-5.9833362	0.42846919	10.940646	0.42820464	-169.06418	
	0.64695113	-5.9833362	0.358264	10.840089	0.42826928	-169.1824	0.4293353	10.839026	
	0.42846919	10.940646	0.42826928	-169.1824	0.51639041	10.646957	0.49856445	-11.125771	
	0.42820464	-169.06418	0.4293353	10.839026	0.49856445	-11.125771	0.51466939	10.750144	
	
0.120045748410147	0.36081658	10.239822	0.64507141	-5.8640708	0.42920315	10.774864	0.42760872	-169.29081	
	0.64507141	-5.8640708	0.35831313	10.739717	0.42793692	-169.33444	0.42949379	10.586738	
	0.42920315	10.774864	0.42793692	-169.33444	0.51618557	10.473436	0.49761699	-10.982097	
	0.42760872	-169.29081	0.42949379	10.586738	0.49761699	-10.982097	0.51465211	10.489352	
	
0.122818879652292	0.36013466	10.197279	0.64569164	-5.7994315	0.4298738	10.565051	0.42884895	-169.46865	
	0.64569164	-5.7994315	0.35951732	10.323243	0.42955503	-169.57319	0.43018479	10.420577	
	0.4298738	10.565051	0.42955503	-169.57319	0.51669939	10.353732	0.49621732	-10.79297	
	0.42884895	-169.46865	0.43018479	10.420577	0.49621732	-10.79297	0.51591647	10.384351	
	
0.125656071946061	0.36078468	9.9765951	0.64515583	-5.7118686	0.4306528	10.363298	0.43028725	-169.59005	
	0.64515583	-5.7118686	0.35965589	10.221671	0.43077747	-169.72787	0.43091679	10.23024	
	0.4306528	10.363298	0.43077747	-169.72787	0.51675643	10.162189	0.49565995	-10.687464	
	0.43028725	-169.59005	0.43091679	10.23024	0.49565995	-10.687464	0.51641273	10.164511	
	
0.128558805141477	0.36054209	9.6872764	0.64391239	-5.6333341	0.43070177	10.226194	0.43006464	-169.8347	
	0.64391239	-5.6333341	0.36019129	10.046257	0.43006253	-169.97544	0.43125851	10.022971	
	0.43070177	10.226194	0.43006253	-169.97544	0.51818527	10.006091	0.49410743	-10.513593	
	0.43006464	-169.8347	0.43125851	10.022971	0.49410743	-10.513593	0.51740451	9.9500349	
	
0.131528593274019	0.3620761	9.8151674	0.64309181	-5.5283992	0.43199059	10.032471	0.43156814	-170.07036	
	0.64309181	-5.5283992	0.36124981	9.9349803	0.43152425	-170.11433	0.43242262	9.8742247	
	0.43199059	10.032471	0.43152425	-170.11433	0.5196738	9.7548594	0.49302731	-10.372037	
	0.43156814	-170.07036	0.43242262	9.8742247	0.49302731	-10.372037	0.51787399	9.798278	
	
0.134566985354323	0.36223416	9.4503595	0.64264961	-5.4209189	0.43136096	9.8113355	0.43141715	-170.23268	
	0.64264961	-5.4209189	0.3614329	9.7900421	0.43107034	-170.30897	0.4321701	9.7591667	
	0.43136096	9.8113355	0.43107034	-170.30897	0.51997151	9.6630986	0.49183574	-10.206282	
	0.43141715	-170.23268	0.4321701	9.7591667	0.49183574	-10.206282	0.51843005	9.6610339	
	
0.13767556617613	0.36262313	9.2843062	0.64112135	-5.4020528	0.43176641	9.6977181	0.43056519	-170.2923	
	0.64112135	-5.4020528	0.36175829	9.6576904	0.43116176	-170.40424	0.4322338	9.5720916	
	0.43176641	9.6977181	0.43116176	-170.40424	0.5202074	9.3823868	0.4907435	-10.071384	
	0.43056519	-170.2923	0.4322338	9.5720916	0.4907435	-10.071384	0.51905811	9.4317876	
	
0.140855957142902	0.36383196	8.9821663	0.64090348	-5.3519366	0.43258801	9.558954	0.43199839	-170.49885	
	0.64090348	-5.3519366	0.36179522	9.4182754	0.43179618	-170.67249	0.43313559	9.3970574	
	0.43258801	9.558954	0.43179618	-170.67249	0.52024199	9.3488644	0.48906016	-9.9491436	
	0.43199839	-170.49885	0.43313559	9.3970574	0.48906016	-9.9491436	0.51899236	9.3786643	
	
0.144109817113524	0.36360054	8.9952236	0.64060884	-5.2007585	0.43314181	9.3528345	0.43210137	-170.63699	
	0.64060884	-5.2007585	0.36194006	9.2556591	0.43268811	-170.76326	0.43352171	9.2499795	
	0.43314181	9.3528345	0.43268811	-170.76326	0.52156096	9.1074162	0.48836944	-9.8573614	
	0.43210137	-170.63699	0.43352171	9.2499795	0.48836944	-9.8573614	0.52059892	9.2225428	
	
0.147438843267552	0.36399123	8.8732087	0.63957854	-5.1269618	0.43450625	9.1444365	0.43300404	-170.90185	
	0.63957854	-5.1269618	0.36327685	9.1247434	0.43371765	-170.93161	0.43430917	9.0919862	
	0.43450625	9.1444365	0.43371765	-170.93161	0.52201527	9.0391562	0.48740448	-9.7020545	
	0.43300404	-170.90185	0.43430917	9.0919862	0.48740448	-9.7020545	0.5211888	9.1121113	
	
0.150844771990442	0.36408294	8.6895584	0.63856748	-5.0452418	0.43415003	9.0720252	0.43275114	-170.93692	
	0.63856748	-5.0452418	0.36303698	8.8856742	0.43337947	-171.0829	0.43441007	8.9578723	
	0.43415003	9.0720252	0.43337947	-171.0829	0.52274313	8.8042873	0.48649817	-9.5520704	
	0.43275114	-170.93692	0.43441007	8.9578723	0.48649817	-9.5520704	0.52220478	8.9150289	
	
0.154329379779229	0.36515789	8.6920336	0.63853098	-4.972353	0.43479239	8.8493626	0.43357938	-171.17908	
	0.63853098	-4.972353	0.36321812	8.9004075	0.43440067	-171.26961	0.43519197	8.7486974	
	0.43479239	8.8493626	0.43440067	-171.26961	0.52266145	8.5879053	0.4856092	-9.4376553	
	0.43357938	-171.17908	0.43519197	8.7486974	0.4856092	-9.4376553	0.52296306	8.7828737	
	
0.157894484169135	0.36492958	8.3857022	0.63835137	-4.9025786	0.43501629	8.7336016	0.43467368	-171.31571	
	0.63835137	-4.9025786	0.36364718	8.655316	0.4346594	-171.37738	0.4357925	8.6322555	
	0.43501629	8.7336016	0.4346594	-171.37738	0.52405707	8.465314	0.48465446	-9.3183805	
	0.43467368	-171.31571	0.4357925	8.6322555	0.48465446	-9.3183805	0.52272309	8.5349157	
	
0.16154194468157	0.36648081	8.2087899	0.63787888	-4.8334045	0.43536052	8.6171946	0.43509519	-171.42327	
	0.63787888	-4.8334045	0.36331564	8.3840047	0.43511971	-171.50594	0.43596163	8.4811964	
	0.43536052	8.6171946	0.43511971	-171.50594	0.52422442	8.3648546	0.48330089	-9.1347122	
	0.43509519	-171.42327	0.43596163	8.4811964	0.48330089	-9.1347122	0.52355102	8.5624566	
	
0.165273663794043	0.36604256	8.0647818	0.63640302	-4.7820866	0.43588383	8.4304575	0.43447011	-171.53265	
	0.63640302	-4.7820866	0.36514913	8.2545226	0.43510638	-171.68924	0.43587156	8.3753906	
	0.43588383	8.4304575	0.43510638	-171.68924	0.52472853	8.1833252	0.48245622	-9.0941243	
	0.43447011	-171.53265	0.43587156	8.3753906	0.48245622	-9.0941243	0.52380685	8.2653736	
	
0.169091587932473	0.36594654	7.8863581	0.63613588	-4.728	0.43625482	8.3304385	0.43519925	-171.67541	
	0.63613588	-4.728	0.36608504	8.0709448	0.43560139	-171.79869	0.43627373	8.2328737	
	0.43625482	8.3304385	0.43560139	-171.79869	0.52532558	8.1797944	0.4812331	-8.949039	
	0.43519925	-171.67541	0.43627373	8.2328737	0.4812331	-8.949039	0.52398086	8.1718063	
	
0.172997708486424	0.36593308	7.6708628	0.63584733	-4.6577872	0.43701128	8.2140657	0.43612408	-171.961	
	0.63584733	-4.6577872	0.36587434	7.9442175	0.43603592	-171.89917	0.43689087	8.0481983	
	0.43701128	8.2140657	0.43603592	-171.89917	0.52594563	7.9695691	0.48112336	-8.755674	
	0.43612408	-171.961	0.43689087	8.0481983	0.48112336	-8.755674	0.52472701	8.0117556	
	
0.176994062847797	0.36658745	7.7141836	0.63505134	-4.5795698	0.43733722	8.001532	0.436228	-172.0114	
	0.63505134	-4.5795698	0.36454072	8.0540917	0.43647952	-172.15414	0.43745463	7.960213	
	0.43733722	8.001532	0.43647952	-172.15414	0.52740774	7.8382126	0.4803265	-8.6692838	
	0.436228	-172.0114	0.43745463	7.960213	0.4803265	-8.6692838	0.52536219	7.8710208	
	
0.181082735473506	0.3673231	7.3796352	0.63477591	-4.4903261	0.43725073	7.8386768	0.43683317	-172.08219	
	0.63477591	-4.4903261	0.36591875	7.7486719	0.43703905	-172.25544	0.43767789	7.8099168	
	0.43725073	7.8386768	0.43703905	-172.25544	0.52677396	7.759336	0.47932685	-8.556691	
	0.43683317	-172.08219	0.43767789	7.8099168	0.47932685	-8.556691	0.52590219	7.6698263	
	
0.185265858972714	0.36756104	7.4146166	0.63453926	-4.4026862	0.43779025	7.7655905	0.43708611	-172.18177	
	0.63453926	-4.4026862	0.36625449	7.723261	0.43741191	-172.39657	0.43785198	7.5659749	
	0.43779025	7.7655905	0.43741191	-172.39657	0.52691735	7.5117775	0.47829109	-8.4260893	
	0.43708611	-172.18177	0.43785198	7.5659749	0.47829109	-8.4260893	0.52640112	7.5643119	
	
0.18954561521918	0.36797021	7.3708847	0.63307777	-4.3726628	0.43829821	7.5722473	0.43703417	-172.39448	
	0.63307777	-4.3726628	0.36616819	7.6789849	0.4371686	-172.60877	0.43846705	7.5600816	
	0.43829821	7.5722473	0.4371686	-172.60877	0.52800651	7.4893267	0.47790827	-8.281978	
	0.43703417	-172.39448	0.43846705	7.5600816	0.47790827	-8.281978	0.52657413	7.4429989	
	
0.193924236489297	0.36847258	7.3081559	0.63346482	-4.3162792	0.43861027	7.4902052	0.43788572	-172.53958	
	0.63346482	-4.3162792	0.36703108	7.3931853	0.43833648	-172.64377	0.43902135	7.4297004	
	0.43861027	7.4902052	0.43833648	-172.64377	0.52801706	7.3133974	0.4774739	-8.1714003	
	0.43788572	-172.53958	0.43902135	7.4297004	0.4774739	-8.1714003	0.52730176	7.4039937	
	
0.19840400662643	0.36846358	7.0863298	0.63292601	-4.2312286	0.43937036	7.4485569	0.43818374	-172.66546	
	0.63292601	-4.2312286	0.36785726	7.2707126	0.43897096	-172.73674	0.43935824	7.2630007	
	0.43937036	7.4485569	0.43897096	-172.73674	0.52830408	7.1821062	0.47620462	-8.0974065	
	0.43818374	-172.66546	0.43935824	7.2630007	0.47620462	-8.0974065	0.52775571	7.1224869	
	
0.202987262232139	0.3680937	6.8607478	0.63249304	-4.1836389	0.43911795	7.2168493	0.43818319	-172.61356	
	0.63249304	-4.1836389	0.3678744	7.2139153	0.43829856	-172.84419	0.43898234	7.1277734	
	0.43911795	7.2168493	0.43829856	-172.84419	0.52868107	7.1512677	0.47533435	-7.9816139	
	0.43818319	-172.61356	0.43898234	7.1277734	0.47533435	-7.9816139	0.52845281	7.1420278	
	
0.207676393884933	0.36927374	6.7573233	0.63195487	-4.1305418	0.43980376	7.1186194	0.43873085	-172.86703	
	0.63195487	-4.1305418	0.36739787	7.0037655	0.43864296	-172.99897	0.43986427	7.020161	
	0.43980376	7.1186194	0.43864296	-172.99897	0.52968388	6.8903935	0.4744384	-7.8329404	
	0.43873085	-172.86703	0.43986427	7.020161	0.4744384	-7.8329404	0.5285787	6.9788968	
	
0.212473847387164	0.36995704	6.7477665	0.63187109	-4.0518682	0.44017147	7.0302436	0.43963374	-172.97941	
	0.63187109	-4.0518682	0.36789584	6.9352732	0.43974065	-173.06942	0.44053232	6.9090635	
	0.44017147	7.0302436	0.43974065	-173.06942	0.52918071	6.8664463	0.47398455	-7.74203	
	0.43963374	-172.97941	0.44053232	6.9090635	0.47398455	-7.74203	0.5294999	6.919478	
	
0.217382125040737	0.3702161	6.5692847	0.6313603	-4.0335045	0.44029311	6.9216983	0.43937354	-173.13568	
	0.6313603	-4.0335045	0.36834383	6.624219	0.43997073	-173.23866	0.44069801	6.8314012	
	0.44029311	6.9216983	0.43997073	-173.23866	0.52968959	6.8481129	0.47302212	-7.612265	
	0.43937354	-173.13568	0.44069801	6.8314012	0.47302212	-7.612265	0.52946799	6.7982722	
	
0.222403786952283	0.36989881	6.5553163	0.63107076	-3.9498617	0.44074026	6.7499487	0.44014723	-173.22514	
	0.63107076	-3.9498617	0.36868249	6.9096233	0.44039796	-173.3899	0.44127529	6.6898161	
	0.44074026	6.7499487	0.44039796	-173.3899	0.53049678	6.6134905	0.47242698	-7.550809	
	0.44014723	-173.22514	0.44127529	6.6898161	0.47242698	-7.550809	0.52993601	6.6572189	
	
0.227541452368483	0.3698654	6.3740458	0.63023141	-3.8660283	0.44079953	6.7358672	0.44017272	-173.29892	
	0.63023141	-3.8660283	0.36925469	6.618881	0.44006155	-173.40635	0.44102811	6.5409317	
	0.44079953	6.7358672	0.44006155	-173.40635	0.53143016	6.5543092	0.47222992	-7.4582235	
	0.44017272	-173.29892	0.44102811	6.5409317	0.47222992	-7.4582235	0.53138202	6.5785056	
	
0.232797801042241	0.3709402	6.3448478	0.63029305	-3.8232268	0.44121418	6.5499816	0.44093397	-173.44289	
	0.63029305	-3.8232268	0.36907825	6.4879735	0.44114384	-173.52238	0.44205057	6.4977982	
	0.44121418	6.5499816	0.44114384	-173.52238	0.53179168	6.4187088	0.47155194	-7.3676416	
	0.44093397	-173.44289	0.44205057	6.4977982	0.47155194	-7.3676416	0.53091745	6.4455038	
	
0.238175574630416	0.37073378	6.2330702	0.62937562	-3.7949129	0.44198301	6.5174494	0.44130633	-173.47409	
	0.62937562	-3.7949129	0.36903803	6.4048599	0.44107163	-173.60943	0.44217158	6.4050289	
	0.44198301	6.5174494	0.44107163	-173.60943	0.53265323	6.4719656	0.47141818	-7.2701933	
	0.44130633	-173.47409	0.44217158	6.4050289	0.47141818	-7.2701933	0.53093874	6.3454784	
	
0.24367757812384	0.37093922	6.0592371	0.62933823	-3.7108418	0.44250841	6.4205793	0.44169041	-173.62409	
	0.62933823	-3.7108418	0.36983455	6.3762283	0.44193129	-173.7818	0.44265374	6.2353457	
	0.44250841	6.4205793	0.44193129	-173.7818	0.53154527	6.2600591	0.4703361	-7.1369949	
	0.44169041	-173.62409	0.44265374	6.2353457	0.4703361	-7.1369949	0.5320778	6.2330114	
	
0.249306681310373	0.37144282	5.9066593	0.62957623	-3.7221083	0.44343736	6.2905492	0.44244739	-173.70734	
	0.62957623	-3.7221083	0.36874724	6.2026116	0.44248551	-173.77744	0.44312685	6.2079165	
	0.44343736	6.2905492	0.44248551	-173.77744	0.53262804	6.1550467	0.46997749	-7.0870388	
	0.44244739	-173.70734	0.44312685	6.2079165	0.46997749	-7.0870388	0.53169078	6.172078	
	
0.255065820271756	0.37167899	5.8395083	0.62869247	-3.6383238	0.44342937	6.2393634	0.4420633	-173.79806	
	0.62869247	-3.6383238	0.36954828	6.1280469	0.44262769	-173.94568	0.44310067	6.1371346	
	0.44342937	6.2393634	0.44262769	-173.94568	0.53282906	6.1019426	0.4693807	-6.9149098	
	0.4420633	-173.79806	0.44310067	6.1371346	0.4693807	-6.9149098	0.53269769	6.0925	
	
0.260957998915036	0.37240883	5.8639828	0.62821822	-3.5799443	0.44278727	6.1790304	0.4422572	-173.97607	
	0.62821822	-3.5799443	0.37078721	6.01781	0.44259078	-174.02635	0.44344867	6.0268814	
	0.44278727	6.1790304	0.44259078	-174.02635	0.53299552	5.8965704	0.46851345	-6.8573382	
	0.4422572	-173.97607	0.44344867	6.0268814	0.46851345	-6.8573382	0.53310642	5.9919486	
	
0.266986290539378	0.37159529	5.7348851	0.62826795	-3.5382367	0.4439476	6.0137245	0.44309335	-174.01651	
	0.62826795	-3.5382367	0.37082148	5.9343462	0.44372597	-174.12539	0.44450268	5.905857	
	0.4439476	6.0137245	0.44372597	-174.12539	0.53425074	5.9033479	0.4676641	-6.7947276	
	0.44309335	-174.01651	0.44450268	5.905857	0.4676641	-6.7947276	0.53334639	5.8878262	
	
0.273153839439064	0.37217262	5.7586196	0.62804322	-3.5203348	0.44393115	5.9867226	0.44311655	-174.09125	
	0.62804322	-3.5203348	0.37135575	5.8412955	0.44375062	-174.22102	0.44410181	5.8445217	
	0.44393115	5.9867226	0.44375062	-174.22102	0.5335195	5.725736	0.46707025	-6.6823885	
	0.44311655	-174.09125	0.44410181	5.8445217	0.46707025	-6.6823885	0.53332455	5.7771075	
	
0.279463862543524	0.37244209	5.5117657	0.6276754	-3.4759027	0.44507347	5.9070649	0.44417129	-174.1441	
	0.6276754	-3.4759027	0.37126412	5.7521593	0.44396063	-174.27736	0.44381338	5.6980353	
	0.44507347	5.9070649	0.44396063	-174.27736	0.53337102	5.6545094	0.46670435	-6.6386668	
	0.44417129	-174.1441	0.44381338	5.6980353	0.46670435	-6.6386668	0.53400327	5.6771249	
	
0.285919651095252	0.3725663	5.6041977	0.62722962	-3.4219991	0.44485384	5.7291126	0.44427945	-174.32703	
	0.62722962	-3.4219991	0.37172905	5.7352435	0.44429323	-174.40172	0.44519442	5.6683684	
	0.44485384	5.7291126	0.44429323	-174.40172	0.53461129	5.6606216	0.46663373	-6.5525921	
	0.44427945	-174.32703	0.44519442	5.6683684	0.46663373	-6.5525921	0.53484917	5.6213543	
	
0.292524572366485	0.37279497	5.401881	0.62667087	-3.4018538	0.44495739	5.6850143	0.44458816	-174.418	
	0.62667087	-3.4018538	0.37195158	5.8747818	0.44509916	-174.62197	0.4456314	5.5318613	
	0.44495739	5.6850143	0.44509916	-174.62197	0.53585214	5.6415762	0.46563125	-6.4631962	
	0.44458816	-174.418	0.4456314	5.5318613	0.46563125	-6.4631962	0.53526194	5.5461148	
	
0.299282071415539	0.37407453	5.4271798	0.62601672	-3.2990413	0.44513121	5.5602976	0.44460124	-174.52247	
	0.62601672	-3.2990413	0.37218897	5.8467477	0.44475136	-174.64683	0.44544168	5.390519	
	0.44513121	5.5602976	0.44475136	-174.64683	0.53591597	5.4811692	0.46554764	-6.3625575	
	0.44460124	-174.52247	0.44544168	5.390519	0.46554764	-6.3625575	0.53541208	5.527587	
	
0.30619567288371	0.37426455	5.3708603	0.62575511	-3.3257202	0.44550656	5.4780359	0.44431029	-174.54385	
	0.62575511	-3.3257202	0.37272149	5.5696825	0.44482225	-174.68912	0.44514815	5.3453667	
	0.44550656	5.4780359	0.44482225	-174.68912	0.53574824	5.4418501	0.46421099	-6.2944091	
	0.44431029	-174.54385	0.44514815	5.3453667	0.46421099	-6.2944091	0.53558805	5.3042765	
	
0.313268982833699	0.37408001	5.0948736	0.62535012	-3.2277089	0.44608685	5.436146	0.44515952	-174.59664	
	0.62535012	-3.2277089	0.3728985	5.4231448	0.44586131	-174.7476	0.44629135	5.2608146	
	0.44608685	5.436146	0.44586131	-174.7476	0.53706992	5.2574383	0.46391243	-6.1329232	
	0.44515952	-174.59664	0.44629135	5.2608146	0.46391243	-6.1329232	0.53562325	5.2806294	
	
0.320505690630487	0.37377781	5.1011187	0.62533837	-3.1460044	0.4461262	5.357005	0.44583818	-174.66168	
	0.62533837	-3.1460044	0.37242462	5.3099166	0.44577024	-174.77629	0.44721567	5.2125344	
	0.4461262	5.357005	0.44577024	-174.77629	0.53706109	5.216184	0.46405814	-6.0754353	
	0.44583818	-174.66168	0.44721567	5.2125344	0.46405814	-6.0754353	0.53601848	5.0997922	
	
0.327909570865677	0.37370385	4.7321262	0.62502528	-3.1044514	0.44710168	5.4094556	0.4465281	-174.67879	
	0.62502528	-3.1044514	0.37288974	5.0592242	0.44625266	-174.81006	0.44753807	5.1923697	
	0.44710168	5.4094556	0.44625266	-174.81006	0.53761374	5.0021248	0.46291504	-5.9445281	
	0.4465281	-174.67879	0.44753807	5.1923697	0.46291504	-5.9445281	0.53634688	5.0137927	
	
0.335484485326279	0.37407836	4.8202578	0.62449887	-3.0706116	0.44716084	5.2384683	0.44623249	-174.77512	
	0.62449887	-3.0706116	0.37386576	4.9649351	0.44680102	-174.87552	0.44747972	5.2046484	
	0.44716084	5.2384683	0.44680102	-174.87552	0.53765957	4.8922336	0.46263138	-5.8955652	
	0.44623249	-174.77512	0.44747972	5.2046484	0.46263138	-5.8955652	0.53721723	4.9705039	
	
0.343234385008977	0.37421692	4.7790356	0.6244786	-3.0487157	0.44842964	5.1615454	0.44721574	-174.89827	
