# MHz S MA R 50

0.1	0.061677482	3.0880994	0.93440819	-0.28635361	0.23067013	4.9855813	0.22985712	-175.0773	
	0.93440819	-0.28635361	0.057690537	9.4224396	0.23097803	-175.37603	0.23160773	4.6652417	
	0.23067013	4.9855813	0.23097803	-175.37603	0.92650347	4.401729	0.1049288	-46.043309	
	0.22985712	-175.0773	0.23160773	4.6652417	0.1049288	-46.043309	0.92674233	4.4311075	
	
0.102310062021247	0.062062084	0.2085138	0.93381587	-0.29452597	0.23061036	4.9855492	0.2304022	-175.07463	
	0.93381587	-0.29452597	0.059272939	5.0690209	0.23100952	-175.38751	0.23150543	4.6773987	
	0.23061036	4.9855492	0.23100952	-175.38751	0.92779458	4.4680551	0.10247717	-45.789334	
	0.2304022	-175.07463	0.23150543	4.6773987	0.10247717	-45.789334	0.92753579	4.505207	
	
0.104673487907914	0.063734544	3.5872013	0.93385788	-0.29943032	0.23014665	4.7016908	0.23012335	-175.29616	
	0.93385788	-0.29943032	0.062571335	3.5841727	0.23030189	-175.37251	0.2307375	4.7219245	
	0.23014665	4.7016908	0.23030189	-175.37251	0.92237872	4.4313695	0.10107809	-45.358353	
	0.23012335	-175.29616	0.2307375	4.7219245	0.10107809	-45.358353	0.92340114	4.4665819	
	
0.107091510398389	0.061998029	2.5892381	0.93493487	-0.27209661	0.23076826	4.5920389	0.2304751	-175.39966	
	0.93493487	-0.27209661	0.061899785	4.5354382	0.23057703	-175.43951	0.23097598	4.5975026	
	0.23076826	4.5920389	0.23057703	-175.43951	0.92599893	4.3253567	0.10043016	-44.741861	
	0.2304751	-175.39966	0.23097598	4.5975026	0.10043016	-44.741861	0.92658138	4.4453619	
	
0.109565390708082	0.06320479	3.2625045	0.93518441	-0.30219636	0.23088329	4.4974223	0.23082408	-175.48505	
	0.93518441	-0.30219636	0.06030757	5.3551763	0.23083007	-175.65581	0.23136327	4.4249589	
	0.23088329	4.4974223	0.23083007	-175.65581	0.92672619	4.2375157	0.098859565	-43.928293	
	0.23082408	-175.48505	0.23136327	4.4249589	0.098859565	-43.928293	0.9258836	4.2243487	
	
0.112096419187261	0.063894562	1.2032118	0.93420884	-0.25527035	0.23034772	4.3966089	0.23027797	-175.52881	
	0.93420884	-0.25527035	0.061292344	4.3262174	0.23030362	-175.6933	0.23047643	4.3251008	
	0.23034772	4.3966089	0.23030362	-175.6933	0.92453082	4.0699787	0.097687388	-43.598363	
	0.23027797	-175.52881	0.23047643	4.3251008	0.097687388	-43.598363	0.92398675	4.1493697	
	
0.114685915994083	0.062473245	2.3205201	0.93583065	-0.2663872	0.23114924	4.2826032	0.23078103	-175.78848	
	0.93583065	-0.2663872	0.05958538	4.1398438	0.23107299	-175.78887	0.23164456	4.243595	
	0.23114924	4.2826032	0.23107299	-175.78887	0.92656437	4.048762	0.096688617	-43.209621	
	0.23078103	-175.78848	0.23164456	4.243595	0.096688617	-43.209621	0.92693262	4.0796246	
	
0.117335231783182	0.062538719	2.0456726	0.93564228	-0.25201052	0.23105028	4.2963046	0.23136226	-175.76978	
	0.93564228	-0.25201052	0.059647045	4.2458222	0.23118102	-175.91488	0.23196518	4.1397348	
	0.23105028	4.2963046	0.23118102	-175.91488	0.92776838	3.9678903	0.095441732	-42.565272	
	0.23136226	-175.76978	0.23196518	4.1397348	0.095441732	-42.565272	0.92874277	4.0011045	
	
0.120045748410147	0.063692635	1.4776264	0.93559765	-0.23810231	0.23144601	4.2223809	0.23066821	-175.93034	
	0.93559765	-0.23810231	0.058278009	4.2950691	0.23126061	-175.92959	0.23198925	3.9741594	
	0.23144601	4.2223809	0.23126061	-175.92959	0.92730315	3.8295783	0.094431147	-41.999759	
	0.23066821	-175.93034	0.23198925	3.9741594	0.094431147	-41.999759	0.92615612	3.8136804	
	
0.122818879652292	0.062346302	2.007715	0.93526374	-0.24518347	0.23108058	4.1837108	0.23074818	-175.9706	
	0.93526374	-0.24518347	0.060924188	3.1517612	0.23119484	-176.07737	0.23156057	3.8626965	
	0.23108058	4.1837108	0.23119484	-176.07737	0.92710832	3.7421801	0.093059264	-41.522512	
	0.23074818	-175.9706	0.23156057	3.8626965	0.093059264	-41.522512	0.9264161	3.7215072	
	
0.125656071946061	0.061743266	1.5206408	0.93612816	-0.24211941	0.23148908	3.9800681	0.23135731	-175.96345	
	0.93612816	-0.24211941	0.059566325	3.3210425	0.23175397	-176.15366	0.23181053	3.8903506	
	0.23148908	3.9800681	0.23175397	-176.15366	0.9275647	3.6819642	0.092342916	-40.739362	
	0.23135731	-175.96345	0.23181053	3.8903506	0.092342916	-40.739362	0.9275239	3.7003043	
	
0.128558805141477	0.062080229	0.71567941	0.93541042	-0.27689029	0.23150727	4.001457	0.23083611	-176.16368	
	0.93541042	-0.27689029	0.060245123	3.9932901	0.23174998	-176.29365	0.23171459	3.7711937	
	0.23150727	4.001457	0.23174998	-176.29365	0.92766845	3.5980663	0.091130544	-40.073638	
	0.23083611	-176.16368	0.23171459	3.7711937	0.091130544	-40.073638	0.9272277	3.6125112	
	
0.131528593274019	0.061842458	2.0393424	0.93595528	-0.21753699	0.23181628	3.8527152	0.23153279	-176.27497	
	0.93595528	-0.21753699	0.059767571	4.5674628	0.23165902	-176.38792	0.2319823	3.5903434	
	0.23181628	3.8527152	0.23165902	-176.38792	0.92789681	3.5090048	0.090061093	-39.632385	
	0.23153279	-176.27497	0.2319823	3.5903434	0.090061093	-39.632385	0.92803494	3.4999133	
	
0.134566985354323	0.062702713	1.9956135	0.93518767	-0.20224565	0.23108998	3.8021148	0.23095184	-176.34467	
	0.93518767	-0.20224565	0.060478859	4.6810202	0.23118808	-176.46933	0.23159429	3.6403893	
	0.23108998	3.8021148	0.23118808	-176.46933	0.92864288	3.4784331	0.088999891	-38.981052	
	0.23095184	-176.34467	0.23159429	3.6403893	0.088999891	-38.981052	0.92787503	3.4139355	
	
0.13767556617613	0.06356414	1.3117249	0.9344938	-0.23212702	0.23116952	3.7262599	0.23074393	-176.33733	
	0.9344938	-0.23212702	0.060756054	5.0038282	0.23093605	-176.43937	0.23138447	3.5032257	
	0.23116952	3.7262599	0.23093605	-176.43937	0.92670469	3.318617	0.088108089	-38.567581	
	0.23074393	-176.33733	0.23138447	3.5032257	0.088108089	-38.567581	0.92593502	3.4122826	
	
0.140855957142902	0.06404571	1.1211702	0.93405316	-0.21862866	0.23122902	3.6894496	0.23057543	-176.48326	
	0.93405316	-0.21862866	0.061408657	3.7380873	0.23056398	-176.74682	0.23080529	3.5455789	
	0.23122902	3.6894496	0.23056398	-176.74682	0.92484437	3.3167813	0.086973107	-37.801722	
	0.23057543	-176.48326	0.23080529	3.5455789	0.086973107	-37.801722	0.92531814	3.3135831	
	
0.144109817113524	0.063226337	1.1244612	0.93434927	-0.18766337	0.23133633	3.4919713	0.23049562	-176.55728	
	0.93434927	-0.18766337	0.061288127	4.386815	0.23072093	-176.76087	0.23130208	3.3477813	
	0.23133633	3.4919713	0.23072093	-176.76087	0.92641373	3.1719785	0.086393846	-37.473875	
	0.23049562	-176.55728	0.23130208	3.3477813	0.086393846	-37.473875	0.92598949	3.21905	
	
0.147438843267552	0.061502387	2.2878836	0.9355954	-0.21437798	0.23160061	3.4377171	0.23116672	-176.71392	
	0.9355954	-0.21437798	0.061000186	3.4022212	0.23151222	-176.83888	0.23163446	3.2836037	
	0.23160061	3.4377171	0.23151222	-176.83888	0.92908776	3.118154	0.085677479	-36.760904	
	0.23116672	-176.71392	0.23163446	3.2836037	0.085677479	-36.760904	0.92913654	3.1861444	
	
0.150844771990442	0.06211108	0.29792355	0.93528289	-0.18981552	0.23179815	3.3866888	0.23132228	-176.64735	
	0.93528289	-0.18981552	0.060471948	3.196019	0.23138009	-176.83937	0.23173017	3.1629865	
	0.23179815	3.3866888	0.23138009	-176.83937	0.92871934	3.0855618	0.084902571	-36.300946	
	0.23132228	-176.64735	0.23173017	3.1629865	0.084902571	-36.300946	0.92819531	3.0789125	
	
0.154329379779229	0.062821744	1.9892703	0.93532666	-0.19685781	0.2316529	3.2723915	0.23114538	-176.81825	
	0.93532666	-0.19685781	0.060035437	4.5944024	0.23136749	-177.04565	0.23156041	3.0739046	
	0.2316529	3.2723915	0.23136749	-177.04565	0.92783143	2.9903576	0.084451421	-35.727228	
	0.23114538	-176.81825	0.23156041	3.0739046	0.084451421	-35.727228	0.92843899	3.0363406	
	
0.157894484169135	0.063118018	1.1326768	0.93553973	-0.19711737	0.23119905	3.2222691	0.23084466	-176.85649	
	0.93553973	-0.19711737	0.059124517	3.3223469	0.23137337	-177.04987	0.23188562	3.0510444	
	0.23119905	3.2222691	0.23137337	-177.04987	0.9284324	2.8518681	0.083762688	-35.144031	
	0.23084466	-176.85649	0.23188562	3.0510444	0.083762688	-35.144031	0.92806618	2.9312735	
	
0.16154194468157	0.062871366	1.2438931	0.93501613	-0.19075059	0.23139278	3.0562496	0.23101551	-176.95522	
	0.93501613	-0.19075059	0.060764012	2.5870892	0.23094785	-177.12037	0.23143836	3.0696541	
	0.23139278	3.0562496	0.23094785	-177.12037	0.92695073	2.845461	0.082703979	-34.58834	
	0.23101551	-176.95522	0.23143836	3.0696541	0.082703979	-34.58834	0.9278939	2.8914844	
	
0.165273663794043	0.062919091	0.42427318	0.93445511	-0.19512354	0.23144243	3.0575704	0.23055986	-176.99593	
	0.93445511	-0.19512354	0.061363464	2.855638	0.23101738	-177.20956	0.23172392	2.951768	
	0.23144243	3.0575704	0.23101738	-177.20956	0.92708994	2.7324074	0.082071362	-34.170219	
	0.23055986	-176.99593	0.23172392	2.951768	0.082071362	-34.170219	0.92671915	2.7507749	
	
0.169091587932473	0.062986222	0.55332237	0.93449508	-0.22581054	0.2316787	2.9815557	0.23096819	-177.03362	
	0.93449508	-0.22581054	0.061030302	2.6782727	0.23113731	-177.22174	0.23165736	2.9571144	
	0.2316787	2.9815557	0.23113731	-177.22174	0.9286881	2.7339079	0.081628915	-33.582699	
	0.23096819	-177.03362	0.23165736	2.9571144	0.081628915	-33.582699	0.92784462	2.7482736	
	
0.172997708486424	0.061297109	0.18106283	0.93501365	-0.1791462	0.23148592	3.0511485	0.23138935	-177.08799	
	0.93501365	-0.1791462	0.061942215	3.4264375	0.23159002	-177.31316	0.23155251	2.8632752	
	0.23148592	3.0511485	0.23159002	-177.31316	0.928466	2.6471181	0.080966229	-32.96622	
	0.23138935	-177.08799	0.23155251	2.8632752	0.080966229	-32.96622	0.92819587	2.7205651	
	
0.176994062847797	0.062761691	1.0023887	0.93565528	-0.20350444	0.23158783	2.8131037	0.23122267	-177.28528	
	0.93565528	-0.20350444	0.059510958	2.9734783	0.23157815	-177.43615	0.23180671	2.7339052	
	0.23158783	2.8131037	0.23157815	-177.43615	0.92841461	2.6008243	0.08056711	-32.226836	
	0.23122267	-177.28528	0.23180671	2.7339052	0.08056711	-32.226836	0.9279643	2.6649784	
	
0.181082735473506	0.062478242	-0.32507687	0.93495764	-0.18592981	0.2312864	2.7544341	0.23104977	-177.2767	
	0.93495764	-0.18592981	0.060699545	3.1932825	0.23092647	-177.57284	0.23126361	2.6366629	
	0.2312864	2.7544341	0.23092647	-177.57284	0.92759535	2.5289521	0.080007247	-31.702622	
	0.23104977	-177.2767	0.23126361	2.6366629	0.080007247	-31.702622	0.92771873	2.5355352	
	
0.185265858972714	0.062625692	0.87880423	0.93498249	-0.18248968	0.23158694	2.8134592	0.23092773	-177.27739	
	0.93498249	-0.18248968	0.060656789	3.4599	0.23111495	-177.53084	0.23157995	2.5220312	
	0.23158694	2.8134592	0.23111495	-177.53084	0.92769112	2.4797034	0.079049685	-31.001393	
	0.23092773	-177.27739	0.23157995	2.5220312	0.079049685	-31.001393	0.92838592	2.5150801	
	
0.18954561521918	0.062139997	0.79719264	0.93510351	-0.17449788	0.23215863	2.6609515	0.23110854	-177.3612	
	0.93510351	-0.17449788	0.060138303	3.5279192	0.23132541	-177.50564	0.2316257	2.6019875	
	0.23215863	2.6609515	0.23132541	-177.50564	0.92796823	2.418739	0.079219833	-30.491646	
	0.23110854	-177.3612	0.2316257	2.6019875	0.079219833	-30.491646	0.92907551	2.4017618	
	
0.193924236489297	0.063066616	1.6512478	0.93480499	-0.17856878	0.23152941	2.6319289	0.23072794	-177.43548	
	0.93480499	-0.17856878	0.060790125	2.3064319	0.23110799	-177.60509	0.23151195	2.4760354	
	0.23152941	2.6319289	0.23110799	-177.60509	0.92733738	2.3936619	0.078290144	-29.924203	
	0.23072794	-177.43548	0.23151195	2.4760354	0.078290144	-29.924203	0.92733571	2.3590801	
	
0.19840400662643	0.063519061	1.3450323	0.9351344	-0.18163117	0.23159492	2.6598559	0.23073325	-177.50981	
	0.9351344	-0.18163117	0.059349339	3.082435	0.23108278	-177.7231	0.23165057	2.3652237	
	0.23159492	2.6598559	0.23108278	-177.7231	0.92812872	2.3301323	0.078074506	-29.412205	
	0.23073325	-177.50981	0.23165057	2.3652237	0.078074506	-29.412205	0.92811078	2.3084875	
	
0.202987262232139	0.063553347	-0.23932841	0.93392765	-0.17174536	0.23116828	2.4465857	0.23061559	-177.52121	
	0.93392765	-0.17174536	0.061711102	3.4526808	0.23073438	-177.74848	0.23120637	2.319077	
	0.23116828	2.4465857	0.23073438	-177.74848	0.92734581	2.2501681	0.077245529	-28.982821	
	0.23061559	-177.52121	0.23120637	2.319077	0.077245529	-28.982821	0.92618591	2.2803259	
	
0.207676393884933	0.062157848	0.85305004	0.93511796	-0.15729371	0.2316706	2.4203233	0.23087005	-177.67519	
	0.93511796	-0.15729371	0.060700258	3.2761714	0.23091351	-177.82901	0.23148636	2.2955014	
	0.2316706	2.4203233	0.23091351	-177.82901	0.92826614	2.1705878	0.076895309	-28.229236	
	0.23087005	-177.67519	0.23148636	2.2955014	0.076895309	-28.229236	0.92762618	2.1976319	
	
0.212473847387164	0.063475068	0.90188749	0.93465176	-0.16366819	0.23150671	2.3683404	0.23076435	-177.70445	
	0.93465176	-0.16366819	0.060757067	2.7657068	0.23117311	-177.83052	0.23148109	2.2044584	
	0.23150671	2.3683404	0.23117311	-177.83052	0.92741234	2.1171868	0.076633216	-27.829679	
	0.23076435	-177.70445	0.23148109	2.2044584	0.076633216	-27.829679	0.92651339	2.1564834	
	
0.217382125040737	0.063875607	0.65583491	0.93476609	-0.1759464	0.2315303	2.2656676	0.23085322	-177.72634	
	0.93476609	-0.1759464	0.060313062	1.6525157	0.23133093	-177.89656	0.23137747	2.2704249	
	0.2315303	2.2656676	0.23133093	-177.89656	0.92762189	2.0861392	0.075871528	-27.33567	
	0.23085322	-177.72634	0.23137747	2.2704249	0.075871528	-27.33567	0.92734765	2.1069246	
	
0.222403786952283	0.063203001	1.1998488	0.93512001	-0.18207357	0.23150929	2.2641806	0.23092382	-177.78979	
	0.93512001	-0.18207357	0.059762482	4.0146057	0.23101412	-178.03074	0.23143914	2.0685442	
	0.23150929	2.2641806	0.23101412	-178.03074	0.92704484	2.0256779	0.075731763	-27.010966	
	0.23092382	-177.78979	0.23143914	2.0685442	0.075731763	-27.010966	0.92797897	2.097296	
	
0.227541452368483	0.063248677	0.067157449	0.93453957	-0.15440269	0.23117165	2.1684533	0.23072785	-177.83093	
	0.93453957	-0.15440269	0.061069919	2.8984161	0.2312583	-178.02116	0.23135099	2.0478286	
	0.23117165	2.1684533	0.2312583	-178.02116	0.92777573	2.0045733	0.075558814	-26.479908	
	0.23072785	-177.83093	0.23135099	2.0478286	0.075558814	-26.479908	0.92837691	2.0307591	
	
0.232797801042241	0.06374573	0.69036247	0.93485368	-0.14650965	0.23099929	2.1510919	0.23087898	-177.93562	
	0.93485368	-0.14650965	0.06012687	2.6961241	0.23094423	-178.02988	0.23170215	2.0186785	
	0.23099929	2.1510919	0.23094423	-178.02988	0.92704896	1.9416224	0.074771744	-26.001873	
	0.23087898	-177.93562	0.23170215	2.0186785	0.074771744	-26.001873	0.92708549	1.9792904	
	
0.238175574630416	0.06246689	0.60876164	0.93494411	-0.17082126	0.23149903	2.1006237	0.23128849	-177.96299	
	0.93494411	-0.17082126	0.060848631	2.7621643	0.23094161	-178.12566	0.23176432	2.0034685	
	0.23149903	2.1006237	0.23094161	-178.12566	0.9278108	1.9579356	0.074841571	-25.460634	
	0.23128849	-177.96299	0.23176432	2.0034685	0.074841571	-25.460634	0.92933504	1.9126472	
	
0.24367757812384	0.063036611	0.14477746	0.93462732	-0.17476964	0.2317411	2.1191398	0.23065121	-178.02202	
	0.93462732	-0.17476964	0.060709085	3.2053723	0.23106469	-178.20991	0.23150833	1.9275018	
	0.2317411	2.1191398	0.23106469	-178.20991	0.92697309	1.8864325	0.074301703	-24.778797	
	0.23065121	-178.02202	0.23150833	1.9275018	0.074301703	-24.778797	0.92722872	1.8884226	
	
0.249306681310373	0.062113515	-1.2994292	0.93531567	-0.16238987	0.23187764	2.0492675	0.23099609	-177.98797	
	0.93531567	-0.16238987	0.059883431	2.0131649	0.23137518	-178.16949	0.23172287	1.9744047	
	0.23187764	2.0492675	0.23137518	-178.16949	0.92884872	1.822747	0.074031607	-24.377432	
	0.23099609	-177.98797	0.23172287	1.9744047	0.074031607	-24.377432	0.92779081	1.82197	
	
0.255065820271756	0.062716129	-0.32970754	0.93528466	-0.15153032	0.23182082	2.1039351	0.23125155	-178.05389	
	0.93528466	-0.15153032	0.060001851	2.2074736	0.23127848	-178.22921	0.23144141	1.8866692	
	0.23182082	2.1039351	0.23127848	-178.22921	0.92755544	1.8269868	0.07391213	-23.726545	
	0.23125155	-178.05389	0.23144141	1.8866692	0.07391213	-23.726545	0.92779175	1.8476809	
	
0.260957998915036	0.064006115	0.14474969	0.93421543	-0.15131326	0.23116024	2.0776956	0.230993	-178.19089	
	0.93421543	-0.15131326	0.061133931	2.0722812	0.23105979	-178.32307	0.2312727	1.7902019	
	0.23116024	2.0776956	0.23105979	-178.32307	0.9260883	1.7390252	0.073428238	-23.439515	
	0.230993	-178.19089	0.2312727	1.7902019	0.073428238	-23.439515	0.92638533	1.7612024	
	
0.266986290539378	0.062974473	0.49365356	0.93521199	-0.15424723	0.23135225	1.8736118	0.23131254	-178.18437	
	0.93521199	-0.15424723	0.060143786	2.8778177	0.23147135	-178.4181	0.23177128	1.8501174	
	0.23135225	1.8736118	0.23147135	-178.4181	0.92826717	1.6759186	0.073185142	-23.07167	
	0.23131254	-178.18437	0.23177128	1.8501174	0.073185142	-23.07167	0.92825256	1.6988164	
	
0.273153839439064	0.062912543	0.85110797	0.93514009	-0.16886412	0.2312615	1.9007222	0.23085592	-178.20043	
	0.93514009	-0.16886412	0.060418009	2.6674952	0.23114785	-178.36556	0.23140639	1.7922257	
	0.2312615	1.9007222	0.23114785	-178.36556	0.92720738	1.6664696	0.07290612	-22.502986	
	0.23085592	-178.20043	0.23140639	1.7922257	0.07290612	-22.502986	0.92813875	1.7104916	
	
0.279463862543524	0.061836102	-1.2130423	0.93509601	-0.17413242	0.23169395	1.9620227	0.23129622	-178.26326	
	0.93509601	-0.17413242	0.060773973	3.202423	0.23120927	-178.34672	0.23119015	1.6844068	
	0.23169395	1.9620227	0.23120927	-178.34672	0.9271084	1.6273885	0.072736799	-21.974749	
	0.23129622	-178.26326	0.23119015	1.6844068	0.072736799	-21.974749	0.92696184	1.6926767	
	
0.285919651095252	0.062117646	1.3882949	0.93520622	-0.15748852	0.23121915	1.7821934	0.23116819	-178.36927	
	0.93520622	-0.15748852	0.061292959	2.1699577	0.23117426	-178.52914	0.23162116	1.672198	
	0.23121915	1.7821934	0.23117426	-178.52914	0.92701863	1.5766273	0.072277757	-21.823099	
	0.23116819	-178.36927	0.23162116	1.672198	0.072277757	-21.823099	0.92724937	1.5564496	
	
0.292524572366485	0.062638008	-0.29491799	0.93524874	-0.16589885	0.2314173	1.8028898	0.23143648	-178.31779	
	0.93524874	-0.16589885	0.05913796	4.7287927	0.23137129	-178.67112	0.23187578	1.5609802	
	0.2314173	1.8028898	0.23137129	-178.67112	0.92821828	1.5649522	0.072220187	-21.352946	
	0.23143648	-178.31779	0.23187578	1.5609802	0.072220187	-21.352946	0.92807023	1.5668316	
	
0.299282071415539	0.06330269	1.1472121	0.93455209	-0.15113484	0.2313725	1.7520827	0.23102264	-178.42896	
	0.93455209	-0.15113484	0.060789057	5.1002331	0.231299	-178.63137	0.23155389	1.4923226	
	0.2313725	1.7520827	0.231299	-178.63137	0.92725352	1.5001191	0.072123578	-20.915001	
	0.23102264	-178.42896	0.23155389	1.4923226	0.072123578	-20.915001	0.92797432	1.5296907	
	
0.30619567288371	0.063030089	0.22664286	0.93443817	-0.17029699	0.23121629	1.7989123	0.23086777	-178.41411	
	0.93443817	-0.17029699	0.061480559	3.3794366	0.23100529	-178.6394	0.23085601	1.5245478	
	0.23121629	1.7989123	0.23100529	-178.6394	0.92714251	1.4834733	0.071561054	-20.459486	
	0.23086777	-178.41411	0.23085601	1.5245478	0.071561054	-20.459486	0.92742309	1.4535751	
	
0.313268982833699	0.062750217	-0.18295394	0.93500815	-0.12552406	0.23165419	1.7168481	0.23125972	-178.48226	
	0.93500815	-0.12552406	0.060377192	3.6054179	0.23156486	-178.63794	0.23143964	1.5472	
	0.23165419	1.7168481	0.23156486	-178.63794	0.9285119	1.3825588	0.071678337	-20.052367	
	0.23125972	-178.48226	0.23143964	1.5472	0.071678337	-20.052367	0.92829443	1.4587485	
	
0.320505690630487	0.062174137	-1.0526233	0.93520478	-0.1177462	0.23127051	1.7028218	0.23125382	-178.41175	
	0.93520478	-0.1177462	0.060214508	2.8773922	0.23152746	-178.61359	0.23173768	1.5803638	
	0.23127051	1.7028218	0.23152746	-178.61359	0.92802152	1.4432284	0.071447633	-19.572893	
	0.23125382	-178.41175	0.23173768	1.5803638	0.071447633	-19.572893	0.9277439	1.4138347	
	
0.327909570865677	0.061212112	-2.7468563	0.93585785	-0.098935958	0.23192678	1.7245514	0.23143428	-178.43798	
	0.93585785	-0.098935958	0.059532154	0.62495022	0.23141013	-178.64794	0.23210385	1.4596428	
	0.23192678	1.7245514	0.23141013	-178.64794	0.92903703	1.3860856	0.071193673	-19.166627	
	0.23143428	-178.43798	0.23210385	1.4596428	0.071193673	-19.166627	0.92858023	1.4250729	
	
0.335484485326279	0.061369717	-0.4034338	0.93608465	-0.11331124	0.23177605	1.6183391	0.23170669	-178.53453	
