# MHz S MA R 50

0.1	0.27879164	29.483902	0.76621784	-10.42282	0.38902119	29.728635	0.3881687	-150.4727	
	0.76621784	-10.42282	0.27821082	30.554887	0.38930203	-150.91269	0.39070615	29.080028	
	0.38902119	29.728635	0.38930203	-150.91269	0.54592591	28.746194	0.58093511	-27.163685	
	0.3881687	-150.4727	0.39070615	29.080028	0.58093511	-27.163685	0.54842399	28.764911	
	
0.102310062021247	0.28024441	28.69726	0.76261699	-10.437344	0.39303028	29.367707	0.39232184	-150.71117	
	0.76261699	-10.437344	0.28045499	29.619827	0.39309871	-151.01444	0.39423832	28.901034	
	0.39303028	29.367707	0.39309871	-151.01444	0.55193323	28.271126	0.57437089	-27.369876	
	0.39232184	-150.71117	0.39423832	28.901034	0.57437089	-27.369876	0.55288539	28.452051	
	
0.104673487907914	0.28415619	28.557524	0.76015445	-10.364373	0.39379714	28.546264	0.39308586	-151.36025	
	0.76015445	-10.364373	0.28317467	28.753915	0.39325877	-151.43509	0.39378271	28.72332	
	0.39379714	28.546264	0.39325877	-151.43509	0.5541878	27.937344	0.56861232	-27.170529	
	0.39308586	-151.36025	0.39378271	28.72332	0.56861232	-27.170529	0.55296744	27.917719	
	
0.107091510398389	0.28430907	27.913975	0.75753761	-10.30258	0.3964926	28.130353	0.39590311	-151.89508	
	0.75753761	-10.30258	0.28533116	28.335488	0.3957442	-151.85989	0.39660827	28.112083	
	0.3964926	28.130353	0.3957442	-151.85989	0.55659714	27.481487	0.56368862	-27.146241	
	0.39590311	-151.89508	0.39660827	28.112083	0.56368862	-27.146241	0.5568901	27.507391	
	
0.109565390708082	0.28656197	27.561383	0.7548561	-10.184565	0.39846687	27.540317	0.39783279	-152.38182	
	0.7548561	-10.184565	0.28580313	27.917905	0.3981611	-152.62338	0.39902373	27.463449	
	0.39846687	27.540317	0.3981611	-152.62338	0.55956485	26.921601	0.5577204	-27.054168	
	0.39783279	-152.38182	0.39902373	27.463449	0.5577204	-27.054168	0.55951333	26.815266	
	
0.112096419187261	0.28744619	26.762976	0.75214053	-10.110754	0.40033879	27.032852	0.39954463	-152.8952	
	0.75214053	-10.110754	0.28716656	27.149423	0.39967181	-153.06339	0.40022579	26.998441	
	0.40033879	27.032852	0.39967181	-153.06339	0.56229035	26.328954	0.55242449	-27.036345	
	0.39954463	-152.8952	0.40022579	26.998441	0.55242449	-27.036345	0.56131632	26.444212	
	
0.114685915994083	0.28939844	26.362752	0.74939164	-10.015538	0.40235443	26.585867	0.40170214	-153.47002	
	0.74939164	-10.015538	0.28862088	26.856681	0.40256162	-153.52278	0.40332702	26.482392	
	0.40235443	26.585867	0.40256162	-153.52278	0.56579623	25.993691	0.54715173	-26.933614	
	0.40170214	-153.47002	0.40332702	26.482392	0.54715173	-26.933614	0.56554227	25.989969	
	
0.117335231783182	0.29026268	25.876489	0.74713448	-9.9325263	0.40447296	26.142848	0.40448375	-153.92973	
	0.74713448	-9.9325263	0.29012789	26.4056	0.40422219	-153.96633	0.40543695	25.990994	
	0.40447296	26.142848	0.40422219	-153.96633	0.56782382	25.483107	0.54154227	-26.90707	
	0.40448375	-153.92973	0.40543695	25.990994	0.54154227	-26.90707	0.56783145	25.492372	
	
0.120045748410147	0.29190957	25.344522	0.74374672	-9.8548606	0.40677532	25.656549	0.40509785	-154.3797	
	0.74374672	-9.8548606	0.29070123	26.085296	0.40583531	-154.48193	0.4070425	25.441718	
	0.40677532	25.656549	0.40583531	-154.48193	0.56987684	24.881246	0.53627178	-26.694474	
	0.40509785	-154.3797	0.4070425	25.441718	0.53627178	-26.694474	0.56931882	24.94193	
	
0.122818879652292	0.29246162	25.071811	0.74181595	-9.7253784	0.40847883	25.148554	0.40740204	-154.93097	
	0.74181595	-9.7253784	0.29328191	25.312993	0.40764982	-154.98145	0.40868261	24.92331	
	0.40847883	25.148554	0.40764982	-154.98145	0.57246745	24.419284	0.53059242	-26.610533	
	0.40740204	-154.93097	0.40868261	24.92331	0.53059242	-26.610533	0.57292778	24.55623	
	
0.125656071946061	0.29449338	24.443059	0.73941335	-9.6521409	0.41060618	24.679743	0.41006906	-155.33593	
	0.73941335	-9.6521409	0.29298416	24.963628	0.40994768	-155.4889	0.41090972	24.517397	
	0.41060618	24.679743	0.40994768	-155.4889	0.57449499	23.982544	0.52635304	-26.494809	
	0.41006906	-155.33593	0.41090972	24.517397	0.52635304	-26.494809	0.57554009	24.095923	
	
0.128558805141477	0.29540947	23.943701	0.73653816	-9.5374678	0.41179983	24.180071	0.41097987	-155.9032	
	0.73653816	-9.5374678	0.29544157	24.505481	0.41098495	-155.98818	0.41218901	24.018258	
	0.41179983	24.180071	0.41098495	-155.98818	0.57761282	23.508813	0.52093173	-26.329764	
	0.41097987	-155.9032	0.41218901	24.018258	0.52093173	-26.329764	0.5770283	23.54228	
	
0.131528593274019	0.29720366	23.609547	0.73443434	-9.4245081	0.41375531	23.705429	0.41301364	-156.40456	
	0.73443434	-9.4245081	0.29655318	24.037498	0.41293428	-156.43179	0.41417905	23.547455	
	0.41375531	23.705429	0.41293428	-156.43179	0.58021308	23.048842	0.51588565	-26.248806	
	0.41301364	-156.40456	0.41417905	23.547455	0.51588565	-26.248806	0.57942956	23.107771	
	
0.134566985354323	0.29841784	22.952026	0.73213977	-9.3274095	0.4141328	23.165545	0.41381531	-156.83142	
	0.73213977	-9.3274095	0.29821449	23.561061	0.41364725	-156.91797	0.41449258	23.113048	
	0.4141328	23.165545	0.41364725	-156.91797	0.58163187	22.72681	0.51053837	-26.093053	
	0.41381531	-156.83142	0.41449258	23.113048	0.51053837	-26.093053	0.58141582	22.667086	
	
0.13767556617613	0.29969505	22.548575	0.72951428	-9.2174663	0.41567272	22.82277	0.415141	-157.20914	
	0.72951428	-9.2174663	0.29937569	23.258704	0.41568414	-157.27879	0.41653912	22.717957	
	0.41567272	22.82277	0.41568414	-157.27879	0.58429791	22.176367	0.50685101	-25.96768	
	0.415141	-157.20914	0.41653912	22.717957	0.50685101	-25.96768	0.58329331	22.157254	
	
0.140855957142902	0.30132575	22.053823	0.72770826	-9.0829853	0.41694837	22.378406	0.41711953	-157.70016	
	0.72770826	-9.0829853	0.29979437	22.683862	0.4164418	-157.88523	0.41787679	22.186568	
	0.41694837	22.378406	0.4164418	-157.88523	0.58417555	21.824863	0.5006571	-25.824335	
	0.41711953	-157.70016	0.41787679	22.186568	0.5006571	-25.824335	0.585045	21.77034	
	
0.144109817113524	0.30161269	21.704531	0.72590626	-8.9515213	0.41883349	21.905002	0.41809432	-158.08836	
	0.72590626	-8.9515213	0.30077433	22.14784	0.41849404	-158.24154	0.41921076	21.761188	
	0.41883349	21.905002	0.41849404	-158.24154	0.58764503	21.31083	0.49710989	-25.608915	
	0.41809432	-158.08836	0.41921076	21.761188	0.49710989	-25.608915	0.58689505	21.417537	
	
0.147438843267552	0.3025417	21.369892	0.72360555	-8.8531238	0.42109495	21.422213	0.42003587	-158.69241	
	0.72360555	-8.8531238	0.30277825	21.513066	0.42030804	-158.73828	0.42098562	21.293652	
	0.42109495	21.422213	0.42030804	-158.73828	0.58965981	20.923007	0.4923866	-25.414379	
	0.42003587	-158.69241	0.42098562	21.293652	0.4923866	-25.414379	0.58855131	20.995858	
	
0.150844771990442	0.30287067	20.790862	0.72165734	-8.7237347	0.42178391	21.067749	0.42059698	-158.94566	
	0.72165734	-8.7237347	0.30224764	21.245275	0.42074008	-159.03578	0.42210229	20.919422	
	0.42178391	21.067749	0.42074008	-159.03578	0.59117389	20.524509	0.48814958	-25.153262	
	0.42059698	-158.94566	0.42210229	20.919422	0.48814958	-25.153262	0.59110263	20.534254	
	
0.154329379779229	0.30454312	20.631355	0.72009815	-8.5876626	0.42354975	20.636143	0.42197877	-159.45866	
	0.72009815	-8.5876626	0.30308883	20.918028	0.42279	-159.62496	0.42350416	20.40378	
	0.42354975	20.636143	0.42279	-159.62496	0.59348543	20.124432	0.48395913	-24.96272	
	0.42197877	-159.45866	0.42350416	20.40378	0.48395913	-24.96272	0.59302428	20.127191	
	
0.157894484169135	0.30518573	19.929435	0.71827434	-8.4616332	0.42419628	20.122943	0.42394284	-159.89994	
	0.71827434	-8.4616332	0.30426487	20.474441	0.42415244	-159.98759	0.42496684	20.064316	
	0.42419628	20.122943	0.42415244	-159.98759	0.59541388	19.649423	0.47985764	-24.762032	
	0.42394284	-159.89994	0.42496684	20.064316	0.47985764	-24.762032	0.59447093	19.73287	
	
0.16154194468157	0.30632552	19.576393	0.71654192	-8.3510859	0.42536928	19.801409	0.42452876	-160.30048	
	0.71654192	-8.3510859	0.30512843	19.83307	0.42551225	-160.37602	0.42569339	19.642858	
	0.42536928	19.801409	0.42551225	-160.37602	0.59701135	19.24597	0.47583147	-24.565765	
	0.42452876	-160.30048	0.42569339	19.642858	0.47583147	-24.565765	0.59613661	19.39097	
	
0.165273663794043	0.30689486	19.128593	0.71414633	-8.2572746	0.42666541	19.325006	0.42544969	-160.66767	
	0.71414633	-8.2572746	0.30619181	19.533317	0.42605245	-160.79257	0.42694032	19.239337	
	0.42666541	19.325006	0.42605245	-160.79257	0.59761238	18.834201	0.47162528	-24.360193	
	0.42544969	-160.66767	0.42694032	19.239337	0.47162528	-24.360193	0.59798765	18.821305	
	
0.169091587932473	0.3075953	18.625224	0.7123746	-8.1374771	0.42782821	18.956849	0.4267009	-161.07626	
	0.7123746	-8.1374771	0.30713291	18.986749	0.42701524	-161.15902	0.42749947	18.827707	
	0.42782821	18.956849	0.42701524	-161.15902	0.59992941	18.424355	0.46780265	-24.068588	
	0.4267009	-161.07626	0.42749947	18.827707	0.46780265	-24.068588	0.59893674	18.46261	
	
0.172997708486424	0.30792328	18.34374	0.71081922	-7.9666286	0.42906835	18.574529	0.4282735	-161.5595	
	0.71081922	-7.9666286	0.30832063	18.61284	0.42795637	-161.57792	0.42875157	18.436229	
	0.42906835	18.574529	0.42795637	-161.57792	0.60136877	18.049104	0.46437218	-23.760988	
	0.4282735	-161.5595	0.42875157	18.436229	0.46437218	-23.760988	0.60093389	18.226037	
	
0.176994062847797	0.30976264	17.926331	0.70934976	-7.8875166	0.42947311	18.12364	0.42873986	-161.91285	
	0.70934976	-7.8875166	0.30808285	18.426392	0.42854863	-162.04736	0.42958063	18.014508	
	0.42947311	18.12364	0.42854863	-162.04736	0.60313732	17.695512	0.46045369	-23.513755	
	0.42873986	-161.91285	0.42958063	18.014508	0.46045369	-23.513755	0.60094948	17.683889	
	
0.181082735473506	0.30981036	17.407839	0.70739472	-7.7043709	0.43041813	17.684821	0.42974335	-162.19031	
	0.70739472	-7.7043709	0.30970923	17.864563	0.42962212	-162.45642	0.43060221	17.681751	
	0.43041813	17.684821	0.42962212	-162.45642	0.60291418	17.341465	0.45670528	-23.266964	
	0.42974335	-162.19031	0.43060221	17.681751	0.45670528	-23.266964	0.60254223	17.357079	
	
0.185265858972714	0.31044096	17.085782	0.70632249	-7.5873347	0.43126618	17.39598	0.43039527	-162.61948	
	0.70632249	-7.5873347	0.30993208	17.601421	0.43068707	-162.82805	0.4313173	17.220083	
	0.43126618	17.39598	0.43068707	-162.82805	0.60436765	16.956417	0.45334498	-22.968079	
	0.43039527	-162.61948	0.4313173	17.220083	0.45334498	-22.968079	0.60430421	16.965046	
	
0.18954561521918	0.31151565	16.849766	0.70441258	-7.463761	0.43201935	16.913383	0.43107997	-163.00498	
	0.70441258	-7.463761	0.30989958	17.366791	0.43139875	-163.21408	0.43239631	16.894148	
	0.43201935	16.913383	0.43139875	-163.21408	0.60563176	16.539656	0.45014253	-22.658559	
	0.43107997	-163.00498	0.43239631	16.894148	0.45014253	-22.658559	0.60598728	16.549303	
	
0.193924236489297	0.31221055	16.533694	0.70328718	-7.358288	0.43282772	16.610954	0.4313975	-163.41878	
	0.70328718	-7.358288	0.31136404	16.795046	0.43233524	-163.49485	0.43298217	16.544432	
	0.43282772	16.610954	0.43233524	-163.49485	0.60657712	16.249445	0.44688547	-22.396064	
	0.4313975	-163.41878	0.43298217	16.544432	0.44688547	-22.396064	0.60675587	16.234744	
	
0.19840400662643	0.3126841	16.046513	0.70226383	-7.2289754	0.43376503	16.324391	0.4326795	-163.78141	
	0.70226383	-7.2289754	0.31131498	16.27652	0.43367154	-163.88399	0.43446529	16.136379	
	0.43376503	16.324391	0.43367154	-163.88399	0.60835251	15.858111	0.44378397	-22.176466	
	0.4326795	-163.78141	0.43446529	16.136379	0.44378397	-22.176466	0.60773187	15.89027	
	
0.202987262232139	0.31269723	15.536817	0.70070984	-7.0741656	0.43427453	15.864543	0.43293426	-164.04032	
	0.70070984	-7.0741656	0.3125188	16.054583	0.43294431	-164.22764	0.43347983	15.742378	
	0.43427453	15.864543	0.43294431	-164.22764	0.6081355	15.50466	0.44034778	-21.877259	
	0.43293426	-164.04032	0.43347983	15.742378	0.44034778	-21.877259	0.6076708	15.571436	
	
0.207676393884933	0.31284492	15.432842	0.69989487	-6.9598737	0.43504408	15.561215	0.4337338	-164.47441	
	0.69989487	-6.9598737	0.31269124	15.754662	0.43362504	-164.60986	0.43507555	15.467148	
	0.43504408	15.561215	0.43362504	-164.60986	0.60994208	15.250043	0.43733797	-21.563163	
	0.4337338	-164.47441	0.43507555	15.467148	0.43733797	-21.563163	0.6092551	15.248683	
	
0.212473847387164	0.31436567	15.050996	0.69851608	-6.8267692	0.43581062	15.220818	0.43476479	-164.80341	
	0.69851608	-6.8267692	0.31283758	15.387014	0.43524659	-164.9274	0.43584609	15.111403	
	0.43581062	15.220818	0.43524659	-164.9274	0.61067623	14.850224	0.43505336	-21.225356	
	0.43476479	-164.80341	0.43584609	15.111403	0.43505336	-21.225356	0.61052838	14.9024	
	
0.217382125040737	0.31506713	14.663168	0.69707129	-6.7129777	0.43592078	14.858461	0.43491731	-165.09361	
	0.69707129	-6.7129777	0.31372755	14.923169	0.43545969	-165.29591	0.43675447	14.836902	
	0.43592078	14.858461	0.43545969	-165.29591	0.61171986	14.65483	0.43174145	-20.868549	
	0.43491731	-165.09361	0.43675447	14.836902	0.43174145	-20.868549	0.61106737	14.678755	
	
0.222403786952283	0.31488192	14.447595	0.69636989	-6.5970237	0.43677949	14.49076	0.43607022	-165.46594	
	0.69636989	-6.5970237	0.31402628	14.825011	0.43617529	-165.6805	0.43737297	14.430447	
	0.43677949	14.49076	0.43617529	-165.6805	0.61269083	14.248973	0.42953308	-20.710035	
	0.43607022	-165.46594	0.43737297	14.430447	0.42953308	-20.710035	0.61265084	14.302958	
	
0.227541452368483	0.31559851	13.882301	0.69498518	-6.4437272	0.43697384	14.281845	0.43638969	-165.74597	
	0.69498518	-6.4437272	0.31453448	14.358343	0.4362264	-165.88802	0.43755401	14.082631	
	0.43697384	14.281845	0.4362264	-165.88802	0.61329303	14.021871	0.42718084	-20.369653	
	0.43638969	-165.74597	0.43755401	14.082631	0.42718084	-20.369653	0.61247188	13.991549	
	
0.232797801042241	0.31620798	13.75165	0.694787	-6.3632896	0.43767367	13.900215	0.43722054	-166.09085	
	0.694787	-6.3632896	0.31419424	14.062105	0.43726485	-166.22599	0.43866563	13.825014	
	0.43767367	13.900215	0.43726485	-166.22599	0.6142407	13.624967	0.42432472	-20.047966	
	0.43722054	-166.09085	0.43866563	13.825014	0.42432472	-20.047966	0.61289508	13.727732	
	
0.238175574630416	0.31613694	13.441675	0.69348071	-6.2431061	0.43848981	13.606556	0.43778936	-166.39989	
	0.69348071	-6.2431061	0.31467181	13.738781	0.4374258	-166.53271	0.4390337	13.503406	
	0.43848981	13.606556	0.4374258	-166.53271	0.61470213	13.383022	0.42238194	-19.741774	
	0.43778936	-166.39989	0.4390337	13.503406	0.42238194	-19.741774	0.61454557	13.378095	
	
0.24367757812384	0.31577836	13.082362	0.69271197	-6.1098003	0.43944007	13.37274	0.43803242	-166.67413	
	0.69271197	-6.1098003	0.31567032	13.50448	0.4385436	-166.87572	0.43929647	13.186198	
	0.43944007	13.37274	0.4385436	-166.87572	0.61555872	13.081509	0.4196636	-19.377017	
	0.43803242	-166.67413	0.43929647	13.186198	0.4196636	-19.377017	0.61479066	13.117571	
	
0.249306681310373	0.31633824	12.679746	0.69260729	-6.0249891	0.44021457	13.012967	0.43917996	-166.95967	
	0.69260729	-6.0249891	0.31465871	13.11623	0.43955702	-167.06372	0.43975369	12.942379	
	0.44021457	13.012967	0.43955702	-167.06372	0.61638585	12.828534	0.41829936	-19.138967	
	0.43917996	-166.95967	0.43975369	12.942379	0.41829936	-19.138967	0.61545925	12.814852	
	
0.255065820271756	0.31698498	12.421574	0.69114156	-5.878946	0.44022578	12.750324	0.43921989	-167.2742	
	0.69114156	-5.878946	0.31611361	12.848221	0.43948598	-167.44091	0.4401494	12.661086	
	0.44022578	12.750324	0.43948598	-167.44091	0.61596726	12.49615	0.41571009	-18.784773	
	0.43921989	-167.2742	0.4401494	12.661086	0.41571009	-18.784773	0.6164304	12.558823	
	
0.260957998915036	0.31803536	12.357765	0.69018083	-5.7593331	0.43986317	12.517115	0.43944509	-167.56868	
	0.69018083	-5.7593331	0.31654814	12.400125	0.43959662	-167.68884	0.44060266	12.350993	
	0.43986317	12.517115	0.43959662	-167.68884	0.61673719	12.216585	0.41349668	-18.520846	
	0.43944509	-167.56868	0.44060266	12.350993	0.41349668	-18.520846	0.61665447	12.244016	
	
0.266986290539378	0.31764123	12.025959	0.68989502	-5.6415725	0.44077899	12.158449	0.44016604	-167.90524	
	0.68989502	-5.6415725	0.31652505	12.275234	0.44033283	-167.97561	0.44136866	12.074804	
	0.44077899	12.158449	0.44033283	-167.97561	0.61807714	11.927486	0.41160255	-18.180839	
	0.44016604	-167.90524	0.44136866	12.074804	0.41160255	-18.180839	0.61729455	11.967005	
	
0.273153839439064	0.3175776	11.838659	0.68960112	-5.5519935	0.44123908	11.947317	0.44048337	-168.13181	
	0.68960112	-5.5519935	0.31670668	11.989952	0.44108397	-168.25426	0.4414678	11.803095	
	0.44123908	11.947317	0.44108397	-168.25426	0.61851229	11.692575	0.40987681	-17.891859	
	0.44048337	-168.13181	0.4414678	11.803095	0.40987681	-17.891859	0.61820436	11.742525	
	
0.279463862543524	0.31785833	11.252189	0.68871076	-5.439881	0.44227565	11.66486	0.44108206	-168.35821	
	0.68871076	-5.439881	0.31653741	11.782361	0.44135346	-168.50049	0.44119884	11.515303	
	0.44227565	11.66486	0.44135346	-168.50049	0.61840353	11.372485	0.4080379	-17.636459	
	0.44108206	-168.35821	0.44119884	11.515303	0.4080379	-17.636459	0.61775136	11.481773	
	
0.285919651095252	0.31801579	11.361667	0.68803748	-5.3462888	0.44197583	11.383117	0.44153072	-168.70312	
	0.68803748	-5.3462888	0.31760206	11.593171	0.4414999	-168.81315	0.44232631	11.31099	
	0.44197583	11.383117	0.4414999	-168.81315	0.61925072	11.253939	0.40694084	-17.358244	
	0.44153072	-168.70312	0.44232631	11.31099	0.40694084	-17.358244	0.61921854	11.236782	
	
0.292524572366485	0.31867099	11.032879	0.68712547	-5.2453551	0.4422941	11.176716	0.44186561	-168.93474	
	0.68712547	-5.2453551	0.31774203	11.613324	0.44253287	-169.14274	0.44261125	10.988474	
	0.4422941	11.176716	0.44253287	-169.14274	0.62024045	10.900401	0.40547067	-17.025221	
	0.44186561	-168.93474	0.44261125	10.988474	0.40547067	-17.025221	0.61940443	10.941041	
	
0.299282071415539	0.31961206	10.879594	0.68640424	-5.1125103	0.4418886	10.861588	0.4413703	-169.19991	
	0.68640424	-5.1125103	0.31785363	11.385518	0.44187266	-169.37833	0.44253816	10.681841	
	0.4418886	10.861588	0.44187266	-169.37833	0.61972321	10.711918	0.40353924	-16.694155	
	0.4413703	-169.19991	0.44253816	10.681841	0.40353924	-16.694155	0.61982447	10.76062	
	
0.30619567288371	0.31917914	10.702493	0.68631037	-5.0512748	0.44237914	10.685248	0.44150096	-169.39046	
	0.68631037	-5.0512748	0.31816885	10.999353	0.44235608	-169.53872	0.44225165	10.483101	
	0.44237914	10.685248	0.44235608	-169.53872	0.62093359	10.555288	0.40164267	-16.439561	
	0.44150096	-169.39046	0.44225165	10.483101	0.40164267	-16.439561	0.62062583	10.400784	
	
0.313268982833699	0.31926326	10.166684	0.68512496	-4.8834889	0.44341859	10.449249	0.44248209	-169.63818	
	0.68512496	-4.8834889	0.31819418	10.768937	0.44277724	-169.7737	0.44361115	10.290251	
	0.44341859	10.449249	0.44277724	-169.7737	0.62138884	10.247361	0.40000054	-16.104586	
	0.44248209	-169.63818	0.44361115	10.290251	0.40000054	-16.104586	0.62030126	10.226325	
	
0.320505690630487	0.31910387	9.9575633	0.68498762	-4.7779402	0.44306389	10.235824	0.4427965	-169.80689	
	0.68498762	-4.7779402	0.31833625	10.22511	0.44287432	-169.92077	0.44405409	10.046977	
	0.44306389	10.235824	0.44287432	-169.92077	0.62099311	10.011999	0.39887038	-15.777965	
	0.4427965	-169.80689	0.44405409	10.046977	0.39887038	-15.777965	0.62078945	9.9525511	
	
0.327909570865677	0.31795815	9.5356317	0.68455234	-4.6680385	0.44449693	10.11759	0.44329757	-170.01335	
	0.68455234	-4.6680385	0.31741792	9.9603661	0.44346153	-170.11782	0.44470367	9.8804615	
	0.44449693	10.11759	0.44346153	-170.11782	0.62241972	9.6937472	0.39750469	-15.463428	
	0.44329757	-170.01335	0.44470367	9.8804615	0.39750469	-15.463428	0.62103378	9.7306683	
	
0.335484485326279	0.31916286	9.4816874	0.68405438	-4.6088316	0.44460295	9.7957424	0.44362109	-170.26899	
	0.68405438	-4.6088316	0.31818211	9.6578919	0.44401656	-170.29391	0.44461807	9.7315259	
	0.44460295	9.7957424	0.44401656	-170.29391	0.62197025	9.4668075	0.39621279	-15.199015	
	0.44362109	-170.26899	0.44461807	9.7315259	0.39621279	-15.199015	0.62201229	9.465174	
	
0.343234385008977	0.31878098	9.2442798	0.68347865	-4.5067515	0.44481625	9.5409698	0.44358268	-170.48306	
