# MHz S MA R 50

0.1	0.3358254	13.116683	0.67407856	-6.5671652	0.40763059	13.552428	0.40658022	-166.52275	
	0.67407856	-6.5671652	0.33327257	13.963479	0.40852323	-166.83965	0.40953432	13.11831	
	0.40763059	13.552428	0.40852323	-166.83965	0.4980438	12.994149	0.5236912	-12.721214	
	0.40658022	-166.52275	0.40953432	13.11831	0.5236912	-12.721214	0.49913589	13.296536	
	
0.102310062021247	0.33623722	12.63862	0.67173227	-6.5443928	0.40889929	13.514668	0.40832959	-166.55386	
	0.67173227	-6.5443928	0.33611396	13.243966	0.40944105	-166.86407	0.41049351	13.072966	
	0.40889929	13.514668	0.40944105	-166.86407	0.50129965	12.836048	0.52022738	-12.721821	
	0.40832959	-166.55386	0.41049351	13.072966	0.52022738	-12.721821	0.50026734	13.063224	
	
0.104673487907914	0.3385402	12.692497	0.67107405	-6.4789038	0.40919336	12.971351	0.4082924	-166.91607	
	0.67107405	-6.4789038	0.33762	12.851229	0.40804972	-166.97696	0.40892722	13.177421	
	0.40919336	12.971351	0.40804972	-166.97696	0.50107389	12.923216	0.51864168	-12.469078	
	0.4082924	-166.91607	0.40892722	13.177421	0.51864168	-12.469078	0.50047671	12.852082	
	
0.107091510398389	0.33855654	12.427294	0.67000457	-6.3820185	0.41056328	12.882939	0.40987316	-167.07172	
	0.67000457	-6.3820185	0.3384398	12.693311	0.4091571	-167.15312	0.41004518	12.879105	
	0.41056328	12.882939	0.4091571	-167.15312	0.50288211	12.7364	0.51735083	-12.3067	
	0.40987316	-167.07172	0.41004518	12.879105	0.51735083	-12.3067	0.50265963	12.848023	
	
0.109565390708082	0.33950021	12.333997	0.66988065	-6.2978097	0.41124499	12.647238	0.41092922	-167.34226	
	0.66988065	-6.2978097	0.33746834	12.647479	0.4107404	-167.54903	0.41180338	12.619382	
	0.41124499	12.647238	0.4107404	-167.54903	0.5030514	12.477497	0.51628617	-12.221651	
	0.41092922	-167.34226	0.41180338	12.619382	0.51628617	-12.221651	0.50344287	12.458968	
	
0.112096419187261	0.33993909	11.890746	0.66897326	-6.2215172	0.41180501	12.428357	0.4113303	-167.5403	
	0.66897326	-6.2215172	0.33838298	12.204944	0.41148895	-167.65093	0.41161937	12.385971	
	0.41180501	12.428357	0.41148895	-167.65093	0.50456374	12.148822	0.51471103	-12.104441	
	0.4113303	-167.5403	0.41161937	12.385971	0.51471103	-12.104441	0.50416082	12.3404	
	
0.114685915994083	0.33991243	11.899301	0.6677308	-6.1273446	0.41272981	12.272902	0.41169168	-167.79475	
	0.6677308	-6.1273446	0.33870848	12.018878	0.41259828	-167.8307	0.41344988	12.16498	
	0.41272981	12.272902	0.41259828	-167.8307	0.50594608	12.126912	0.51305422	-11.945212	
	0.41169168	-167.79475	0.41344988	12.16498	0.51305422	-11.945212	0.50507462	12.14066	
	
0.117335231783182	0.3409977	11.665361	0.66659805	-6.0645826	0.41358679	12.07797	0.41331766	-167.92606	
	0.66659805	-6.0645826	0.34041381	11.948147	0.41307454	-168.00069	0.41413631	11.967441	
	0.41358679	12.07797	0.41307454	-168.00069	0.50726043	11.799909	0.51093636	-11.805891	
	0.41331766	-167.92606	0.41413631	11.967441	0.51093636	-11.805891	0.50556109	11.835503	
	
0.120045748410147	0.34232273	11.305138	0.66487345	-5.9835707	0.41420922	11.95688	0.41284578	-168.17992	
	0.66487345	-5.9835707	0.33995069	11.743371	0.41347148	-168.24715	0.41503195	11.656188	
	0.41420922	11.95688	0.41347148	-168.24715	0.50769919	11.466793	0.50942408	-11.670185	
	0.41284578	-168.17992	0.41503195	11.656188	0.50942408	-11.670185	0.50590261	11.587832	
	
0.122818879652292	0.3415808	11.300193	0.66486946	-5.8720137	0.41502276	11.675232	0.41422917	-168.3442	
	0.66486946	-5.8720137	0.34120744	11.555128	0.41433518	-168.4384	0.41540737	11.50757	
	0.41502276	11.675232	0.41433518	-168.4384	0.50876541	11.374308	0.50812127	-11.497869	
	0.41422917	-168.3442	0.41540737	11.50757	0.50812127	-11.497869	0.50714291	11.44093	
	
0.125656071946061	0.34244742	11.046611	0.66441663	-5.8221155	0.41615318	11.504712	0.41555847	-168.462	
	0.66441663	-5.8221155	0.34120522	11.303558	0.41600467	-168.61375	0.41639147	11.365033	
	0.41615318	11.504712	0.41600467	-168.61375	0.50836609	11.262442	0.50729664	-11.349861	
	0.41555847	-168.462	0.41639147	11.365033	0.50729664	-11.349861	0.50892637	11.338573	
	
0.128558805141477	0.34267848	10.76082	0.66349067	-5.740812	0.41657319	11.354645	0.41614531	-168.7397	
	0.66349067	-5.740812	0.34167562	11.150737	0.415829	-168.90421	0.41698091	11.166949	
	0.41657319	11.354645	0.415829	-168.90421	0.50947517	11.106974	0.50539442	-11.156538	
	0.41614531	-168.7397	0.41698091	11.166949	0.50539442	-11.156538	0.50921225	11.069212	
	
0.131528593274019	0.34393056	10.81872	0.66224819	-5.6404563	0.41723678	11.114902	0.41675227	-168.96011	
	0.66224819	-5.6404563	0.34331299	11.013809	0.41690035	-169.08473	0.41793669	10.967808	
	0.41723678	11.114902	0.41690035	-169.08473	0.51092024	10.775682	0.50388823	-11.062459	
	0.41675227	-168.96011	0.41793669	10.967808	0.50388823	-11.062459	0.50999828	10.932911	
	
0.134566985354323	0.34450542	10.502484	0.66182177	-5.5455066	0.41767634	10.862875	0.41706512	-169.16136	
	0.66182177	-5.5455066	0.34297291	10.844185	0.41729579	-169.26371	0.41774978	10.84034	
	0.41767634	10.862875	0.41729579	-169.26371	0.51186966	10.740171	0.50279662	-10.915402	
	0.41706512	-169.16136	0.41774978	10.84034	0.50279662	-10.915402	0.51088775	10.733111	
	
0.13767556617613	0.34457518	10.233391	0.6604521	-5.4913304	0.41773037	10.767979	0.41679287	-169.22886	
	0.6604521	-5.4913304	0.34351971	10.791933	0.41755335	-169.30408	0.41863393	10.691615	
	0.41773037	10.767979	0.41755335	-169.30408	0.5121943	10.496285	0.50145484	-10.850938	
	0.41679287	-169.22886	0.41863393	10.691615	0.50145484	-10.850938	0.5114594	10.423068	
	
0.140855957142902	0.34546946	10.040288	0.66002135	-5.4374389	0.41845031	10.586927	0.41759203	-169.42162	
	0.66002135	-5.4374389	0.34383585	10.492975	0.41739871	-169.6311	0.41876347	10.486486	
	0.41845031	10.586927	0.41739871	-169.6311	0.51189297	10.396985	0.49954672	-10.717098	
	0.41759203	-169.42162	0.41876347	10.486486	0.49954672	-10.717098	0.51150076	10.369604	
	
0.144109817113524	0.34567887	9.9003024	0.65937222	-5.3094574	0.41904344	10.383723	0.41796536	-169.63816	
	0.65937222	-5.3094574	0.34444477	10.294204	0.41844052	-169.73734	0.41947658	10.289953	
	0.41904344	10.383723	0.41844052	-169.73734	0.51328271	10.112987	0.49857738	-10.612825	
	0.41796536	-169.63816	0.41947658	10.289953	0.49857738	-10.612825	0.51238818	10.223099	
	
0.147438843267552	0.34571608	9.9710841	0.65841687	-5.2463359	0.42085803	10.213758	0.41905017	-169.88913	
	0.65841687	-5.2463359	0.34642228	10.154264	0.41979766	-169.93077	0.42028891	10.14558	
	0.42085803	10.213758	0.41979766	-169.93077	0.51346027	9.9797706	0.49741747	-10.454106	
	0.41905017	-169.88913	0.42028891	10.14558	0.49741747	-10.454106	0.51346769	10.097489	
	
0.150844771990442	0.34647297	9.5786132	0.65747944	-5.1845013	0.42064518	10.07898	0.41923847	-169.8932	
	0.65747944	-5.1845013	0.34386465	9.9212383	0.41966699	-170.03837	0.42066586	9.9294794	
	0.42064518	10.07898	0.41966699	-170.03837	0.51543966	9.8694848	0.49646823	-10.264669	
	0.41923847	-169.8932	0.42066586	9.9294794	0.49646823	-10.264669	0.51506363	9.9357947	
	
0.154329379779229	0.34708046	9.6202016	0.65735447	-5.1039866	0.42137602	9.9259816	0.41996072	-170.16384	
	0.65735447	-5.1039866	0.34587155	9.8335777	0.42131289	-170.30489	0.42167623	9.7506625	
	0.42137602	9.9259816	0.42131289	-170.30489	0.5153167	9.6156755	0.49513972	-10.167264	
	0.41996072	-170.16384	0.42167623	9.7506625	0.49513972	-10.167264	0.51559193	9.7201395	
	
0.157894484169135	0.34752122	9.327382	0.65719492	-5.0390221	0.42151625	9.7329635	0.42128599	-170.30371	
	0.65719492	-5.0390221	0.34528148	9.6160816	0.42130145	-170.36534	0.42239399	9.685492	
	0.42151625	9.7329635	0.42130145	-170.36534	0.51729579	9.5561875	0.49437214	-10.053832	
	0.42128599	-170.30371	0.42239399	9.685492	0.49437214	-10.053832	0.51563848	9.5940128	
	
0.16154194468157	0.34851358	9.075963	0.65637839	-5.008127	0.42226835	9.5760438	0.42184735	-170.43738	
	0.65637839	-5.008127	0.34615796	9.2304205	0.42213544	-170.53415	0.42237361	9.5016499	
	0.42226835	9.5760438	0.42213544	-170.53415	0.51753775	9.277839	0.49300032	-9.9048372	
	0.42184735	-170.43738	0.42237361	9.5016499	0.49300032	-9.9048372	0.5168753	9.5131151	
	
0.165273663794043	0.34800976	8.9872392	0.65495091	-4.9299834	0.42250894	9.4286532	0.42121652	-170.58407	
	0.65495091	-4.9299834	0.34731936	9.3045507	0.42170425	-170.69821	0.42265214	9.3813881	
	0.42250894	9.4286532	0.42170425	-170.69821	0.51792893	9.1688231	0.49187564	-9.8026465	
	0.42121652	-170.58407	0.42265214	9.3813881	0.49187564	-9.8026465	0.51692617	9.2077869	
	
0.169091587932473	0.34828544	8.7883476	0.65451674	-4.8775995	0.42354137	9.2857185	0.42207171	-170.71321	
	0.65451674	-4.8775995	0.34822252	9.1413027	0.42235429	-170.81147	0.42319093	9.2124895	
	0.42354137	9.2857185	0.42235429	-170.81147	0.51795219	9.0333129	0.49068222	-9.7142654	
	0.42207171	-170.71321	0.42319093	9.2124895	0.49068222	-9.7142654	0.51757486	9.1347663	
	
0.172997708486424	0.34846854	8.6910609	0.65437593	-4.7902723	0.424126	9.2106808	0.42302825	-170.9915	
	0.65437593	-4.7902723	0.34782595	8.9266748	0.42298032	-170.98334	0.42375522	9.0491563	
	0.424126	9.2106808	0.42298032	-170.98334	0.51948877	8.9304699	0.49007432	-9.4808086	
	0.42302825	-170.9915	0.42375522	9.0491563	0.49007432	-9.4808086	0.51872483	9.1056573	
	
0.176994062847797	0.34926125	8.6347819	0.65344079	-4.7399167	0.42409394	8.96545	0.42321185	-171.02809	
	0.65344079	-4.7399167	0.34832405	8.9765437	0.42347417	-171.23538	0.42457876	8.9421515	
	0.42409394	8.96545	0.42347417	-171.23538	0.52055036	8.7766839	0.48880437	-9.4033903	
	0.42321185	-171.02809	0.42457876	8.9421515	0.48880437	-9.4033903	0.51860058	8.7859019	
	
0.181082735473506	0.34946873	8.2405669	0.65285112	-4.6663109	0.42444961	8.7952668	0.42381452	-171.12358	
	0.65285112	-4.6663109	0.34910531	8.732394	0.42399336	-171.32157	0.42467141	8.7965156	
	0.42444961	8.7952668	0.42399336	-171.32157	0.52035776	8.6856507	0.48806989	-9.286211	
	0.42381452	-171.12358	0.42467141	8.7965156	0.48806989	-9.286211	0.51938716	8.6466276	
	
0.185265858972714	0.35024787	8.2464506	0.65249023	-4.5716896	0.42497701	8.721421	0.42412171	-171.26909	
	0.65249023	-4.5716896	0.34925404	8.588605	0.42482661	-171.48599	0.42511997	8.5656709	
	0.42497701	8.721421	0.42482661	-171.48599	0.52065083	8.5065264	0.48664808	-9.1385597	
	0.42412171	-171.26909	0.42511997	8.5656709	0.48664808	-9.1385597	0.52077438	8.539703	
	
0.18954561521918	0.35112777	8.2005702	0.65093756	-4.5181696	0.42557483	8.4971295	0.42457763	-171.45471	
	0.65093756	-4.5181696	0.34949754	8.5517999	0.42460331	-171.64348	0.42628379	8.4786577	
	0.42557483	8.4971295	0.42460331	-171.64348	0.5213138	8.3948067	0.48581901	-9.0637842	
	0.42457763	-171.45471	0.42628379	8.4786577	0.48581901	-9.0637842	0.52077927	8.3182374	
	
0.193924236489297	0.3509319	8.1475729	0.65099814	-4.5225645	0.4259296	8.4531344	0.4244144	-171.58681	
	0.65099814	-4.5225645	0.3493603	8.2399944	0.42512011	-171.7113	0.42593397	8.3874611	
	0.4259296	8.4531344	0.42512011	-171.7113	0.52166003	8.2475355	0.48526355	-8.9107997	
	0.4244144	-171.58681	0.42593397	8.3874611	0.48526355	-8.9107997	0.52190041	8.2293721	
	
0.19840400662643	0.35121689	7.942436	0.65084247	-4.4238415	0.42652545	8.3992485	0.42523973	-171.70774	
	0.65084247	-4.4238415	0.35056867	8.1939428	0.42594542	-171.8124	0.42690038	8.2339779	
	0.42652545	8.3992485	0.42594542	-171.8124	0.52216688	8.0026096	0.48388498	-8.8328402	
	0.42523973	-171.70774	0.42690038	8.2339779	0.48388498	-8.8328402	0.52188669	8.2140953	
	
0.202987262232139	0.35115175	7.679765	0.65050411	-4.3932247	0.42664119	8.1448949	0.42569434	-171.77367	
	0.65050411	-4.3932247	0.35092789	8.0903107	0.42575229	-171.99634	0.42626472	8.0695215	
	0.42664119	8.1448949	0.42575229	-171.99634	0.52244409	7.994773	0.4826357	-8.7427854	
	0.42569434	-171.77367	0.42626472	8.0695215	0.4826357	-8.7427854	0.52283353	8.0480481	
	
0.207676393884933	0.35150861	7.7337996	0.64978551	-4.2753009	0.42762819	8.0645702	0.42635128	-171.96089	
	0.64978551	-4.2753009	0.35083056	7.9236437	0.42653107	-172.13934	0.42759831	7.9893422	
	0.42762819	8.0645702	0.42653107	-172.13934	0.52407723	7.9020238	0.48227322	-8.5994892	
	0.42635128	-171.96089	0.42759831	7.9893422	0.48227322	-8.5994892	0.52290925	7.9461381	
	
0.212473847387164	0.35236852	7.5609666	0.64918243	-4.2513902	0.42813629	7.9456162	0.42700678	-172.11354	
	0.64918243	-4.2513902	0.35125597	7.7569914	0.42743004	-172.18877	0.42819033	7.8426594	
	0.42813629	7.9456162	0.42743004	-172.18877	0.52411061	7.7456921	0.48187059	-8.5051898	
	0.42700678	-172.11354	0.42819033	7.8426594	0.48187059	-8.5051898	0.52404484	7.7258265	
	
0.217382125040737	0.35344957	7.426481	0.64868444	-4.1898616	0.42783699	7.7949835	0.42703123	-172.24766	
	0.64868444	-4.1898616	0.35158434	7.6318885	0.42786694	-172.3505	0.42860191	7.7455458	
	0.42783699	7.7949835	0.42786694	-172.3505	0.52463303	7.6659615	0.48103416	-8.3815727	
	0.42703123	-172.24766	0.42860191	7.7455458	0.48103416	-8.3815727	0.52456034	7.6743332	
	
0.222403786952283	0.3535417	7.4267192	0.64811778	-4.1225557	0.42907547	7.6245219	0.42790939	-172.33858	
	0.64811778	-4.1225557	0.35183232	7.7494503	0.42812498	-172.53239	0.42903361	7.5745671	
	0.42907547	7.6245219	0.42812498	-172.53239	0.52592069	7.4768	0.47946034	-8.3516502	
	0.42790939	-172.33858	0.42903361	7.5745671	0.47946034	-8.3516502	0.52443306	7.5490268	
	
0.227541452368483	0.35333977	7.1169738	0.64733509	-4.0529416	0.42874971	7.6155556	0.42794563	-172.38282	
	0.64733509	-4.0529416	0.35263207	7.4604063	0.42802079	-172.58711	0.42941087	7.4307574	
	0.42874971	7.6155556	0.42802079	-172.58711	0.52639284	7.3564476	0.47885508	-8.1718567	
	0.42794563	-172.38282	0.42941087	7.4307574	0.47885508	-8.1718567	0.52533049	7.4969863	
	
0.232797801042241	0.35473958	7.2195144	0.64743316	-4.0226682	0.42945377	7.4474849	0.42905116	-172.557	
	0.64743316	-4.0226682	0.35227924	7.407026	0.42913917	-172.65481	0.43044589	7.3933095	
	0.42945377	7.4474849	0.42913917	-172.65481	0.52693466	7.319117	0.47804974	-8.1163449	
	0.42905116	-172.557	0.43044589	7.3933095	0.47804974	-8.1163449	0.52507987	7.3473335	
	
0.238175574630416	0.35398574	6.9891881	0.64630347	-4.0071399	0.4299612	7.3419184	0.429305	-172.65894	
	0.64630347	-4.0071399	0.3529414	7.2930395	0.42910821	-172.77779	0.43033118	7.3097843	
	0.4299612	7.3419184	0.42910821	-172.77779	0.52815574	7.2548989	0.4777462	-8.0356652	
	0.429305	-172.65894	0.43033118	7.3097843	0.4777462	-8.0356652	0.52651823	7.1835665	
	
0.24367757812384	0.35410716	6.7766637	0.64622605	-3.9254987	0.43056374	7.2887425	0.42943612	-172.82153	
	0.64622605	-3.9254987	0.35408259	7.2289665	0.43034968	-172.95801	0.43104759	7.1387369	
	0.43056374	7.2887425	0.43034968	-172.95801	0.52727771	7.0423969	0.47653172	-7.8843163	
	0.42943612	-172.82153	0.43104759	7.1387369	0.47653172	-7.8843163	0.52746277	7.0745614	
	
0.249306681310373	0.35446302	6.6968838	0.64618775	-3.93473	0.43179294	7.1539241	0.43052987	-172.83928	
	0.64618775	-3.93473	0.35306995	6.9590102	0.43079216	-172.96341	0.43139146	7.0646268	
	0.43179294	7.1539241	0.43079216	-172.96341	0.52859589	7.0101465	0.4764756	-7.8588414	
	0.43052987	-172.83928	0.43139146	7.0646268	0.4764756	-7.8588414	0.52679613	6.9819707	
	
0.255065820271756	0.3556854	6.5532566	0.64575958	-3.8625597	0.43167366	7.0777044	0.43060033	-173.00185	
	0.64575958	-3.8625597	0.35336352	6.8861942	0.43088632	-173.14493	0.43139727	6.9401167	
	0.43167366	7.0777044	0.43088632	-173.14493	0.52847451	6.8370856	0.47524104	-7.7422135	
	0.43060033	-173.00185	0.43139727	6.9401167	0.47524104	-7.7422135	0.52802232	6.9427608	
	
0.260957998915036	0.35660759	6.6445916	0.6450245	-3.7742458	0.43125877	6.9746376	0.4306683	-173.11162	
	0.6450245	-3.7742458	0.35442613	6.7930422	0.43105682	-173.18263	0.43163008	6.8782112	
	0.43125877	6.9746376	0.43105682	-173.18263	0.52844817	6.7184558	0.4745074	-7.6337151	
	0.4306683	-173.11162	0.43163008	6.8782112	0.4745074	-7.6337151	0.52834306	6.8234367	
	
0.266986290539378	0.35585855	6.5591295	0.6446911	-3.7528302	0.43239317	6.8165268	0.43162474	-173.19371	
	0.6446911	-3.7528302	0.35457549	6.7647716	0.43176892	-173.35482	0.43310406	6.7164891	
	0.43239317	6.8165268	0.43176892	-173.35482	0.5300234	6.6463837	0.47353835	-7.5460453	
	0.43162474	-173.19371	0.43310406	6.7164891	0.47353835	-7.5460453	0.5289879	6.7296082	
	
0.273153839439064	0.35633802	6.5072105	0.64477088	-3.7393342	0.43275582	6.7555302	0.43200907	-173.28751	
	0.64477088	-3.7393342	0.35473309	6.6926207	0.43212003	-173.38721	0.43287235	6.695885	
	0.43275582	6.7555302	0.43212003	-173.38721	0.52947802	6.5231515	0.47305299	-7.4343047	
	0.43200907	-173.28751	0.43287235	6.695885	0.47305299	-7.4343047	0.52966068	6.6136423	
	
0.279463862543524	0.35680566	6.0817465	0.6440237	-3.6912898	0.43358597	6.6671986	0.43322232	-173.36605	
	0.6440237	-3.6912898	0.35495212	6.5515432	0.43263337	-173.49893	0.43312073	6.541877	
	0.43358597	6.6671986	0.43263337	-173.49893	0.53045807	6.407309	0.4726765	-7.3650012	
	0.43322232	-173.36605	0.43312073	6.541877	0.4726765	-7.3650012	0.53025998	6.5163088	
	
0.285919651095252	0.35702644	6.2904995	0.64373155	-3.6363833	0.43376392	6.5510823	0.43332122	-173.53719	
	0.64373155	-3.6363833	0.35561668	6.4960676	0.43344933	-173.64723	0.43381118	6.4386476	
	0.43376392	6.5510823	0.43344933	-173.64723	0.53137962	6.4574514	0.47228401	-7.3048187	
	0.43332122	-173.53719	0.43381118	6.4386476	0.47228401	-7.3048187	0.53075211	6.3866098	
	
0.292524572366485	0.35716239	6.2376294	0.64306584	-3.5852163	0.43409485	6.5116055	0.43344252	-173.66277	
	0.64306584	-3.5852163	0.35650521	6.6813141	0.43445286	-173.83264	0.43434924	6.3214677	
	0.43409485	6.5116055	0.43445286	-173.83264	0.53228851	6.33493	0.47114023	-7.2172726	
	0.43344252	-173.66277	0.43434924	6.3214677	0.47114023	-7.2172726	0.53181027	6.329623	
	
0.299282071415539	0.35777354	6.1586963	0.64232827	-3.5330621	0.43373258	6.3420211	0.43318484	-173.72416	
	0.64232827	-3.5330621	0.35676977	6.650041	0.43343766	-173.90648	0.43427021	6.128883	
	0.43373258	6.3420211	0.43343766	-173.90648	0.53165752	6.2620318	0.47061277	-7.1103697	
	0.43318484	-173.72416	0.43427021	6.128883	0.47061277	-7.1103697	0.53115179	6.2890607	
	
0.30619567288371	0.35803599	6.1003357	0.64246687	-3.5113161	0.43444781	6.250501	0.43380181	-173.75997	
	0.64246687	-3.5113161	0.3570882	6.350309	0.43451542	-173.95021	0.43437494	6.1898687	
	0.43444781	6.250501	0.43451542	-173.95021	0.53201379	6.1808581	0.46961072	-7.0315048	
	0.43380181	-173.75997	0.43437494	6.1898687	0.46961072	-7.0315048	0.532118	6.1676841	
	
0.313268982833699	0.35834061	5.8747148	0.64176874	-3.4313675	0.43530646	6.1868616	0.43448493	-173.84548	
	0.64176874	-3.4313675	0.35690485	6.2205567	0.43513555	-173.97353	0.43582728	6.026912	
	0.43530646	6.1868616	0.43513555	-173.97353	0.53324783	5.9995786	0.46898097	-6.8861557	
	0.43448493	-173.84548	0.43582728	6.026912	0.46898097	-6.8861557	0.53253315	6.0250931	
	
0.320505690630487	0.35796108	5.7344388	0.64148633	-3.379418	0.4350438	6.1519239	0.43486061	-173.88869	
	0.64148633	-3.379418	0.35746209	6.0389406	0.43477549	-174.01893	0.43631019	6.0031556	
	0.4350438	6.1519239	0.43477549	-174.01893	0.53348808	5.9353575	0.46848027	-6.8057827	
	0.43486061	-173.88869	0.43631019	6.0031556	0.46848027	-6.8057827	0.53248759	5.8914837	
	
0.327909570865677	0.35722915	5.4552766	0.64085952	-3.2956219	0.43646191	6.1585958	0.43538787	-173.95842	
	0.64085952	-3.2956219	0.35685437	5.7193429	0.43575157	-174.09726	0.43679848	5.9440545	
	0.43646191	6.1585958	0.43575157	-174.09726	0.53468257	5.7260129	0.46796843	-6.6991566	
	0.43538787	-173.95842	0.43679848	5.9440545	0.46796843	-6.6991566	0.53365031	5.7388961	
	
0.335484485326279	0.3587487	5.4987485	0.64037121	-3.3024254	0.43651492	6.016711	0.43564317	-174.0592	
	0.64037121	-3.3024254	0.35733692	5.628808	0.43590517	-174.1381	0.43673803	5.9613063	
	0.43651492	6.016711	0.43590517	-174.1381	0.53440034	5.6094335	0.46744471	-6.6282998	
	0.43564317	-174.0592	0.43673803	5.9613063	0.46744471	-6.6282998	0.53438253	5.6711472	
	
0.343234385008977	0.35866513	5.4879991	0.64035695	-3.2650729	0.43725966	5.8663407	0.43652121	-174.1383	
