# MHz S MA R 50

0.1	0.06220979	4.2683815	0.93392989	-0.34490995	0.23083945	5.712061	0.23017194	-174.32158	
	0.93392989	-0.34490995	0.057843788	9.8204792	0.23067063	-174.68863	0.23152163	5.2632938	
	0.23083945	5.712061	0.23067063	-174.68863	0.92817579	5.1130934	0.11360723	-50.362635	
	0.23017194	-174.32158	0.23152163	5.2632938	0.11360723	-50.362635	0.92783227	5.1796645	
	
0.102310062021247	0.061993668	0.8227686	0.93388136	-0.34814773	0.23116416	5.6634563	0.23055207	-174.38509	
	0.93388136	-0.34814773	0.059086705	5.41744	0.23131507	-174.74044	0.23192076	5.3449542	
	0.23116416	5.6634563	0.23131507	-174.74044	0.92964337	5.1804038	0.11096076	-50.268859	
	0.23055207	-174.38509	0.23192076	5.3449542	0.11096076	-50.268859	0.92885341	5.2065215	
	
0.104673487907914	0.063288718	4.5367705	0.93419294	-0.35277045	0.23067958	5.4289437	0.23069354	-174.68878	
	0.93419294	-0.35277045	0.062412686	4.2763833	0.23003323	-174.66659	0.23052187	5.4146628	
	0.23067958	5.4289437	0.23003323	-174.66659	0.92509315	5.1263069	0.10956856	-49.701086	
	0.23069354	-174.68878	0.23052187	5.4146628	0.10956856	-49.701086	0.9243545	5.1696542	
	
0.107091510398389	0.062275688	2.8243402	0.93483974	-0.3161501	0.23105767	5.2789734	0.23097235	-174.7161	
	0.93483974	-0.3161501	0.062031127	4.4322768	0.23087545	-174.80132	0.23105879	5.3111757	
	0.23105767	5.2789734	0.23087545	-174.80132	0.92776114	5.0388314	0.10827384	-49.139771	
	0.23097235	-174.7161	0.23105879	5.3111757	0.10827384	-49.139771	0.92665946	5.0871053	
	
0.109565390708082	0.063116313	3.9482809	0.93535414	-0.3222658	0.23124924	5.1678456	0.23102733	-174.82415	
	0.93535414	-0.3222658	0.060193	5.2413302	0.2311378	-175.08015	0.23167177	5.0545634	
	0.23124924	5.1678456	0.2311378	-175.08015	0.92736643	4.8669149	0.10672133	-48.48928	
	0.23102733	-174.82415	0.23167177	5.0545634	0.10672133	-48.48928	0.9273396	4.8640382	
	
0.112096419187261	0.063412284	1.9040359	0.93435253	-0.29340973	0.23103512	5.0299998	0.23099601	-174.94081	
	0.93435253	-0.29340973	0.061504674	4.5327327	0.23044412	-175.13329	0.23093737	5.0006327	
	0.23103512	5.0299998	0.23044412	-175.13329	0.926717	4.7210823	0.10489573	-48.098634	
	0.23099601	-174.94081	0.23093737	5.0006327	0.10489573	-48.098634	0.92620108	4.8088368	
	
0.114685915994083	0.062298284	3.3782336	0.93575739	-0.31498131	0.23151322	4.8986974	0.23113943	-175.06082	
	0.93575739	-0.31498131	0.060078061	4.1449766	0.23165433	-175.16602	0.23202835	4.8722804	
	0.23151322	4.8986974	0.23165433	-175.16602	0.92910638	4.6477539	0.1035863	-47.659149	
	0.23113943	-175.06082	0.23202835	4.8722804	0.1035863	-47.659149	0.92859542	4.7420998	
	
0.117335231783182	0.063094464	2.4909534	0.93489835	-0.29717894	0.23149247	4.8452378	0.23136199	-175.17649	
	0.93489835	-0.29717894	0.060557435	4.5169243	0.23108907	-175.31962	0.23206578	4.7768281	
	0.23149247	4.8452378	0.23108907	-175.31962	0.92808092	4.5905385	0.10178606	-47.027866	
	0.23136199	-175.17649	0.23206578	4.7768281	0.10178606	-47.027866	0.9291303	4.5986478	
	
0.120045748410147	0.063438535	2.2065487	0.93589059	-0.2756213	0.23212398	4.8131591	0.2313572	-175.25834	
	0.93589059	-0.2756213	0.057464276	4.9705243	0.2314534	-175.30929	0.23206285	4.5668355	
	0.23212398	4.8131591	0.2314534	-175.30929	0.92931128	4.3882252	0.10056335	-46.473685	
	0.2313572	-175.25834	0.23206285	4.5668355	0.10056335	-46.473685	0.92988341	4.4404705	
	
0.122818879652292	0.062239612	2.3431822	0.93525558	-0.2883292	0.2315597	4.6916686	0.23089507	-175.36873	
	0.93525558	-0.2883292	0.060613351	4.1816571	0.23146666	-175.52515	0.2321144	4.4619502	
	0.2315597	4.6916686	0.23146666	-175.52515	0.92902126	4.3498608	0.098935939	-45.950082	
	0.23089507	-175.36873	0.2321144	4.4619502	0.098935939	-45.950082	0.92846907	4.3431199	
	
0.125656071946061	0.061938795	1.5786853	0.93580882	-0.2719374	0.23204222	4.5175819	0.23177523	-175.40347	
	0.93580882	-0.2719374	0.059737935	3.7934408	0.23171749	-175.67968	0.23212158	4.4629672	
	0.23204222	4.5175819	0.23171749	-175.67968	0.9285104	4.2113983	0.097788619	-45.451262	
	0.23177523	-175.40347	0.23212158	4.4629672	0.097788619	-45.451262	0.92885671	4.2479508	
	
0.128558805141477	0.06211193	1.2961738	0.93514995	-0.28402907	0.23194498	4.4377004	0.23111442	-175.6164	
	0.93514995	-0.28402907	0.060855488	4.2562814	0.23182807	-175.74474	0.23202259	4.4099026	
	0.23194498	4.4377004	0.23182807	-175.74474	0.92885305	4.1379764	0.096617937	-44.824373	
	0.23111442	-175.6164	0.23202259	4.4099026	0.096617937	-44.824373	0.92858016	4.2176783	
	
0.131528593274019	0.061945166	1.9818987	0.93565323	-0.28565915	0.23178288	4.3536906	0.23165969	-175.66553	
	0.93565323	-0.28565915	0.060216974	4.7510207	0.23193793	-175.88173	0.23230095	4.1790137	
	0.23178288	4.3536906	0.23193793	-175.88173	0.92943778	4.0683916	0.095278805	-44.098832	
	0.23165969	-175.66553	0.23230095	4.1790137	0.095278805	-44.098832	0.92943932	4.1092823	
	
0.134566985354323	0.062993633	2.3834869	0.93492367	-0.2413493	0.23135522	4.2677255	0.23122772	-175.84175	
	0.93492367	-0.2413493	0.060532084	5.4156375	0.23107812	-175.95526	0.2319966	4.2238676	
	0.23135522	4.2677255	0.23107812	-175.95526	0.92927732	3.995931	0.094162874	-43.48359	
	0.23122772	-175.84175	0.2319966	4.2238676	0.094162874	-43.48359	0.92869829	3.9698544	
	
0.13767556617613	0.063210265	1.9829501	0.93466161	-0.28968511	0.2315766	4.2490753	0.23120827	-175.92998	
	0.93466161	-0.28968511	0.060800963	4.8666935	0.23147196	-175.98176	0.23218619	4.02308	
	0.2315766	4.2490753	0.23147196	-175.98176	0.92910315	3.885033	0.093145928	-43.05506	
	0.23120827	-175.92998	0.23218619	4.02308	0.093145928	-43.05506	0.92896092	3.889972	
	
0.140855957142902	0.064182074	1.8930674	0.93421036	-0.24947508	0.23170567	4.1611979	0.23104904	-175.97329	
	0.93421036	-0.24947508	0.060921055	4.6753403	0.23107789	-176.21806	0.23164538	3.9366503	
	0.23170567	4.1611979	0.23107789	-176.21806	0.92668422	3.8313224	0.091583617	-42.443064	
	0.23104904	-175.97329	0.23164538	3.9366503	0.091583617	-42.443064	0.92760918	3.8060135	
	
0.144109817113524	0.06329174	1.44081	0.93454654	-0.23063887	0.2316755	4.0048354	0.23111991	-176.09233	
	0.93454654	-0.23063887	0.061082796	4.5499794	0.23116577	-176.26497	0.23155214	3.9138643	
	0.2316755	4.0048354	0.23116577	-176.26497	0.92817503	3.6657033	0.090626316	-42.064128	
	0.23111991	-176.09233	0.23155214	3.9138643	0.090626316	-42.064128	0.92795915	3.7228075	
	
0.147438843267552	0.061782865	2.7205416	0.93499449	-0.24432128	0.23253083	3.8569206	0.2312593	-176.27628	
	0.93499449	-0.24432128	0.061336028	3.8493939	0.23190302	-176.38843	0.23206096	3.7556735	
	0.23253083	3.8569206	0.23190302	-176.38843	0.92988714	3.5640043	0.089642709	-41.332099	
	0.2312593	-176.27628	0.23206096	3.7556735	0.089642709	-41.332099	0.93051998	3.6760822	
	
0.150844771990442	0.062188585	0.76969672	0.93508355	-0.19866358	0.23200932	3.8500463	0.23121982	-176.23667	
	0.93508355	-0.19866358	0.060694221	3.7205363	0.23167746	-176.35399	0.23213437	3.7007682	
	0.23200932	3.8500463	0.23167746	-176.35399	0.93014508	3.5451619	0.088845646	-40.709832	
	0.23121982	-176.23667	0.23213437	3.7007682	0.088845646	-40.709832	0.92935515	3.5606605	
	
0.154329379779229	0.062626387	2.5163417	0.93521084	-0.22417662	0.23182023	3.8007071	0.2313046	-176.44492	
	0.93521084	-0.22417662	0.060462978	5.6748209	0.23203918	-176.55135	0.23212392	3.5443041	
	0.23182023	3.8007071	0.23203918	-176.55135	0.9303222	3.4906405	0.087589185	-40.091948	
	0.2313046	-176.44492	0.23212392	3.5443041	0.087589185	-40.091948	0.92930274	3.4363059	
	
0.157894484169135	0.062805276	1.5874717	0.9356279	-0.19365644	0.23155997	3.6537059	0.23168875	-176.46235	
	0.9356279	-0.19365644	0.059257026	3.7522184	0.23165602	-176.56005	0.23239397	3.5454422	
	0.23155997	3.6537059	0.23165602	-176.56005	0.93047014	3.3381591	0.086999347	-39.510576	
	0.23168875	-176.46235	0.23239397	3.5454422	0.086999347	-39.510576	0.93028629	3.3687952	
	
0.16154194468157	0.064057147	1.6257577	0.93407242	-0.23535406	0.23173966	3.5745124	0.23094735	-176.49428	
	0.93407242	-0.23535406	0.06136033	1.9371506	0.23126068	-176.67888	0.23167349	3.4302711	
	0.23173966	3.5745124	0.23126068	-176.67888	0.92876285	3.2260997	0.086001886	-38.891073	
	0.23094735	-176.49428	0.23167349	3.4302711	0.086001886	-38.891073	0.9298441	3.3767254	
	
0.165273663794043	0.063298844	0.92500605	0.93437842	-0.21528439	0.23177213	3.4996734	0.23117313	-176.56472	
	0.93437842	-0.21528439	0.061432592	3.5710502	0.23156348	-176.82617	0.23165186	3.3332182	
	0.23177213	3.4996734	0.23156348	-176.82617	0.92926819	3.1833504	0.085227698	-38.325222	
	0.23117313	-176.56472	0.23165186	3.3332182	0.085227698	-38.325222	0.92892007	3.1786297	
	
0.169091587932473	0.062763177	0.68938438	0.93429676	-0.21498112	0.23169037	3.384122	0.23130382	-176.60548	
	0.93429676	-0.21498112	0.062044234	3.0777186	0.23162747	-176.82205	0.23206934	3.3096861	
	0.23169037	3.384122	0.23162747	-176.82205	0.92964093	3.1509896	0.084571844	-37.796078	
	0.23130382	-176.60548	0.23206934	3.3096861	0.084571844	-37.796078	0.92950025	3.1187944	
	
0.172997708486424	0.062211015	0.85445737	0.93491014	-0.19919392	0.23183912	3.3600812	0.23146033	-176.87844	
	0.93491014	-0.19919392	0.061497707	3.2944276	0.23183119	-176.93602	0.23206256	3.178886	
	0.23183912	3.3600812	0.23183119	-176.93602	0.93051424	2.9931334	0.083430886	-36.834519	
	0.23146033	-176.87844	0.23206256	3.178886	0.083430886	-36.834519	0.93052232	3.1431758	
	
0.176994062847797	0.06282231	1.8425942	0.9353217	-0.21357647	0.2317028	3.2734633	0.23131981	-176.85786	
	0.9353217	-0.21357647	0.060163319	3.4087257	0.2318076	-176.98626	0.23233525	3.1195987	
	0.2317028	3.2734633	0.2318076	-176.98626	0.93052877	2.9840091	0.08289803	-36.458214	
	0.23131981	-176.85786	0.23233525	3.1195987	0.08289803	-36.458214	0.92891528	3.0210182	
	
0.181082735473506	0.062698446	0.03725925	0.9344372	-0.20519523	0.23175049	3.2154535	0.23113693	-176.96639	
	0.9344372	-0.20519523	0.061432723	3.6109897	0.23135363	-177.16971	0.23167164	3.0287238	
	0.23175049	3.2154535	0.23135363	-177.16971	0.92977582	2.929436	0.081846536	-35.803568	
	0.23113693	-176.96639	0.23167164	3.0287238	0.081846536	-35.803568	0.92893127	2.9051902	
	
0.185265858972714	0.062663852	0.99305848	0.93496455	-0.19325257	0.23167788	3.1037272	0.23144104	-176.95485	
	0.93496455	-0.19325257	0.060775738	4.143273	0.23149456	-177.21322	0.23178281	2.8859931	
	0.23167788	3.1037272	0.23149456	-177.21322	0.92912241	2.8083616	0.08129457	-35.186465	
	0.23144104	-176.95485	0.23178281	2.8859931	0.08129457	-35.186465	0.92924303	2.8791643	
	
0.18954561521918	0.062962784	0.90027	0.93490039	-0.17077852	0.23215123	2.9505443	0.23173762	-177.04181	
	0.93490039	-0.17077852	0.060494709	4.1374494	0.23178171	-177.22365	0.23198558	2.8723994	
	0.23215123	2.9505443	0.23178171	-177.22365	0.92899324	2.7555989	0.080713523	-34.488241	
	0.23173762	-177.04181	0.23198558	2.8723994	0.080713523	-34.488241	0.9298488	2.756388	
	
0.193924236489297	0.06338542	2.2206993	0.93450446	-0.19981346	0.23190906	2.9865993	0.23095412	-177.1157	
	0.93450446	-0.19981346	0.061156151	2.5455406	0.23164233	-177.28248	0.23199588	2.8315509	
	0.23190906	2.9865993	0.23164233	-177.28248	0.9285632	2.7485461	0.080059991	-33.950799	
	0.23095412	-177.1157	0.23199588	2.8315509	0.080059991	-33.950799	0.92921494	2.6805279	
	
0.19840400662643	0.063373962	1.428603	0.93525915	-0.20475394	0.2319061	2.9708008	0.23148686	-177.12819	
	0.93525915	-0.20475394	0.059838093	2.9240788	0.23216063	-177.35453	0.23224257	2.8637125	
	0.2319061	2.9708008	0.23216063	-177.35453	0.93044934	2.5932582	0.079704323	-33.494169	
	0.23148686	-177.12819	0.23224257	2.8637125	0.079704323	-33.494169	0.92972619	2.6497889	
	
0.202987262232139	0.063289159	0.057531262	0.93400284	-0.1967396	0.23164093	2.7784346	0.23073146	-177.17969	
	0.93400284	-0.1967396	0.061632838	4.1989837	0.230865	-177.43487	0.23108479	2.6745916	
	0.23164093	2.7784346	0.230865	-177.43487	0.92797227	2.5371608	0.078968733	-33.03403	
	0.23073146	-177.17969	0.23108479	2.6745916	0.078968733	-33.03403	0.92882012	2.6001936	
	
0.207676393884933	0.062208015	1.0667624	0.93488125	-0.16670951	0.23208072	2.80173	0.23119391	-177.26515	
	0.93488125	-0.16670951	0.061153176	3.8799135	0.23150554	-177.47545	0.23198185	2.6986263	
	0.23208072	2.80173	0.23150554	-177.47545	0.93000425	2.4937965	0.078158441	-32.368961	
	0.23119391	-177.26515	0.23198185	2.6986263	0.078158441	-32.368961	0.92927236	2.5748013	
	
0.212473847387164	0.063857977	1.2888796	0.93449944	-0.17964346	0.23167985	2.6855555	0.23109053	-177.42953	
	0.93449944	-0.17964346	0.060584009	3.1905403	0.23142366	-177.4661	0.23200304	2.535518	
	0.23167985	2.6855555	0.23142366	-177.4661	0.92929665	2.4891379	0.077705816	-31.652805	
	0.23109053	-177.42953	0.23200304	2.535518	0.077705816	-31.652805	0.9289317	2.4731276	
	
0.217382125040737	0.064590573	0.65273047	0.93434933	-0.16953548	0.23184004	2.6515609	0.23117061	-177.54479	
	0.93434933	-0.16953548	0.060384161	1.5768658	0.23156386	-177.5469	0.23191427	2.5601226	
	0.23184004	2.6515609	0.23156386	-177.5469	0.92877612	2.4305634	0.076885728	-30.985104	
	0.23117061	-177.54479	0.23191427	2.5601226	0.076885728	-30.985104	0.92931354	2.463386	
	
0.222403786952283	0.063397263	1.5769156	0.93464784	-0.18834929	0.23186287	2.5713896	0.23163794	-177.44872	
	0.93464784	-0.18834929	0.060650358	4.9791561	0.23144947	-177.78589	0.23182973	2.4550518	
	0.23186287	2.5713896	0.23144947	-177.78589	0.92844108	2.3399285	0.076556668	-30.613056	
	0.23163794	-177.44872	0.23182973	2.4550518	0.076556668	-30.613056	0.92932685	2.3650163	
	
0.227541452368483	0.063384226	0.63635455	0.93417605	-0.15554447	0.23125757	2.5256692	0.23106295	-177.55675	
	0.93417605	-0.15554447	0.061726241	3.4096249	0.23135558	-177.78656	0.23187068	2.3561727	
	0.23125757	2.5256692	0.23135558	-177.78656	0.9285255	2.3254999	0.076109347	-30.153047	
	0.23106295	-177.55675	0.23187068	2.3561727	0.076109347	-30.153047	0.92853925	2.378458	
	
0.232797801042241	0.064066732	0.8656934	0.93433638	-0.17324484	0.23149783	2.3947242	0.23113703	-177.67919	
	0.93433638	-0.17324484	0.060847437	2.8453948	0.23129199	-177.75415	0.231959	2.2649086	
	0.23149783	2.3947242	0.23129199	-177.75415	0.92845653	2.242329	0.075430549	-29.500604	
	0.23113703	-177.67919	0.231959	2.2649086	0.075430549	-29.500604	0.92850045	2.2582482	
	
0.238175574630416	0.062627169	0.92024506	0.93452089	-0.1727274	0.23179837	2.3791731	0.23124807	-177.68194	
	0.93452089	-0.1727274	0.061006607	2.9023752	0.23127383	-177.79851	0.23232296	2.2367098	
	0.23179837	2.3791731	0.23127383	-177.79851	0.9299554	2.2557119	0.075315199	-28.919352	
	0.23124807	-177.68194	0.23232296	2.2367098	0.075315199	-28.919352	0.93083615	2.1984523	
	
0.24367757812384	0.063230736	0.72089999	0.93435497	-0.18304948	0.23170511	2.4121058	0.23123274	-177.74723	
	0.93435497	-0.18304948	0.061496689	3.5888851	0.23175859	-177.88359	0.23191786	2.1877368	
	0.23170511	2.4121058	0.23175859	-177.88359	0.92906425	2.128541	0.074934478	-28.364719	
	0.23123274	-177.74723	0.23191786	2.1877368	0.074934478	-28.364719	0.92944064	2.1641657	
	
0.249306681310373	0.062490361	-0.24559726	0.93573955	-0.1921933	0.23189179	2.3191703	0.23168672	-177.79399	
	0.93573955	-0.1921933	0.059360891	2.2107821	0.23161271	-177.92274	0.23206644	2.183196	
	0.23189179	2.3191703	0.23161271	-177.92274	0.93027847	2.0994258	0.074508321	-27.912958	
	0.23168672	-177.79399	0.23206644	2.183196	0.074508321	-27.912958	0.92984985	2.0908226	
	
0.255065820271756	0.062744151	-0.17151568	0.93487276	-0.17542963	0.23188867	2.3280936	0.23132881	-177.85878	
	0.93487276	-0.17542963	0.060622732	2.6732287	0.23140064	-177.99576	0.2320104	2.1679482	
	0.23188867	2.3280936	0.23140064	-177.99576	0.92903134	2.097671	0.073991612	-27.209684	
	0.23132881	-177.85878	0.2320104	2.1679482	0.073991612	-27.209684	0.92870741	2.0908226	
	
0.260957998915036	0.063944287	0.6187127	0.93424943	-0.14723582	0.231468	2.1977094	0.23123414	-177.93935	
	0.93424943	-0.14723582	0.061124218	2.3256573	0.23130188	-178.06566	0.23187669	2.0135269	
	0.231468	2.1977094	0.23130188	-178.06566	0.92859229	1.9922273	0.07352565	-26.9967	
	0.23123414	-177.93935	0.23187669	2.0135269	0.07352565	-26.9967	0.92845744	2.0144883	
	
0.266986290539378	0.062740284	0.85513178	0.93515591	-0.16322325	0.23191045	2.1837851	0.23150632	-177.95134	
	0.93515591	-0.16322325	0.060424619	3.0038803	0.23166625	-178.12488	0.23215297	2.1204691	
	0.23191045	2.1837851	0.23166625	-178.12488	0.92962296	1.9533063	0.07315094	-26.279048	
	0.23150632	-177.95134	0.23215297	2.1204691	0.07315094	-26.279048	0.93027933	1.9825962	
	
0.273153839439064	0.063353508	0.92850441	0.93485092	-0.18964045	0.23163463	2.2164217	0.23125001	-177.96133	
	0.93485092	-0.18964045	0.060586387	2.3511427	0.23153596	-178.0907	0.23203765	2.0487908	
	0.23163463	2.2164217	0.23153596	-178.0907	0.92872982	1.9421714	0.073068408	-25.815017	
	0.23125001	-177.96133	0.23203765	2.0487908	0.073068408	-25.815017	0.92941934	1.9519672	
	
0.279463862543524	0.06238134	-0.87972893	0.9348521	-0.17330547	0.23222763	2.1946349	0.23175497	-177.90898	
	0.9348521	-0.17330547	0.060736862	3.2294952	0.23151591	-178.21438	0.23145068	1.9034299	
	0.23222763	2.1946349	0.23151591	-178.21438	0.92946854	1.8401999	0.072415056	-25.329101	
	0.23175497	-177.90898	0.23145068	1.9034299	0.072415056	-25.329101	0.92868941	1.8842795	
	
0.285919651095252	0.062440721	1.2391314	0.93514243	-0.17794903	0.23183068	2.0037304	0.23172895	-178.15427	
	0.93514243	-0.17794903	0.061055152	2.2411093	0.23169666	-178.27064	0.23211474	1.9011806	
	0.23183068	2.0037304	0.23169666	-178.27064	0.92939606	1.8140877	0.072399202	-24.919854	
	0.23172895	-178.15427	0.23211474	1.9011806	0.072399202	-24.919854	0.92978988	1.8190442	
	
0.292524572366485	0.062645394	-0.0016211508	0.93506023	-0.18179561	0.23173434	2.0978675	0.23158495	-178.12639	
	0.93506023	-0.18179561	0.059505571	5.2346629	0.23185388	-178.4531	0.23217849	1.8219087	
	0.23173434	2.0978675	0.23185388	-178.4531	0.9290082	1.7679159	0.071861843	-24.337257	
	0.23158495	-178.12639	0.23217849	1.8219087	0.071861843	-24.337257	0.92940308	1.746581	
	
0.299282071415539	0.063847404	1.3030487	0.93422752	-0.17876022	0.23167596	1.9179195	0.23112729	-178.19431	
	0.93422752	-0.17876022	0.060811392	5.5015444	0.23166843	-178.46953	0.23180124	1.698369	
	0.23167596	1.9179195	0.23166843	-178.46953	0.92911788	1.6906285	0.071816016	-23.59324	
	0.23112729	-178.19431	0.23180124	1.698369	0.071816016	-23.59324	0.92951238	1.7525874	
	
0.30619567288371	0.062962123	0.71193286	0.93458908	-0.17284139	0.23180425	1.9266678	0.23124307	-178.1876	
	0.93458908	-0.17284139	0.061283816	3.6733145	0.23132971	-178.36641	0.23137973	1.7271503	
	0.23180425	1.9266678	0.23132971	-178.36641	0.92921422	1.6851325	0.071363356	-23.687123	
	0.23124307	-178.1876	0.23137973	1.7271503	0.071363356	-23.687123	0.92916779	1.626912	
	
0.313268982833699	0.063046446	0.038207161	0.93448444	-0.15789637	0.23182909	1.8954942	0.2313036	-178.28166	
	0.93448444	-0.15789637	0.060702963	3.7728385	0.23140804	-178.48073	0.23210914	1.6916211	
	0.23182909	1.8954942	0.23140804	-178.48073	0.92986363	1.6376922	0.071190977	-22.773396	
	0.2313036	-178.28166	0.23210914	1.6916211	0.071190977	-22.773396	0.9296713	1.6485842	
	
0.320505690630487	0.062176398	-0.68874866	0.93512021	-0.11576426	0.23165833	1.8655962	0.23130185	-178.23382	
	0.93512021	-0.11576426	0.060424762	2.8813251	0.23143606	-178.36559	0.23209892	1.6846764	
	0.23165833	1.8655962	0.23143606	-178.36559	0.92899979	1.623289	0.071051226	-22.298269	
	0.23130185	-178.23382	0.23209892	1.6846764	0.071051226	-22.298269	0.92939058	1.5598826	
	
0.327909570865677	0.060852876	-2.4988918	0.93570248	-0.12460226	0.23244268	1.9404469	0.23163397	-178.25535	
	0.93570248	-0.12460226	0.059957146	1.2684445	0.23180088	-178.42021	0.23231068	1.6352796	
	0.23244268	1.9404469	0.23180088	-178.42021	0.93142609	1.569101	0.07064901	-22.159822	
	0.23163397	-178.25535	0.23231068	1.6352796	0.07064901	-22.159822	0.92998407	1.5840081	
	
0.335484485326279	0.061819653	-0.516128	0.93567221	-0.12905791	0.23231022	1.8147433	0.23146603	-178.3014	
