# MHz S MA R 50

0.1	0.25591242	41.570043	0.82241528	-11.979969	0.25533011	42.474421	0.25480728	-137.70797	
	0.82241528	-11.979969	0.25821905	42.764265	0.25634245	-138.16244	0.25721003	41.721362	
	0.25533011	42.474421	0.25634245	-138.16244	0.25413233	41.549094	0.82305471	-12.057798	
	0.25480728	-137.70797	0.25721003	41.721362	0.82305471	-12.057798	0.25864854	42.524415	
	
0.102310062021247	0.25725027	41.066102	0.81975217	-12.171988	0.25899354	42.271891	0.25860884	-137.86492	
	0.81975217	-12.171988	0.25964404	41.743627	0.25943554	-138.24269	0.26027179	41.673486	
	0.25899354	42.271891	0.25943554	-138.24269	0.25902811	40.85476	0.81973614	-12.219091	
	0.25860884	-137.86492	0.26027179	41.673486	0.81973614	-12.219091	0.25980314	41.873488	
	
0.104673487907914	0.26306424	40.634908	0.81677275	-12.185037	0.26082803	41.318999	0.26001591	-138.61153	
	0.81677275	-12.185037	0.2615972	41.048972	0.26000308	-138.65549	0.26037141	41.511372	
	0.26082803	41.318999	0.26000308	-138.65549	0.26394922	41.040415	0.81545301	-12.132117	
	0.26001591	-138.61153	0.26037141	41.511372	0.81545301	-12.132117	0.26120491	40.767564	
	
0.107091510398389	0.26317604	40.167131	0.81367726	-12.228342	0.26378958	40.928397	0.26290798	-139.10759	
	0.81367726	-12.228342	0.26549079	40.497626	0.26329409	-139.03452	0.26330298	40.941052	
	0.26378958	40.928397	0.26329409	-139.03452	0.26542853	40.50255	0.81283423	-12.187384	
	0.26290798	-139.10759	0.26330298	40.941052	0.81283423	-12.187384	0.26501623	40.653651	
	
0.109565390708082	0.26674806	39.580521	0.81017601	-12.266592	0.26618766	40.314019	0.26564674	-139.66731	
	0.81017601	-12.266592	0.26773781	40.237592	0.26622546	-139.91783	0.26679703	40.258552	
	0.26618766	40.314019	0.26622546	-139.91783	0.26696845	40.052278	0.80951293	-12.257365	
	0.26564674	-139.66731	0.26679703	40.258552	0.80951293	-12.257365	0.2672112	39.865102	
	
0.112096419187261	0.26897768	38.933635	0.80646184	-12.305385	0.26869919	39.769551	0.26812854	-140.16812	
	0.80646184	-12.305385	0.26950915	39.403224	0.26872401	-140.28384	0.26857767	39.656754	
	0.26869919	39.769551	0.26872401	-140.28384	0.26937183	39.286138	0.80623383	-12.323484	
	0.26812854	-140.16812	0.26857767	39.656754	0.80623383	-12.323484	0.26966655	39.378961	
	
0.114685915994083	0.27268789	38.621907	0.80306929	-12.359872	0.27133362	39.279081	0.27074758	-140.71743	
	0.80306929	-12.359872	0.27214328	39.211667	0.27135714	-140.68433	0.27208864	39.179527	
	0.27133362	39.279081	0.27135714	-140.68433	0.27293291	38.876197	0.8025588	-12.31762	
	0.27074758	-140.71743	0.27208864	39.179527	0.8025588	-12.31762	0.27225931	39.142499	
	
0.117335231783182	0.27459135	38.083732	0.79996521	-12.395864	0.27395322	38.868875	0.27380223	-141.13838	
	0.79996521	-12.395864	0.27436776	38.670616	0.27376045	-141.16676	0.27466417	38.731024	
	0.27395322	38.868875	0.27376045	-141.16676	0.27413776	38.229909	0.79953823	-12.369953	
	0.27380223	-141.13838	0.27466417	38.731024	0.79953823	-12.369953	0.27449698	38.580767	
	
0.120045748410147	0.27708412	37.527426	0.7960981	-12.410852	0.27620343	38.396283	0.27533633	-141.64701	
	0.7960981	-12.410852	0.27663504	38.413461	0.27603061	-141.7	0.27682936	38.083904	
	0.27620343	38.396283	0.27603061	-141.7	0.27764017	37.748594	0.79554841	-12.373983	
	0.27533633	-141.64701	0.27682936	38.083904	0.79554841	-12.373983	0.27744281	37.970508	
	
0.122818879652292	0.27860417	37.279639	0.79291033	-12.411731	0.27910657	37.83496	0.27859799	-142.22611	
	0.79291033	-12.411731	0.27970365	37.628303	0.27845943	-142.27601	0.27881761	37.657765	
	0.27910657	37.83496	0.27845943	-142.27601	0.2808738	37.24032	0.79268601	-12.395613	
	0.27859799	-142.22611	0.27881761	37.657765	0.79268601	-12.395613	0.27964408	37.676291	
	
0.125656071946061	0.28165455	36.653833	0.78970574	-12.425197	0.28127846	37.28812	0.28148378	-142.65549	
	0.78970574	-12.425197	0.28149018	37.238984	0.28161371	-142.76693	0.28200967	37.240403	
	0.28127846	37.28812	0.28161371	-142.76693	0.28242168	36.740738	0.78965256	-12.417347	
	0.28148378	-142.65549	0.28200967	37.240403	0.78965256	-12.417347	0.28161568	37.041915	
	
0.128558805141477	0.28303945	36.042733	0.78548325	-12.500546	0.28398843	36.79333	0.282946	-143.19915	
	0.78548325	-12.500546	0.28444592	36.543059	0.28326746	-143.37053	0.28398319	36.53711	
	0.28398843	36.79333	0.28326746	-143.37053	0.28461417	36.124667	0.78519997	-12.42916	
	0.282946	-143.19915	0.28398319	36.53711	0.78519997	-12.42916	0.28468557	36.382884	
	
0.131528593274019	0.28677737	35.777285	0.78248638	-12.485046	0.28636208	36.369822	0.28625467	-143.69741	
	0.78248638	-12.485046	0.28811425	36.266442	0.28628932	-143.79211	0.28702334	36.183822	
	0.28636208	36.369822	0.28628932	-143.79211	0.28849999	35.828375	0.78234285	-12.462683	
	0.28625467	-143.69741	0.28702334	36.183822	0.78234285	-12.462683	0.28641102	36.103053	
	
0.134566985354323	0.28935707	35.103667	0.77927408	-12.453273	0.28815267	35.742466	0.28780906	-144.285	
	0.77927408	-12.453273	0.28967624	35.948232	0.28767578	-144.3841	0.28829142	35.731356	
	0.28815267	35.742466	0.28767578	-144.3841	0.29037924	35.493005	0.7782685	-12.454236	
	0.28780906	-144.285	0.28829142	35.731356	0.7782685	-12.454236	0.2900162	35.513524	
	
0.13767556617613	0.29143043	34.6319	0.77512829	-12.513498	0.29019064	35.428102	0.28959476	-144.58859	
	0.77512829	-12.513498	0.29231359	35.20216	0.29010122	-144.80649	0.29062612	35.21157	
	0.29019064	35.428102	0.29010122	-144.80649	0.29215709	34.73378	0.77511271	-12.459175	
	0.28959476	-144.58859	0.29062612	35.21157	0.77511271	-12.459175	0.2911442	34.712704	
	
0.140855957142902	0.29372508	33.984486	0.77204137	-12.496143	0.29240217	34.854211	0.29219374	-145.12816	
	0.77204137	-12.496143	0.29388903	34.531389	0.29209301	-145.36513	0.29355753	34.654121	
	0.29240217	34.854211	0.29209301	-145.36513	0.29314959	34.373034	0.77071602	-12.48979	
	0.29219374	-145.12816	0.29355753	34.654121	0.77071602	-12.48979	0.29188513	34.825999	
	
0.144109817113524	0.2961399	33.681517	0.76886418	-12.442762	0.29478791	34.442392	0.29413715	-145.60486	
	0.76886418	-12.442762	0.29622584	34.184909	0.29456258	-145.75985	0.295355	34.214862	
	0.29478791	34.442392	0.29456258	-145.75985	0.29622262	33.920868	0.7680392	-12.484676	
	0.29413715	-145.60486	0.295355	34.214862	0.7680392	-12.484676	0.29556637	33.981916	
	
0.147438843267552	0.29865149	33.485148	0.76559178	-12.459924	0.29775506	33.84191	0.29743665	-146.24766	
	0.76559178	-12.459924	0.29949067	33.594271	0.29745312	-146.34551	0.29785832	33.687077	
	0.29775506	33.84191	0.29745312	-146.34551	0.29820475	33.720467	0.7653543	-12.455456	
	0.29743665	-146.24766	0.29785832	33.687077	0.7653543	-12.455456	0.29807584	33.721491	
	
0.150844771990442	0.29950288	32.764481	0.76239467	-12.448664	0.29953848	33.421679	0.2987457	-146.63142	
	0.76239467	-12.448664	0.29972046	33.128845	0.29921051	-146.72785	0.30015978	33.216551	
	0.29953848	33.421679	0.29921051	-146.72785	0.30048314	33.01224	0.76204908	-12.406137	
	0.2987457	-146.63142	0.30015978	33.216551	0.76204908	-12.406137	0.30109784	33.102787	
	
0.154329379779229	0.30278336	32.437731	0.75883744	-12.360928	0.30199218	32.906182	0.30059131	-147.21272	
	0.75883744	-12.360928	0.30195056	32.687489	0.30181248	-147.30163	0.30243836	32.705184	
	0.30199218	32.906182	0.30181248	-147.30163	0.30240435	32.340886	0.75867904	-12.398234	
	0.30059131	-147.21272	0.30243836	32.705184	0.75867904	-12.398234	0.30295097	32.676505	
	
0.157894484169135	0.30426219	31.857078	0.75602183	-12.388604	0.30390606	32.415401	0.3036287	-147.63808	
	0.75602183	-12.388604	0.30441417	32.223234	0.30358666	-147.73255	0.30461853	32.246861	
	0.30390606	32.415401	0.30358666	-147.73255	0.30553849	32.040842	0.75546607	-12.406763	
	0.3036287	-147.63808	0.30461853	32.246861	0.75546607	-12.406763	0.30385152	32.127651	
	
0.16154194468157	0.30679139	31.247621	0.75301083	-12.384977	0.30586499	32.04486	0.30511053	-148.09895	
	0.75301083	-12.384977	0.30573104	31.67173	0.30577768	-148.12906	0.30638894	31.830085	
	0.30586499	32.04486	0.30577768	-148.12906	0.30651163	31.4876	0.75200377	-12.362543	
	0.30511053	-148.09895	0.30638894	31.830085	0.75200377	-12.362543	0.30698467	31.755938	
	
0.165273663794043	0.30845926	30.771397	0.74907522	-12.359021	0.30744593	31.510084	0.30678574	-148.52164	
	0.74907522	-12.359021	0.3088883	31.250643	0.30715646	-148.60993	0.3076137	31.34006	
	0.30744593	31.510084	0.30715646	-148.60993	0.30887766	30.98852	0.74858599	-12.346862	
	0.30678574	-148.52164	0.3076137	31.34006	0.74858599	-12.346862	0.30818481	31.152774	
	
0.169091587932473	0.3103647	30.339847	0.74627458	-12.348443	0.30959972	30.988333	0.30921554	-148.93633	
	0.74627458	-12.348443	0.31080123	30.693249	0.30933143	-149.03142	0.31006005	30.993968	
	0.30959972	30.988333	0.30933143	-149.03142	0.31042745	30.575753	0.74592502	-12.32281	
	0.30921554	-148.93633	0.31006005	30.993968	0.74592502	-12.32281	0.31035351	30.736841	
	
0.172997708486424	0.31191068	29.944904	0.74300918	-12.292288	0.31187458	30.587056	0.31161309	-149.51473	
	0.74300918	-12.292288	0.3133184	30.302858	0.3113246	-149.5138	0.31154152	30.491049	
	0.31187458	30.587056	0.3113246	-149.5138	0.31333786	30.024374	0.74316939	-12.231218	
	0.31161309	-149.51473	0.31154152	30.491049	0.74316939	-12.231218	0.31272985	30.502466	
	
0.176994062847797	0.31458702	29.64554	0.74016506	-12.26271	0.31321343	30.123474	0.31285909	-149.90553	
	0.74016506	-12.26271	0.31426368	29.951763	0.31297815	-150.09374	0.31397116	29.948233	
	0.31321343	30.123474	0.31297815	-150.09374	0.3157235	29.757399	0.73965772	-12.205956	
	0.31285909	-149.90553	0.31397116	29.948233	0.73965772	-12.205956	0.31391437	29.735073	
	
0.181082735473506	0.31615632	28.943797	0.73664696	-12.226307	0.31533778	29.622824	0.31507866	-150.24385	
	0.73664696	-12.226307	0.31660663	29.382526	0.31461397	-150.51224	0.31537855	29.581753	
	0.31533778	29.622824	0.31461397	-150.51224	0.31644802	29.355306	0.73640898	-12.204631	
	0.31507866	-150.24385	0.31537855	29.581753	0.73640898	-12.204631	0.31577049	29.120361	
	
0.185265858972714	0.31808192	28.766934	0.73388181	-12.117482	0.31736036	29.193448	0.31675325	-150.78537	
	0.73388181	-12.117482	0.3188941	29.160072	0.31669646	-150.95638	0.31739509	29.103127	
	0.31736036	29.193448	0.31669646	-150.95638	0.31889338	28.896403	0.73363512	-12.139836	
	0.31675325	-150.78537	0.31739509	29.103127	0.73363512	-12.139836	0.31790752	28.796484	
	
0.18954561521918	0.32021625	28.392616	0.7306212	-12.097928	0.31858724	28.719133	0.31791015	-151.19048	
	0.7306212	-12.097928	0.31992164	28.789765	0.31822131	-151.43177	0.31932403	28.656098	
	0.31858724	28.719133	0.31822131	-151.43177	0.3215593	28.284854	0.73030679	-12.037198	
	0.31791015	-151.19048	0.31932403	28.656098	0.73030679	-12.037198	0.31994501	28.505125	
	
0.193924236489297	0.322566	27.800854	0.72822807	-12.04769	0.32054136	28.344955	0.31999485	-151.69684	
	0.72822807	-12.04769	0.32155494	28.219889	0.32024574	-151.79123	0.32107791	28.271801	
	0.32054136	28.344955	0.32024574	-151.79123	0.32239626	27.981391	0.72774864	-12.000961	
	0.31999485	-151.69684	0.32107791	28.271801	0.72774864	-12.000961	0.32211734	28.135289	
	
0.19840400662643	0.32409857	27.337525	0.72583668	-12.025126	0.32286113	27.922452	0.32204509	-152.14858	
	0.72583668	-12.025126	0.32295316	27.834857	0.32270206	-152.18267	0.32317895	27.849353	
	0.32286113	27.922452	0.32270206	-152.18267	0.32335218	27.577284	0.7251398	-11.968122	
	0.32204509	-152.14858	0.32317895	27.849353	0.7251398	-11.968122	0.32378758	27.661598	
	
0.202987262232139	0.32476214	26.908467	0.72239809	-11.940227	0.32408085	27.483852	0.32346014	-152.37381	
	0.72239809	-11.940227	0.32566327	27.247136	0.32337019	-152.62284	0.32387444	27.389367	
	0.32408085	27.483852	0.32337019	-152.62284	0.32552663	27.109951	0.72181692	-11.905157	
	0.32346014	-152.37381	0.32387444	27.389367	0.72181692	-11.905157	0.32451029	27.195588	
	
0.207676393884933	0.3273987	26.646536	0.71979765	-11.850495	0.32614029	27.123444	0.32506397	-152.94526	
	0.71979765	-11.850495	0.3268868	26.879282	0.32553431	-153.09475	0.32610819	26.980632	
	0.32614029	27.123444	0.32553431	-153.09475	0.32772884	26.762979	0.71904954	-11.864319	
	0.32506397	-152.94526	0.32610819	26.980632	0.71904954	-11.864319	0.3266378	26.766475	
	
0.212473847387164	0.32916851	26.152109	0.7169014	-11.831223	0.32753825	26.692214	0.32688113	-153.35277	
	0.7169014	-11.831223	0.32896893	26.535243	0.3275885	-153.41021	0.327854	26.574498	
	0.32753825	26.692214	0.3275885	-153.41021	0.32894252	26.376861	0.71685352	-11.800184	
	0.32688113	-153.35277	0.327854	26.574498	0.71685352	-11.800184	0.32850968	26.476571	
	
0.217382125040737	0.33121255	25.766934	0.71398429	-11.750404	0.32896071	26.201011	0.32810128	-153.75005	
	0.71398429	-11.750404	0.3296611	26.035641	0.32865825	-153.89266	0.32953303	26.192848	
	0.32896071	26.201011	0.32865825	-153.89266	0.33152845	25.993765	0.7133725	-11.685529	
	0.32810128	-153.75005	0.32953303	26.192848	0.7133725	-11.685529	0.32984394	25.931534	
	
0.222403786952283	0.33184076	25.441726	0.71141014	-11.675291	0.33066427	25.822067	0.33020009	-154.13922	
	0.71141014	-11.675291	0.33225636	25.921394	0.33034755	-154.38335	0.33122334	25.757873	
	0.33066427	25.822067	0.33034755	-154.38335	0.33280309	25.511524	0.71120896	-11.685046	
	0.33020009	-154.13922	0.33122334	25.757873	0.71120896	-11.685046	0.33162017	25.542086	
	
0.227541452368483	0.33377275	25.009883	0.70879584	-11.597489	0.33196259	25.508658	0.33170648	-154.514	
	0.70879584	-11.597489	0.33372765	25.413647	0.33163084	-154.58381	0.33234284	25.320414	
	0.33196259	25.508658	0.33163084	-154.58381	0.33373621	25.186347	0.70892129	-11.546862	
	0.33170648	-154.514	0.33234284	25.320414	0.70892129	-11.546862	0.333713	25.298274	
	
0.232797801042241	0.33570673	24.580742	0.70680617	-11.526936	0.33336977	25.044408	0.33337985	-154.94227	
	0.70680617	-11.526936	0.33415951	24.996991	0.33315017	-155.05116	0.33413169	24.982746	
	0.33336977	25.044408	0.33315017	-155.05116	0.3350341	24.816342	0.70602252	-11.530531	
	0.33337985	-154.94227	0.33413169	24.982746	0.70602252	-11.530531	0.33376224	24.895455	
	
0.238175574630416	0.33625403	24.226841	0.7036961	-11.510855	0.33483664	24.705273	0.33467095	-155.24679	
	0.7036961	-11.510855	0.33642212	24.647391	0.3348113	-155.39236	0.33584679	24.621904	
	0.33483664	24.705273	0.3348113	-155.39236	0.33800938	24.413573	0.70373633	-11.433755	
	0.33467095	-155.24679	0.33584679	24.621904	0.70373633	-11.433755	0.33595849	24.51643	
	
0.24367757812384	0.33836167	23.871359	0.7014502	-11.387776	0.336892	24.363022	0.33556821	-155.61016	
	0.7014502	-11.387776	0.33769938	24.307728	0.33636355	-155.82907	0.33678411	24.171871	
	0.336892	24.363022	0.33636355	-155.82907	0.337805	24.11386	0.70105872	-11.344809	
	0.33556821	-155.61016	0.33678411	24.171871	0.70105872	-11.344809	0.33779159	24.269015	
	
0.249306681310373	0.33944867	23.479931	0.69973525	-11.352912	0.33862502	23.961459	0.33803429	-155.98901	
	0.69973525	-11.352912	0.33869791	23.910032	0.33855023	-156.13909	0.33869774	23.872049	
	0.33862502	23.961459	0.33855023	-156.13909	0.33928819	23.728027	0.69924656	-11.306728	
	0.33803429	-155.98901	0.33869774	23.872049	0.69924656	-11.306728	0.3382461	23.691801	
	
0.255065820271756	0.34080928	23.092768	0.69701402	-11.279427	0.33980212	23.639512	0.33901324	-156.3847	
	0.69701402	-11.279427	0.34022981	23.409699	0.339646	-156.56528	0.33982154	23.481949	
	0.33980212	23.639512	0.339646	-156.56528	0.34150044	23.313318	0.69645156	-11.206565	
	0.33901324	-156.3847	0.33982154	23.481949	0.69645156	-11.206565	0.34048248	23.38715	
	
0.260957998915036	0.34280587	22.802888	0.69445499	-11.156519	0.34011403	23.252092	0.33991154	-156.81784	
	0.69445499	-11.156519	0.34219218	23.041661	0.34041431	-156.85678	0.340838	23.158852	
	0.34011403	23.252092	0.34041431	-156.85678	0.34198263	22.862	0.69369318	-11.118765	
	0.33991154	-156.81784	0.340838	23.158852	0.69369318	-11.118765	0.34147693	22.935788	
	
0.266986290539378	0.34420152	22.477757	0.69242785	-11.082273	0.34252553	22.877774	0.34172781	-157.15082	
	0.69242785	-11.082273	0.34280232	22.828658	0.3419323	-157.22796	0.34285689	22.76557	
	0.34252553	22.877774	0.3419323	-157.22796	0.3438237	22.718892	0.69145438	-11.04854	
	0.34172781	-157.15082	0.34285689	22.76557	0.69145438	-11.04854	0.34270684	22.841031	
	
0.273153839439064	0.34516233	22.202888	0.69040013	-10.998479	0.34399373	22.534548	0.34304967	-157.4496	
	0.69040013	-10.998479	0.34403663	22.497695	0.34336267	-157.55382	0.34394798	22.468041	
	0.34399373	22.534548	0.34336267	-157.55382	0.34436875	22.266677	0.6897894	-10.966109	
	0.34304967	-157.4496	0.34394798	22.468041	0.6897894	-10.966109	0.34426579	22.385612	
	
0.279463862543524	0.34556011	21.760619	0.68817584	-10.948872	0.34528917	22.303117	0.34465696	-157.75023	
	0.68817584	-10.948872	0.34621997	22.150874	0.34481543	-157.88332	0.34510051	22.095624	
	0.34528917	22.303117	0.34481543	-157.88332	0.34697182	21.829187	0.68730514	-10.934532	
	0.34465696	-157.75023	0.34510051	22.095624	0.68730514	-10.934532	0.34531093	21.933212	
	
0.285919651095252	0.34736905	21.620522	0.68630768	-10.83016	0.34615022	21.842741	0.34576409	-158.16976	
	0.68630768	-10.83016	0.34701316	21.795661	0.34583606	-158.21276	0.34602452	21.760213	
	0.34615022	21.842741	0.34583606	-158.21276	0.34713309	21.61283	0.68573237	-10.820007	
	0.34576409	-158.16976	0.34602452	21.760213	0.68573237	-10.820007	0.34660006	21.78015	
	
0.292524572366485	0.34872057	21.21997	0.68375669	-10.784475	0.34749616	21.571716	0.34701954	-158.54308	
	0.68375669	-10.784475	0.34853678	21.725588	0.34735355	-158.70862	0.34785571	21.365532	
	0.34749616	21.571716	0.34735355	-158.70862	0.34971288	21.512366	0.68347128	-10.728213	
	0.34701954	-158.54308	0.34785571	21.365532	0.68347128	-10.728213	0.34828359	21.298567	
	
0.299282071415539	0.3502982	20.908401	0.68135476	-10.670758	0.34815116	21.220883	0.34778758	-158.84418	
	0.68135476	-10.670758	0.35028127	21.317466	0.34782899	-159.03055	0.34841945	20.972581	
	0.34815116	21.220883	0.34782899	-159.03055	0.35077123	21.038878	0.68120008	-10.62013	
	0.34778758	-158.84418	0.34841945	20.972581	0.68120008	-10.62013	0.34975517	21.199087	
	
0.30619567288371	0.35117511	20.656032	0.67978015	-10.592087	0.3497081	20.854696	0.34854354	-159.15402	
	0.67978015	-10.592087	0.35144735	21.005298	0.34904824	-159.21909	0.34920429	20.782951	
	0.3497081	20.854696	0.34904824	-159.21909	0.35122265	20.724741	0.67864744	-10.534187	
	0.34854354	-159.15402	0.34920429	20.782951	0.67864744	-10.534187	0.35057183	20.678963	
	
0.313268982833699	0.35251723	20.213915	0.67718896	-10.489481	0.35130288	20.68038	0.35016526	-159.40783	
	0.67718896	-10.489481	0.35242599	20.664356	0.35052934	-159.50376	0.35140248	20.473706	
	0.35130288	20.68038	0.35052934	-159.50376	0.35254771	20.395717	0.6767257	-10.404572	
	0.35016526	-159.40783	0.35140248	20.473706	0.6767257	-10.404572	0.35137117	20.421191	
	
0.320505690630487	0.35308672	19.92489	0.67562377	-10.395188	0.35184912	20.385303	0.35180006	-159.59818	
	0.67562377	-10.395188	0.35303804	20.241757	0.35197907	-159.72927	0.3532726	20.224528	
	0.35184912	20.385303	0.35197907	-159.72927	0.35377261	19.978936	0.67534162	-10.33807	
	0.35180006	-159.59818	0.3532726	20.224528	0.67534162	-10.33807	0.35257286	20.10331	
	
0.327909570865677	0.35348986	19.452118	0.67344872	-10.360858	0.35404968	20.1511	0.35329926	-159.8425	
	0.67344872	-10.360858	0.35358848	19.746983	0.35322738	-159.98789	0.35431084	19.983456	
	0.35404968	20.1511	0.35322738	-159.98789	0.35535984	19.640881	0.67323865	-10.240994	
	0.35329926	-159.8425	0.35431084	19.983456	0.67323865	-10.240994	0.35361506	19.765842	
	
0.335484485326279	0.35547832	19.381389	0.67195154	-10.241888	0.35502472	19.827027	0.35432451	-160.2003	
	0.67195154	-10.241888	0.35504328	19.545777	0.35434136	-160.23801	0.35515333	19.765854	
	0.35502472	19.827027	0.35434136	-160.23801	0.35537962	19.293705	0.67142252	-10.210403	
	0.35432451	-160.2003	0.35515333	19.765854	0.67142252	-10.210403	0.35541048	19.309439	
	
0.343234385008977	0.35628945	19.054355	0.6702478	-10.195707	0.35648919	19.470213	0.35546403	-160.52296	
