# MHz S MA R 50

0.1	0.27827068	28.402448	0.76289471	-10.07329	0.388565	28.589365	0.38738324	-151.49242	
	0.76289471	-10.07329	0.27869963	29.500346	0.38937307	-151.93572	0.39019707	27.991184	
	0.388565	28.589365	0.38937307	-151.93572	0.54467448	27.583585	0.57285944	-26.505036	
	0.38738324	-151.49242	0.39019707	27.991184	0.57285944	-26.505036	0.54717542	27.7544	
	
0.102310062021247	0.28019141	27.705524	0.75943602	-10.074608	0.39198581	28.264762	0.39133694	-151.81992	
	0.75943602	-10.074608	0.28033751	28.487101	0.39234238	-152.12091	0.39325468	27.777722	
	0.39198581	28.264762	0.39234238	-152.12091	0.55061357	27.112027	0.56658022	-26.642934	
	0.39133694	-151.81992	0.39325468	27.777722	0.56658022	-26.642934	0.55127807	27.259865	
	
0.104673487907914	0.28362671	27.510292	0.7573805	-10.019776	0.39294188	27.498524	0.39233402	-152.44612	
	0.7573805	-10.019776	0.2827703	27.699606	0.39234564	-152.49145	0.39294356	27.651563	
	0.39294188	27.498524	0.39234564	-152.49145	0.55279783	26.921735	0.56103892	-26.408002	
	0.39233402	-152.44612	0.39294356	27.651563	0.56103892	-26.408002	0.55183967	26.870574	
	
0.107091510398389	0.28380413	26.857146	0.75427489	-9.9584915	0.39527923	27.060935	0.39459279	-152.89747	
	0.75427489	-9.9584915	0.28464482	27.163736	0.39430366	-152.91269	0.39518624	27.074741	
	0.39527923	27.060935	0.39430366	-152.91269	0.55549727	26.372602	0.5565539	-26.373574	
	0.39459279	-152.89747	0.39518624	27.074741	0.5565539	-26.373574	0.55508394	26.460137	
	
0.109565390708082	0.28662924	26.393467	0.75229847	-9.8572073	0.39720175	26.51303	0.39655885	-153.43618	
	0.75229847	-9.8572073	0.28462956	26.973497	0.39716433	-153.67238	0.3978286	26.479653	
	0.39720175	26.51303	0.39716433	-153.67238	0.55759381	25.886832	0.5510109	-26.259486	
	0.39655885	-153.43618	0.3978286	26.479653	0.5510109	-26.259486	0.55776073	25.786811	
	
0.112096419187261	0.28668359	25.746096	0.74972484	-9.7618077	0.39870991	26.030924	0.39814468	-153.89748	
	0.74972484	-9.7618077	0.28671826	26.155941	0.39844324	-154.03809	0.39898849	25.997709	
	0.39870991	26.030924	0.39844324	-154.03809	0.55976759	25.428172	0.54578923	-26.226913	
	0.39814468	-153.89748	0.39898849	25.997709	0.54578923	-26.226913	0.55871303	25.509989	
	
0.114685915994083	0.288683	25.51324	0.74703987	-9.639396	0.40096955	25.563615	0.40004763	-154.50563	
	0.74703987	-9.639396	0.28795517	25.888083	0.4010658	-154.49501	0.40201175	25.512218	
	0.40096955	25.563615	0.4010658	-154.49501	0.56304939	24.983266	0.54068672	-26.081265	
	0.40004763	-154.50563	0.40201175	25.512218	0.54068672	-26.081265	0.56303321	25.040742	
	
0.117335231783182	0.28981626	24.900208	0.74458804	-9.5802395	0.40310203	25.143114	0.4028257	-154.92061	
	0.74458804	-9.5802395	0.28918289	25.462885	0.4024349	-154.97567	0.40386116	25.005865	
	0.40310203	25.143114	0.4024349	-154.97567	0.56536285	24.428671	0.53531075	-26.050971	
	0.4028257	-154.92061	0.40386116	25.005865	0.53531075	-26.050971	0.56531892	24.468429	
	
0.120045748410147	0.29155805	24.335679	0.74211625	-9.5078404	0.40498361	24.757171	0.403665	-155.35103	
	0.74211625	-9.5078404	0.28942368	25.219992	0.40422164	-155.37513	0.40511573	24.504881	
	0.40498361	24.757171	0.40422164	-155.37513	0.56744012	23.937943	0.53091988	-25.86651	
	0.403665	-155.35103	0.40511573	24.504881	0.53091988	-25.86651	0.56687328	23.988825	
	
0.122818879652292	0.29181559	24.074439	0.73982141	-9.358979	0.40644243	24.19222	0.40557073	-155.84576	
	0.73982141	-9.358979	0.2917098	24.388416	0.4059203	-155.8991	0.4068627	24.003546	
	0.40644243	24.19222	0.4059203	-155.8991	0.57023008	23.558348	0.52552622	-25.754531	
	0.40557073	-155.84576	0.4068627	24.003546	0.52552622	-25.754531	0.56976802	23.558664	
	
0.125656071946061	0.29312836	23.480678	0.73799457	-9.2938771	0.40849441	23.723182	0.40830328	-156.24281	
	0.73799457	-9.2938771	0.29215471	23.879874	0.40832037	-156.41558	0.40890213	23.587713	
	0.40849441	23.723182	0.40832037	-156.41558	0.57228277	23.122994	0.52117749	-25.636539	
	0.40830328	-156.24281	0.40890213	23.587713	0.52117749	-25.636539	0.57241184	23.096935	
	
0.128558805141477	0.29343602	22.91611	0.73464752	-9.2072352	0.40962841	23.321043	0.40898943	-156.74574	
	0.73464752	-9.2072352	0.29417458	23.6147	0.40908293	-156.90018	0.41025882	23.109848	
	0.40962841	23.321043	0.40908293	-156.90018	0.5745853	22.599075	0.51625094	-25.41476	
	0.40898943	-156.74574	0.41025882	23.109848	0.51625094	-25.41476	0.57445771	22.714387	
	
0.131528593274019	0.2948033	22.804931	0.73275717	-9.0681944	0.41139379	22.865355	0.41128947	-157.24404	
	0.73275717	-9.0681944	0.29574483	23.088234	0.41089788	-157.26171	0.41213826	22.693661	
	0.41139379	22.865355	0.41089788	-157.26171	0.57760016	22.224291	0.51114623	-25.29622	
	0.41128947	-157.24404	0.41213826	22.693661	0.51114623	-25.29622	0.57709899	22.190558	
	
0.134566985354323	0.29687826	22.150275	0.73133751	-8.9374676	0.4121358	22.364282	0.41223163	-157.74208	
	0.73133751	-8.9374676	0.29639265	22.579902	0.41176571	-157.72906	0.41264742	22.27814	
	0.4121358	22.364282	0.41176571	-157.72906	0.57905986	21.911706	0.50634323	-25.136353	
	0.41223163	-157.74208	0.41264742	22.27814	0.50634323	-25.136353	0.57843553	21.763031	
	
0.13767556617613	0.29858792	21.687478	0.72846446	-8.8665403	0.41356447	22.010982	0.41307431	-157.98656	
	0.72846446	-8.8665403	0.29768748	22.346081	0.41332593	-158.1092	0.41424339	21.871123	
	0.41356447	22.010982	0.41332593	-158.1092	0.58083333	21.359478	0.50255532	-24.977113	
	0.41307431	-157.98656	0.41424339	21.871123	0.50255532	-24.977113	0.580071	21.431304	
	
0.140855957142902	0.29995665	21.244773	0.72660281	-8.7701281	0.41520503	21.555916	0.4146683	-158.46328	
	0.72660281	-8.7701281	0.29821331	21.611787	0.41393085	-158.72718	0.41530465	21.352156	
	0.41520503	21.555916	0.41393085	-158.72718	0.58140698	20.985128	0.49715183	-24.828676	
	0.4146683	-158.46328	0.41530465	21.352156	0.49715183	-24.828676	0.58023033	21.082779	
	
0.144109817113524	0.30013488	20.833564	0.72490194	-8.5990171	0.41659975	21.121692	0.41545021	-158.93666	
	0.72490194	-8.5990171	0.29931829	21.290591	0.41590098	-159.02245	0.41646868	20.94371	
	0.41659975	21.121692	0.41590098	-159.02245	0.58338078	20.505697	0.49357032	-24.665823	
	0.41545021	-158.93666	0.41646868	20.94371	0.49357032	-24.665823	0.58347133	20.510937	
	
0.147438843267552	0.30144827	20.545056	0.72257297	-8.4979279	0.41846174	20.6525	0.41710329	-159.50125	
	0.72257297	-8.4979279	0.30138327	20.796918	0.41758326	-159.48805	0.4183073	20.559032	
	0.41846174	20.6525	0.41758326	-159.48805	0.58551123	20.19436	0.4889372	-24.413002	
	0.41710329	-159.50125	0.4183073	20.559032	0.4889372	-24.413002	0.58529493	20.14282	
	
0.150844771990442	0.30102762	20.038468	0.72105538	-8.3940221	0.41942882	20.366414	0.41819341	-159.69371	
	0.72105538	-8.3940221	0.30039953	20.275934	0.41864211	-159.85642	0.41954483	20.074749	
	0.41942882	20.366414	0.41864211	-159.85642	0.58818676	19.774999	0.48578896	-24.188487	
	0.41819341	-159.69371	0.41954483	20.074749	0.48578896	-24.188487	0.58703987	19.798116	
	
0.154329379779229	0.30291708	19.80666	0.71957273	-8.2145555	0.42057255	19.857425	0.41941812	-160.22585	
	0.71957273	-8.2145555	0.30184913	20.158814	0.42000981	-160.31957	0.42075767	19.675565	
	0.42057255	19.857425	0.42000981	-160.31957	0.58862037	19.294511	0.48150005	-24.002939	
	0.41941812	-160.22585	0.42075767	19.675565	0.48150005	-24.002939	0.58887748	19.352005	
	
0.157894484169135	0.30299009	19.126769	0.71826884	-8.1221818	0.42131752	19.413615	0.42111447	-160.60099	
	0.71826884	-8.1221818	0.30171384	19.567842	0.42106541	-160.66373	0.42227623	19.32478	
	0.42131752	19.413615	0.42106541	-160.66373	0.59126058	18.94838	0.47772504	-23.8051	
	0.42111447	-160.60099	0.42227623	19.32478	0.47772504	-23.8051	0.59047198	19.008845	
	
0.16154194468157	0.30478471	18.754703	0.71597641	-8.0173071	0.4220248	19.027238	0.42135974	-161.00005	
	0.71597641	-8.0173071	0.30311322	18.976691	0.4215734	-161.09471	0.42251135	18.932958	
	0.4220248	19.027238	0.4215734	-161.09471	0.59223826	18.509474	0.47365929	-23.563668	
	0.42135974	-161.00005	0.42251135	18.932958	0.47365929	-23.563668	0.59197065	18.697505	
	
0.165273663794043	0.30508344	18.223867	0.71404788	-7.9465102	0.42316245	18.654465	0.42244647	-161.31261	
	0.71404788	-7.9465102	0.30456302	18.719924	0.42235179	-161.45775	0.42368243	18.603493	
	0.42316245	18.654465	0.42235179	-161.45775	0.59258884	18.155075	0.46999291	-23.343767	
	0.42244647	-161.31261	0.42368243	18.603493	0.46999291	-23.343767	0.59287647	18.230748	
	
0.169091587932473	0.30567163	17.819962	0.71232046	-7.8193805	0.42492728	18.241697	0.42375155	-161.70198	
	0.71232046	-7.8193805	0.3056088	18.311195	0.42356933	-161.85654	0.42422964	18.19076	
	0.42492728	18.241697	0.42356933	-161.85654	0.5945216	17.807955	0.46652361	-23.120896	
	0.42375155	-161.70198	0.42422964	18.19076	0.46652361	-23.120896	0.59457006	17.908429	
	
0.172997708486424	0.30525766	17.52702	0.71091974	-7.6437615	0.42593308	17.914168	0.42467845	-162.2358	
	0.71091974	-7.6437615	0.3064078	17.958477	0.42458645	-162.16828	0.42550734	17.778973	
	0.42593308	17.914168	0.42458645	-162.16828	0.5964143	17.401565	0.46320194	-22.737319	
	0.42467845	-162.2358	0.42550734	17.778973	0.46320194	-22.737319	0.59617328	17.57794	
	
0.176994062847797	0.30773176	17.192727	0.70964413	-7.5598565	0.42630663	17.49106	0.42558399	-162.53245	
	0.70964413	-7.5598565	0.30580612	17.794717	0.42557769	-162.63379	0.42661205	17.439547	
	0.42630663	17.49106	0.42557769	-162.63379	0.59871767	17.08329	0.45996436	-22.566744	
	0.42558399	-162.53245	0.42661205	17.439547	0.45996436	-22.566744	0.59642376	17.111791	
	
0.181082735473506	0.30741174	16.727841	0.70788766	-7.4115011	0.42729177	17.087253	0.42683636	-162.84356	
	0.70788766	-7.4115011	0.30749362	17.095343	0.42640385	-163.05137	0.4274162	17.056411	
	0.42729177	17.087253	0.42640385	-163.05137	0.59902532	16.708509	0.45662575	-22.33373	
	0.42683636	-162.84356	0.4274162	17.056411	0.45662575	-22.33373	0.598546	16.69419	
	
0.185265858972714	0.30830611	16.59178	0.70715783	-7.2699416	0.42809199	16.822623	0.4271052	-163.22051	
	0.70715783	-7.2699416	0.30770676	16.961186	0.42769328	-163.37304	0.42805025	16.631698	
	0.42809199	16.822623	0.42769328	-163.37304	0.60029463	16.325285	0.45317454	-22.03723	
	0.4271052	-163.22051	0.42805025	16.631698	0.45317454	-22.03723	0.60011854	16.363031	
	
0.18954561521918	0.30994113	16.296025	0.70471315	-7.1694024	0.42859945	16.378043	0.42759114	-163.55362	
	0.70471315	-7.1694024	0.30867384	16.655201	0.42765114	-163.80076	0.42884465	16.346894	
	0.42859945	16.378043	0.42765114	-163.80076	0.60148159	16.090721	0.45010182	-21.698078	
	0.42759114	-163.55362	0.42884465	16.346894	0.45010182	-21.698078	0.60021077	16.037609	
	
0.193924236489297	0.30972418	15.873334	0.70450533	-7.0399188	0.42932202	16.079731	0.42830262	-163.94727	
	0.70450533	-7.0399188	0.30893471	16.179776	0.42897788	-164.02412	0.4296981	16.003414	
	0.42932202	16.079731	0.42897788	-164.02412	0.60156933	15.728627	0.44685262	-21.430753	
	0.42830262	-163.94727	0.4296981	16.003414	0.44685262	-21.430753	0.60165625	15.704808	
	
0.19840400662643	0.31018333	15.408077	0.70307937	-6.9587659	0.4309591	15.778348	0.42906279	-164.31789	
	0.70307937	-6.9587659	0.30881916	15.682602	0.43031321	-164.40062	0.43087227	15.68463	
	0.4309591	15.778348	0.43031321	-164.40062	0.60408262	15.383141	0.444371	-21.230773	
	0.42906279	-164.31789	0.43087227	15.68463	0.444371	-21.230773	0.60184191	15.35029	
	
0.202987262232139	0.31025733	15.079881	0.70178726	-6.7831318	0.43059205	15.395668	0.42938861	-164.51721	
	0.70178726	-6.7831318	0.31069086	15.656884	0.42975405	-164.71497	0.43029288	15.293825	
	0.43059205	15.395668	0.42975405	-164.71497	0.60268877	15.063657	0.44089296	-20.934592	
	0.42938861	-164.51721	0.43029288	15.293825	0.44089296	-20.934592	0.6027278	15.053774	
	
0.207676393884933	0.31050929	14.852956	0.70074529	-6.6693877	0.43167756	15.082978	0.43023007	-164.96846	
	0.70074529	-6.6693877	0.31028635	15.232018	0.43074685	-165.05983	0.43179875	14.96589	
	0.43167756	15.082978	0.43074685	-165.05983	0.60525857	14.731125	0.43847374	-20.637765	
	0.43023007	-164.96846	0.43179875	14.96589	0.43847374	-20.637765	0.60497219	14.78719	
	
0.212473847387164	0.31212195	14.595658	0.69984106	-6.5613392	0.43238629	14.754668	0.43178469	-165.28163	
	0.69984106	-6.5613392	0.31074665	14.772279	0.43160771	-165.34701	0.43265043	14.635317	
	0.43238629	14.754668	0.43160771	-165.34701	0.60525172	14.448819	0.43592574	-20.371697	
	0.43178469	-165.28163	0.43265043	14.635317	0.43592574	-20.371697	0.60604504	14.393358	
	
0.217382125040737	0.3133094	14.129622	0.6987164	-6.4450554	0.43273588	14.433269	0.43164896	-165.61811	
	0.6987164	-6.4450554	0.3106538	14.519117	0.43236525	-165.72831	0.43316563	14.421924	
	0.43273588	14.433269	0.43236525	-165.72831	0.60649442	14.100997	0.43316886	-20.031508	
	0.43164896	-165.61811	0.43316563	14.421924	0.43316886	-20.031508	0.60628429	14.16024	
	
0.222403786952283	0.31312865	14.017295	0.69782065	-6.3247689	0.43356553	14.10553	0.43297666	-165.86548	
	0.69782065	-6.3247689	0.3113534	14.435747	0.43287779	-166.06559	0.43411177	14.031942	
	0.43356553	14.10553	0.43287779	-166.06559	0.60766437	13.808181	0.43093653	-19.828109	
	0.43297666	-165.86548	0.43411177	14.031942	0.43093653	-19.828109	0.6070628	13.864025	
	
0.227541452368483	0.31325391	13.475127	0.6965336	-6.1795795	0.43365266	13.876535	0.43288945	-166.20008	
	0.6965336	-6.1795795	0.31222692	13.859939	0.43295278	-166.25132	0.43403105	13.704319	
	0.43365266	13.876535	0.43295278	-166.25132	0.60783822	13.601455	0.42883721	-19.533909	
	0.43288945	-166.20008	0.43403105	13.704319	0.42883721	-19.533909	0.60845552	13.592545	
	
0.232797801042241	0.31421295	13.326575	0.69609233	-6.0962211	0.43424916	13.509673	0.43370472	-166.49292	
	0.69609233	-6.0962211	0.31170081	13.58843	0.43393671	-166.60112	0.43529453	13.455621	
	0.43424916	13.509673	0.43393671	-166.60112	0.60913993	13.144527	0.42617478	-19.26515	
	0.43370472	-166.49292	0.43529453	13.455621	0.42617478	-19.26515	0.60821815	13.283516	
	
0.238175574630416	0.31367941	13.020078	0.69475373	-5.9772631	0.43533609	13.258524	0.43427749	-166.79255	
	0.69475373	-5.9772631	0.31281716	13.312841	0.43450326	-166.84254	0.43525204	13.127385	
	0.43533609	13.258524	0.43450326	-166.84254	0.61079397	13.075723	0.42451476	-18.953909	
	0.43427749	-166.79255	0.43525204	13.127385	0.42451476	-18.953909	0.60956226	12.967109	
	
0.24367757812384	0.31402462	12.626736	0.69390458	-5.8423761	0.43588984	12.987366	0.43431198	-167.05485	
	0.69390458	-5.8423761	0.31299279	13.016542	0.43538969	-167.20104	0.43602117	12.807159	
	0.43588984	12.987366	0.43538969	-167.20104	0.61038954	12.658019	0.42220928	-18.623343	
	0.43431198	-167.05485	0.43602117	12.807159	0.42220928	-18.623343	0.61017321	12.75145	
	
0.249306681310373	0.31446005	12.312051	0.69405215	-5.781645	0.43700833	12.703255	0.43596395	-167.36237	
	0.69405215	-5.781645	0.31211903	12.723989	0.43617114	-167.39689	0.43652902	12.593079	
	0.43700833	12.703255	0.43617114	-167.39689	0.61183486	12.478577	0.42051096	-18.37013	
	0.43596395	-167.36237	0.43652902	12.593079	0.42051096	-18.37013	0.61052027	12.456594	
	
0.255065820271756	0.31483232	12.111845	0.69320128	-5.6459961	0.43695481	12.479891	0.4362308	-167.608	
	0.69320128	-5.6459961	0.31297832	12.49748	0.43615473	-167.75145	0.43673116	12.353105	
	0.43695481	12.479891	0.43615473	-167.75145	0.61127777	12.179053	0.41831284	-18.048132	
	0.4362308	-167.608	0.43673116	12.353105	0.41831284	-18.048132	0.61155442	12.197861	
	
0.260957998915036	0.31558067	11.928859	0.69214378	-5.5371725	0.43670054	12.212467	0.4360592	-167.91555	
	0.69214378	-5.5371725	0.31377151	12.13969	0.43672061	-167.99141	0.43717334	12.071307	
	0.43670054	12.212467	0.43672061	-167.99141	0.61238137	11.841452	0.41642116	-17.783637	
	0.4360592	-167.91555	0.43717334	12.071307	0.41642116	-17.783637	0.61212876	11.937737	
	
0.266986290539378	0.31504561	11.730165	0.69126425	-5.4419537	0.43717667	11.894928	0.43665909	-168.17127	
	0.69126425	-5.4419537	0.3148332	11.939494	0.43682835	-168.27906	0.43812362	11.777682	
	0.43717667	11.894928	0.43682835	-168.27906	0.61337521	11.690375	0.41407364	-17.45313	
	0.43665909	-168.17127	0.43812362	11.777682	0.41407364	-17.45313	0.61265091	11.643809	
	
0.273153839439064	0.31559175	11.58485	0.69128538	-5.3430344	0.43775497	11.655721	0.43696679	-168.39235	
	0.69128538	-5.3430344	0.31389236	11.687204	0.43751726	-168.4975	0.43821457	11.589149	
	0.43775497	11.655721	0.43751726	-168.4975	0.61325674	11.361111	0.41261024	-17.162591	
	0.43696679	-168.39235	0.43821457	11.589149	0.41261024	-17.162591	0.61355807	11.391912	
	
0.279463862543524	0.31544831	10.994558	0.69052681	-5.2576795	0.43900199	11.432927	0.4378707	-168.62317	
	0.69052681	-5.2576795	0.31428841	11.383047	0.43834608	-168.77892	0.43797783	11.231103	
	0.43900199	11.432927	0.43834608	-168.77892	0.61485376	11.077334	0.41120986	-16.924085	
	0.4378707	-168.62317	0.43797783	11.231103	0.41120986	-16.924085	0.61391821	11.191544	
	
0.285919651095252	0.31578422	11.107506	0.69006704	-5.1558628	0.43878732	11.124605	0.43839075	-168.94257	
	0.69006704	-5.1558628	0.3150083	11.284378	0.43848112	-168.99069	0.43897703	11.057544	
	0.43878732	11.124605	0.43848112	-168.99069	0.61452367	10.978034	0.41012634	-16.683787	
	0.43839075	-168.94257	0.43897703	11.057544	0.41012634	-16.683787	0.61476822	10.933368	
	
0.292524572366485	0.31616343	10.596458	0.68881271	-5.0694031	0.43888026	10.928184	0.43815372	-169.18727	
	0.68881271	-5.0694031	0.31500515	11.251988	0.43879787	-169.37432	0.43946625	10.715421	
	0.43888026	10.928184	0.43879787	-169.37432	0.61579522	10.755169	0.40795349	-16.370045	
	0.43815372	-169.18727	0.43946625	10.715421	0.40795349	-16.370045	0.61440392	10.714573	
	
0.299282071415539	0.31711504	10.550995	0.68783852	-4.9277407	0.43875961	10.648789	0.43769588	-169.42899	
	0.68783852	-4.9277407	0.31579132	11.116974	0.43824523	-169.55291	0.43905521	10.442286	
	0.43875961	10.648789	0.43824523	-169.55291	0.61521874	10.491988	0.40656486	-16.047941	
	0.43769588	-169.42899	0.43905521	10.442286	0.40656486	-16.047941	0.61465133	10.485518	
	
0.30619567288371	0.31669546	10.3972	0.68792863	-4.8735283	0.4390109	10.449386	0.43826457	-169.58516	
	0.68792863	-4.8735283	0.3163262	10.700282	0.43876439	-169.74458	0.43912395	10.304246	
	0.4390109	10.449386	0.43876439	-169.74458	0.61487233	10.338903	0.40462252	-15.8416	
	0.43826457	-169.58516	0.43912395	10.304246	0.40462252	-15.8416	0.61566702	10.238803	
	
0.313268982833699	0.31717322	9.9027166	0.68708379	-4.7339378	0.4401411	10.24425	0.43891168	-169.81418	
	0.68708379	-4.7339378	0.31553317	10.382575	0.43956184	-169.94696	0.44008484	10.063048	
	0.4401411	10.24425	0.43956184	-169.94696	0.61679398	9.9891911	0.40333257	-15.465307	
	0.43891168	-169.81418	0.44008484	10.063048	0.40333257	-15.465307	0.61555802	10.026287	
	
0.320505690630487	0.31622196	9.7164522	0.68682836	-4.6045854	0.43980101	10.029187	0.43886774	-169.97523	
	0.68682836	-4.6045854	0.31588633	10.144439	0.43939288	-170.12492	0.44068516	9.9101809	
	0.43980101	10.029187	0.43939288	-170.12492	0.61647777	9.7722361	0.40204718	-15.213718	
	0.43886774	-169.97523	0.44068516	9.9101809	0.40204718	-15.213718	0.61571917	9.7561081	
	
0.327909570865677	0.31586967	9.3396054	0.68622623	-4.4952288	0.44104564	9.9221006	0.439772	-170.18025	
	0.68622623	-4.4952288	0.31577882	9.7607129	0.44006796	-170.27775	0.44124259	9.6980042	
	0.44104564	9.9221006	0.44006796	-170.27775	0.61745172	9.4389582	0.40087128	-14.873077	
	0.439772	-170.18025	0.44124259	9.6980042	0.40087128	-14.873077	0.61629563	9.5648761	
	
0.335484485326279	0.31690103	9.3198139	0.68604049	-4.4280397	0.44128014	9.6378756	0.44037707	-170.43179	
	0.68604049	-4.4280397	0.31612524	9.4971419	0.4408652	-170.48047	0.44136463	9.605781	
	0.44128014	9.6378756	0.4408652	-170.48047	0.61754101	9.2519441	0.39985741	-14.649847	
	0.44037707	-170.43179	0.44136463	9.605781	0.39985741	-14.649847	0.61747886	9.366498	
	
0.343234385008977	0.31669694	9.0013729	0.6854667	-4.3699049	0.44145333	9.3830681	0.44052038	-170.66596	
