# MHz S MA R 50

0.1	0.13090763	44.730444	0.90749145	-5.8565817	0.26338075	44.623511	0.26298117	-135.51083	
	0.90749145	-5.8565817	0.13224493	47.332501	0.26392504	-135.93987	0.26490421	43.836977	
	0.26338075	44.623511	0.26392504	-135.93987	0.53231962	42.857334	0.70632382	-31.044325	
	0.26298117	-135.51083	0.26490421	43.836977	0.70632382	-31.044325	0.53659847	42.9324	
	
0.102310062021247	0.13077181	43.412548	0.90545202	-5.9446203	0.26732835	44.309491	0.26698327	-135.77307	
	0.90545202	-5.9446203	0.13267716	45.600932	0.26733116	-136.16797	0.26794347	43.781827	
	0.26732835	44.309491	0.26733116	-136.16797	0.53968043	42.310302	0.69939923	-31.575632	
	0.26698327	-135.77307	0.26794347	43.781827	0.69939923	-31.575632	0.5426268	42.514897	
	
0.104673487907914	0.13542304	43.23127	0.90386097	-5.9585622	0.26908918	43.380857	0.26861634	-136.58953	
	0.90386097	-5.9585622	0.13451401	43.836304	0.2684117	-136.66642	0.26911195	43.428306	
	0.26908918	43.380857	0.2684117	-136.66642	0.54584103	41.764875	0.69184812	-31.697116	
	0.26861634	-136.58953	0.26911195	43.428306	0.69184812	-31.697116	0.54377755	41.741293	
	
0.107091510398389	0.13521799	42.672301	0.90205756	-5.970077	0.27235347	42.820545	0.27211119	-137.21465	
	0.90205756	-5.970077	0.13713419	43.502463	0.27182412	-137.16668	0.27208753	42.798336	
	0.27235347	42.820545	0.27182412	-137.16668	0.55139497	41.272557	0.68587899	-32.001514	
	0.27211119	-137.21465	0.27208753	42.798336	0.68587899	-32.001514	0.5514236	41.25923	
	
0.109565390708082	0.13798321	42.347978	0.90031268	-5.98556	0.27569289	42.082957	0.27540189	-137.8264	
	0.90031268	-5.98556	0.13796017	43.463191	0.27540862	-138.10038	0.27592748	41.987933	
	0.27569289	42.082957	0.27540862	-138.10038	0.55653342	40.646122	0.67829207	-32.31187	
	0.27540189	-137.8264	0.27592748	41.987933	0.67829207	-32.31187	0.55684009	40.581071	
	
0.112096419187261	0.13855103	41.150128	0.89762415	-5.9685364	0.27796957	41.508327	0.27755191	-138.44088	
	0.89762415	-5.9685364	0.13932194	42.102219	0.27783221	-138.63195	0.27831169	41.414839	
	0.27796957	41.508327	0.27783221	-138.63195	0.56194478	39.943951	0.67081656	-32.665803	
	0.27755191	-138.44088	0.27831169	41.414839	0.67081656	-32.665803	0.56152886	39.925451	
	
0.114685915994083	0.14049246	41.174135	0.89619388	-5.9870274	0.2812687	40.909068	0.28093503	-139.14279	
	0.89619388	-5.9870274	0.14040065	42.019661	0.28103616	-139.18352	0.28221266	40.788214	
	0.2812687	40.909068	0.28103616	-139.18352	0.56719576	39.427764	0.66418929	-32.889688	
	0.28093503	-139.14279	0.28221266	40.788214	0.66418929	-32.889688	0.56840658	39.468903	
	
0.117335231783182	0.14180869	39.962259	0.89364749	-5.9949031	0.2841141	40.353347	0.28430075	-139.71461	
	0.89364749	-5.9949031	0.14202903	41.482796	0.28356238	-139.7192	0.28475827	40.206938	
	0.2841141	40.353347	0.28356238	-139.7192	0.5727744	38.86865	0.65637076	-33.29378	
	0.28430075	-139.71461	0.28475827	40.206938	0.65637076	-33.29378	0.57357655	38.851334	
	
0.120045748410147	0.14365241	39.214127	0.89122931	-6.0090652	0.28709034	39.842563	0.28608572	-140.28964	
	0.89122931	-6.0090652	0.14236771	41.183084	0.28620131	-140.33903	0.28729875	39.477123	
	0.28709034	39.842563	0.28620131	-140.33903	0.57788035	38.189454	0.64935108	-33.475626	
	0.28608572	-140.28964	0.28729875	39.477123	0.64935108	-33.475626	0.57828791	38.109884	
	
0.122818879652292	0.14401589	38.998906	0.88973661	-5.9992603	0.28974963	39.066508	0.28932138	-141.00566	
	0.88973661	-5.9992603	0.14460524	39.869331	0.28889982	-141.04871	0.28985843	38.896603	
	0.28974963	39.066508	0.28889982	-141.04871	0.58439332	37.629867	0.64164485	-33.782965	
	0.28932138	-141.00566	0.28985843	38.896603	0.64164485	-33.782965	0.58370073	37.575722	
	
0.125656071946061	0.14558029	38.424193	0.88787831	-6.0038108	0.29285669	38.459887	0.29246464	-141.52854	
	0.88787831	-6.0038108	0.14536421	39.412757	0.29211716	-141.68044	0.29305502	38.311391	
	0.29285669	38.459887	0.29211716	-141.68044	0.5887152	36.993404	0.63460824	-34.017577	
	0.29246464	-141.52854	0.29305502	38.311391	0.63460824	-34.017577	0.58905616	37.073084	
	
0.128558805141477	0.14654739	37.550058	0.88502863	-6.015072	0.29485149	37.88232	0.29434936	-142.22929	
	0.88502863	-6.015072	0.1475944	38.775804	0.29403066	-142.34312	0.29554073	37.654032	
	0.29485149	37.88232	0.29403066	-142.34312	0.59314394	36.377509	0.62685228	-34.225776	
	0.29434936	-142.22929	0.29554073	37.654032	0.62685228	-34.225776	0.59386151	36.432167	
	
0.131528593274019	0.14847811	37.417414	0.88326685	-5.9776486	0.29763108	37.306081	0.2973779	-142.82922	
	0.88326685	-5.9776486	0.15031572	38.505217	0.297207	-142.87501	0.29818831	37.106893	
	0.29763108	37.306081	0.297207	-142.87501	0.59875838	35.85677	0.6189334	-34.517976	
	0.2973779	-142.82922	0.29818831	37.106893	0.6189334	-34.517976	0.59901324	35.920962	
	
0.134566985354323	0.15059809	36.592568	0.8810493	-5.9112036	0.29973235	36.570713	0.29921178	-143.45355	
	0.8810493	-5.9112036	0.15098579	38.017995	0.2991543	-143.55133	0.30005745	36.55174	
	0.29973235	36.570713	0.2991543	-143.55133	0.60368535	35.278249	0.61164437	-34.756254	
	0.29921178	-143.45355	0.30005745	36.55174	0.61164437	-34.756254	0.60385346	35.228057	
	
0.13767556617613	0.15189424	35.650308	0.87818453	-5.9427548	0.30191833	36.03802	0.30162637	-143.96768	
	0.87818453	-5.9427548	0.15287591	37.225413	0.30168862	-144.04691	0.30244512	35.901409	
	0.30191833	36.03802	0.30168862	-144.04691	0.6076922	34.622775	0.60558964	-34.976722	
	0.30162637	-143.96768	0.30244512	35.901409	0.60558964	-34.976722	0.6070159	34.600123	
	
0.140855957142902	0.15401183	34.94584	0.87648636	-5.9294402	0.30416462	35.470107	0.30420888	-144.57032	
	0.87648636	-5.9294402	0.15305651	36.36051	0.30387304	-144.81186	0.3051402	35.199193	
	0.30416462	35.470107	0.30387304	-144.81186	0.61109548	34.109916	0.59602202	-35.211643	
	0.30420888	-144.57032	0.3051402	35.199193	0.59602202	-35.211643	0.61207293	34.225026	
	
0.144109817113524	0.15411819	34.502066	0.87466291	-5.8560719	0.30666175	34.815906	0.30628193	-145.12141	
	0.87466291	-5.8560719	0.15446498	35.806672	0.30636135	-145.3104	0.30719358	34.681964	
	0.30666175	34.815906	0.30636135	-145.3104	0.61634317	33.512529	0.58988824	-35.35999	
	0.30628193	-145.12141	0.30719358	34.681964	0.58988824	-35.35999	0.61736491	33.609268	
	
0.147438843267552	0.15583602	34.439605	0.87314138	-5.8509356	0.30999882	34.171441	0.30928399	-145.92288	
	0.87314138	-5.8509356	0.15613129	35.133003	0.30965706	-145.92964	0.30994505	34.037951	
	0.30999882	34.171441	0.30965706	-145.92964	0.62256155	32.942235	0.58268868	-35.586229	
	0.30928399	-145.92288	0.30994505	34.037951	0.58268868	-35.586229	0.62204846	32.973755	
	
0.150844771990442	0.15653646	33.420907	0.87051494	-5.8125018	0.31174232	33.683228	0.31086072	-146.33638	
	0.87051494	-5.8125018	0.15608058	34.418703	0.31128866	-146.45051	0.31196476	33.406776	
	0.31174232	33.683228	0.31128866	-146.45051	0.62600581	32.380907	0.57544442	-35.691035	
	0.31086072	-146.33638	0.31196476	33.406776	0.57544442	-35.691035	0.62568707	32.357489	
	
0.154329379779229	0.15830185	33.059655	0.86906781	-5.7590926	0.31404338	33.005676	0.31315452	-147.03283	
	0.86906781	-5.7590926	0.15821869	34.417898	0.31420615	-147.15423	0.31458078	32.774471	
	0.31404338	33.005676	0.31420615	-147.15423	0.6292775	31.757264	0.56782777	-35.86453	
	0.31315452	-147.03283	0.31458078	32.774471	0.56782777	-35.86453	0.63092227	31.814945	
	
0.157894484169135	0.1594233	32.224143	0.86734452	-5.7256413	0.31611103	32.381457	0.31572567	-147.64982	
	0.86734452	-5.7256413	0.15793078	33.529144	0.31592499	-147.62889	0.3169043	32.292154	
	0.31611103	32.381457	0.31592499	-147.62889	0.63424797	31.259489	0.56045166	-36.042564	
	0.31572567	-147.64982	0.3169043	32.292154	0.56045166	-36.042564	0.63412724	31.203238	
	
0.16154194468157	0.16111347	31.558245	0.865103	-5.7158413	0.31815311	31.888985	0.31725973	-148.22034	
	0.865103	-5.7158413	0.15942259	32.321642	0.31818016	-148.23825	0.31851537	31.749262	
	0.31815311	31.888985	0.31818016	-148.23825	0.63703521	30.674383	0.5526078	-36.186686	
	0.31725973	-148.22034	0.31851537	31.749262	0.5526078	-36.186686	0.63883554	30.687422	
	
0.165273663794043	0.16116817	30.826441	0.86281846	-5.6785302	0.32026914	31.222224	0.31919299	-148.72521	
	0.86281846	-5.6785302	0.16153746	31.915083	0.31979272	-148.81764	0.32045621	31.179692	
	0.32026914	31.222224	0.31979272	-148.81764	0.64170254	30.059304	0.54560469	-36.299493	
	0.31919299	-148.72521	0.32045621	31.179692	0.54560469	-36.299493	0.64101874	30.12695	
	
0.169091587932473	0.16218131	30.478215	0.86095755	-5.6539513	0.32251806	30.708309	0.32109765	-149.3097	
	0.86095755	-5.6539513	0.16277417	31.01864	0.32150864	-149.36906	0.32226537	30.607451	
	0.32251806	30.708309	0.32150864	-149.36906	0.64570115	29.661207	0.53844729	-36.405509	
	0.32109765	-149.3097	0.32226537	30.607451	0.53844729	-36.405509	0.64496963	29.614314	
	
0.172997708486424	0.16296371	29.719075	0.85950871	-5.5938467	0.32456691	30.160003	0.32412772	-149.97063	
	0.85950871	-5.5938467	0.16371657	30.624817	0.32388281	-150.03192	0.32453804	30.064411	
	0.32456691	30.160003	0.32388281	-150.03192	0.64924493	28.965612	0.53196403	-36.421737	
	0.32412772	-149.97063	0.32453804	30.064411	0.53196403	-36.421737	0.65023948	29.089489	
	
0.176994062847797	0.16487246	29.565411	0.85813045	-5.5373707	0.32597816	29.558574	0.32572554	-150.47779	
	0.85813045	-5.5373707	0.16368478	30.444943	0.32538111	-150.62282	0.32650138	29.471909	
	0.32597816	29.558574	0.32538111	-150.62282	0.65365362	28.416633	0.52495044	-36.493002	
	0.32572554	-150.47779	0.32650138	29.471909	0.52495044	-36.493002	0.65242919	28.480212	
	
0.181082735473506	0.16483378	28.394529	0.85538708	-5.4915295	0.32761136	28.93695	0.32757338	-150.95753	
	0.85538708	-5.4915295	0.16618753	29.671016	0.32754945	-151.16482	0.32817516	28.918069	
	0.32761136	28.93695	0.32754945	-151.16482	0.65662872	27.938213	0.51754068	-36.607992	
	0.32757338	-150.95753	0.32817516	28.918069	0.51754068	-36.607992	0.6558589	27.8954	
	
0.185265858972714	0.16660068	28.239357	0.85414827	-5.4110155	0.32948099	28.440818	0.32901288	-151.56963	
	0.85414827	-5.4110155	0.16690526	29.339653	0.32947361	-151.72203	0.32991788	28.284482	
	0.32948099	28.440818	0.32947361	-151.72203	0.65873989	27.394816	0.51043429	-36.594021	
	0.32901288	-151.56963	0.32991788	28.284482	0.51043429	-36.594021	0.6595939	27.472754	
	
0.18954561521918	0.16776503	27.8501	0.85219351	-5.3645006	0.33108851	27.835071	0.33075268	-152.13965	
	0.85219351	-5.3645006	0.16704643	28.871361	0.33037728	-152.36102	0.33186088	27.731942	
	0.33108851	27.835071	0.33037728	-152.36102	0.66274422	26.831903	0.50378421	-36.601379	
	0.33075268	-152.13965	0.33186088	27.731942	0.50378421	-36.601379	0.66353842	26.858169	
	
0.193924236489297	0.1689073	27.385927	0.85090139	-5.32238	0.3327132	27.368441	0.33168993	-152.68977	
	0.85090139	-5.32238	0.16800997	27.918467	0.33254228	-152.80192	0.33315023	27.239636	
	0.3327132	27.368441	0.33254228	-152.80192	0.66587168	26.362985	0.49724646	-36.622267	
	0.33168993	-152.68977	0.33315023	27.239636	0.49724646	-36.622267	0.66623614	26.391523	
	
0.19840400662643	0.16899173	26.749667	0.84942915	-5.2423601	0.33476193	26.769755	0.33336611	-153.24626	
	0.84942915	-5.2423601	0.16893926	27.417494	0.33450379	-153.28949	0.33531634	26.731148	
	0.33476193	26.769755	0.33450379	-153.28949	0.6700977	25.811236	0.48988544	-36.655316	
	0.33336611	-153.24626	0.33531634	26.731148	0.48988544	-36.655316	0.66841851	25.879268	
	
0.202987262232139	0.16975549	25.701585	0.84725409	-5.1620564	0.33567815	26.20812	0.33506195	-153.7148	
	0.84725409	-5.1620564	0.17051811	27.149709	0.3348678	-153.92425	0.33509557	26.069787	
	0.33567815	26.20812	0.3348678	-153.92425	0.6716089	25.346936	0.48363776	-36.637073	
	0.33506195	-153.7148	0.33509557	26.069787	0.48363776	-36.637073	0.67155242	25.388834	
	
0.207676393884933	0.17023758	25.821169	0.84641067	-5.1111391	0.33759953	25.771374	0.33649091	-154.30342	
	0.84641067	-5.1111391	0.17085514	26.46153	0.33661664	-154.41518	0.33770294	25.607071	
	0.33759953	25.771374	0.33661664	-154.41518	0.67515526	24.864095	0.47713151	-36.604785	
	0.33649091	-154.30342	0.33770294	25.607071	0.47713151	-36.604785	0.67529446	24.918046	
	
0.212473847387164	0.17227409	24.8347	0.84462967	-5.0405151	0.33880815	25.244558	0.33807539	-154.82926	
	0.84462967	-5.0405151	0.17132285	25.897154	0.33889412	-154.86233	0.33935548	25.075505	
	0.33880815	25.244558	0.33889412	-154.86233	0.67720072	24.42311	0.47063206	-36.551931	
	0.33807539	-154.82926	0.33935548	25.075505	0.47063206	-36.551931	0.6771087	24.354663	
	
0.217382125040737	0.17382585	24.49598	0.8434872	-4.9704064	0.34002606	24.684933	0.33934903	-155.36798	
	0.8434872	-4.9704064	0.17090728	25.160454	0.33998945	-155.42121	0.34085916	24.666679	
	0.34002606	24.684933	0.33998945	-155.42121	0.68035089	23.862322	0.46402067	-36.43676	
	0.33934903	-155.36798	0.34085916	24.666679	0.46402067	-36.43676	0.67995868	23.952678	
	
0.222403786952283	0.17354258	24.231055	0.84217726	-4.8990992	0.34153221	24.173885	0.34104774	-155.86642	
	0.84217726	-4.8990992	0.17293106	25.226752	0.3410742	-156.04328	0.34174054	24.042871	
	0.34153221	24.173885	0.3410742	-156.04328	0.68217203	23.387921	0.45805063	-36.423702	
	0.34104774	-155.86642	0.34174054	24.042871	0.45805063	-36.423702	0.68219368	23.394151	
	
0.227541452368483	0.17421772	23.088244	0.84020519	-4.8340362	0.34233684	23.69287	0.3419867	-156.33056	
	0.84020519	-4.8340362	0.17360362	24.303289	0.34203332	-156.41514	0.34268324	23.488096	
	0.34233684	23.69287	0.34203332	-156.41514	0.68434459	22.973929	0.45199135	-36.285828	
	0.3419867	-156.33056	0.34268324	23.488096	0.45199135	-36.285828	0.6843834	22.928517	
	
0.232797801042241	0.17500517	22.965643	0.83951052	-4.7666169	0.34352333	23.184092	0.34332084	-156.84834	
	0.83951052	-4.7666169	0.17367261	23.929765	0.3435621	-156.88624	0.34468031	22.993079	
	0.34352333	23.184092	0.3435621	-156.88624	0.68723735	22.483234	0.44564624	-36.219648	
	0.34332084	-156.84834	0.34468031	22.993079	0.44564624	-36.219648	0.6870047	22.482099	
	
0.238175574630416	0.17505228	22.579285	0.83831262	-4.7237099	0.34509669	22.765949	0.34489237	-157.30218	
	0.83831262	-4.7237099	0.17461689	23.241556	0.34467295	-157.41177	0.34576222	22.551517	
	0.34509669	22.765949	0.34467295	-157.41177	0.69037164	22.013941	0.44063066	-36.087683	
	0.34489237	-157.30218	0.34576222	22.551517	0.44063066	-36.087683	0.68946443	22.039711	
	
0.24367757812384	0.17570523	21.915808	0.83675135	-4.6283253	0.34635603	22.289177	0.34526956	-157.81635	
	0.83675135	-4.6283253	0.17564561	22.80718	0.34599624	-157.94764	0.34652752	22.040943	
	0.34635603	22.289177	0.34599624	-157.94764	0.69181262	21.569059	0.43408661	-35.898914	
	0.34526956	-157.81635	0.34652752	22.040943	0.43408661	-35.898914	0.69124984	21.607213	
	
0.249306681310373	0.17495908	21.367733	0.8368599	-4.5754508	0.34771736	21.806224	0.34734699	-158.26276	
	0.8368599	-4.5754508	0.1743522	22.17218	0.34736924	-158.31388	0.34819954	21.683198	
	0.34771736	21.806224	0.34736924	-158.31388	0.69475319	21.104233	0.42918599	-35.756754	
	0.34734699	-158.26276	0.34819954	21.683198	0.42918599	-35.756754	0.6941997	21.148617	
	
0.255065820271756	0.17672987	20.760742	0.83480908	-4.4763494	0.34881594	21.348296	0.34765906	-158.67982	
	0.83480908	-4.4763494	0.17561699	21.857192	0.34811625	-158.88641	0.34827334	21.199418	
	0.34881594	21.348296	0.34811625	-158.88641	0.69492759	20.710652	0.42303929	-35.53588	
	0.34765906	-158.67982	0.34827334	21.199418	0.42303929	-35.53588	0.69548872	20.719771	
	
0.260957998915036	0.17817909	20.5854	0.83352476	-4.3904492	0.3491221	20.922043	0.34845984	-159.18535	
	0.83352476	-4.3904492	0.17635494	21.245195	0.34884081	-159.26104	0.34935134	20.763231	
	0.3491221	20.922043	0.34884081	-159.26104	0.69725875	20.232287	0.41806701	-35.3853	
	0.34845984	-159.18535	0.34935134	20.763231	0.41806701	-35.3853	0.69638144	20.291303	
	
0.266986290539378	0.17700929	20.294361	0.83303155	-4.3394691	0.35056626	20.382392	0.34990403	-159.68186	
	0.83303155	-4.3394691	0.17698676	21.008197	0.35019353	-159.74245	0.35124287	20.31675	
	0.35056626	20.382392	0.35019353	-159.74245	0.70038822	19.819238	0.41282674	-35.220395	
	0.34990403	-159.68186	0.35124287	20.31675	0.41282674	-35.220395	0.69921748	19.79127	
	
0.273153839439064	0.1783215	19.874486	0.83220041	-4.2826497	0.35101807	20.002851	0.35032998	-160.03327	
	0.83220041	-4.2826497	0.17719159	20.463658	0.35094989	-160.18269	0.35135179	19.894119	
	0.35101807	20.002851	0.35094989	-160.18269	0.70093546	19.421723	0.40753353	-34.998368	
	0.35032998	-160.03327	0.35135179	19.894119	0.40753353	-34.998368	0.70091952	19.444575	
	
0.279463862543524	0.17758423	19.079053	0.83108614	-4.207883	0.35266551	19.630133	0.35172251	-160.40289	
	0.83108614	-4.207883	0.17793134	19.939147	0.35177313	-160.57917	0.35184692	19.419303	
	0.35266551	19.630133	0.35177313	-160.57917	0.70293281	18.961743	0.40292865	-34.833187	
	0.35172251	-160.40289	0.35184692	19.419303	0.40292865	-34.833187	0.70217906	18.985346	
	
0.285919651095252	0.1785072	19.231049	0.83058432	-4.1355731	0.35278741	19.157511	0.35240709	-160.96789	
	0.83058432	-4.1355731	0.17843596	19.436373	0.35251365	-161.06822	0.35312556	19.054386	
	0.35278741	19.157511	0.35251365	-161.06822	0.70432606	18.663337	0.39818842	-34.595283	
	0.35240709	-160.96789	0.35312556	19.054386	0.39818842	-34.595283	0.7052619	18.638967	
	
0.292524572366485	0.17937467	18.474868	0.82935497	-4.0501621	0.35327102	18.750972	0.35303912	-161.30297	
	0.82935497	-4.0501621	0.17788335	20.142638	0.35326894	-161.56775	0.35380064	18.578724	
	0.35327102	18.750972	0.35326894	-161.56775	0.70601947	18.194941	0.39307866	-34.267274	
	0.35303912	-161.30297	0.35380064	18.578724	0.39307866	-34.267274	0.70595406	18.304136	
	
0.299282071415539	0.18061677	18.15335	0.82801945	-3.9971534	0.35364434	18.280088	0.35313578	-161.78733	
	0.82801945	-3.9971534	0.17919375	19.569538	0.3533813	-161.9298	0.35404407	18.043897	
	0.35364434	18.280088	0.3533813	-161.9298	0.70674661	17.849911	0.38843277	-33.990779	
	0.35313578	-161.78733	0.35404407	18.043897	0.38843277	-33.990779	0.70723445	17.868056	
	
0.30619567288371	0.18078566	17.898662	0.82749179	-3.9168333	0.35460718	17.922796	0.3538759	-162.07878	
	0.82749179	-3.9168333	0.1796029	18.744607	0.35435456	-162.24212	0.3544353	17.768106	
	0.35460718	17.922796	0.35435456	-162.24212	0.70892678	17.494531	0.3838159	-33.775848	
	0.3538759	-162.07878	0.3544353	17.768106	0.3838159	-33.775848	0.70859681	17.464385	
	
0.313268982833699	0.18052609	17.194789	0.82636937	-3.8227378	0.35585587	17.585412	0.35475563	-162.43953	
	0.82636937	-3.8227378	0.17990958	18.166933	0.35550324	-162.68361	0.35591257	17.35701	
	0.35585587	17.585412	0.35550324	-162.68361	0.71058641	17.12595	0.37925821	-33.463549	
	0.35475563	-162.43953	0.35591257	17.35701	0.37925821	-33.463549	0.70957325	17.083229	
	
0.320505690630487	0.18021134	16.765704	0.82614143	-3.727079	0.35605876	17.215858	0.35584894	-162.84123	
	0.82614143	-3.727079	0.17968039	17.702457	0.35602152	-162.95764	0.35722277	17.014735	
	0.35605876	17.215858	0.35602152	-162.95764	0.71127799	16.73984	0.37504889	-33.203964	
	0.35584894	-162.84123	0.35722277	17.014735	0.37504889	-33.203964	0.71136945	16.697458	
	
0.327909570865677	0.17888708	16.20294	0.82566013	-3.6377938	0.35779387	16.965694	0.3572057	-163.19613	
	0.82566013	-3.6377938	0.17925442	17.084772	0.3568623	-163.26641	0.35802462	16.718388	
	0.35779387	16.965694	0.3568623	-163.26641	0.71387313	16.342967	0.37114025	-32.899606	
	0.3572057	-163.19613	0.35802462	16.718388	0.37114025	-32.899606	0.71365865	16.388834	
	
0.335484485326279	0.18065564	16.110574	0.82499964	-3.5996837	0.35817854	16.542246	0.35732487	-163.54579	
	0.82499964	-3.5996837	0.1795226	16.486954	0.35778085	-163.60124	0.35824702	16.463607	
	0.35817854	16.542246	0.35778085	-163.60124	0.71423973	15.976215	0.36727861	-32.645034	
	0.35732487	-163.54579	0.35824702	16.463607	0.36727861	-32.645034	0.71469246	16.026746	
	
0.343234385008977	0.17999713	15.718984	0.82432979	-3.5554403	0.3587547	16.087057	0.35800894	-163.92782	
