# MHz S MA R 50

0.1	0.48619142	2.4787269	0.51032841	-2.623813	0.48343822	2.8465221	0.48232585	-177.26725	
	0.51032841	-2.623813	0.48471675	2.8073357	0.48462318	-177.65027	0.4863178	2.3074372	
	0.48343822	2.8465221	0.48462318	-177.65027	0.48735756	2.1391619	0.51036848	-2.5331828	
	0.48232585	-177.26725	0.4863178	2.3074372	0.51036848	-2.5331828	0.48517474	2.5139986	
	
0.102310062021247	0.48670018	2.3447242	0.50938176	-2.4522452	0.48396756	2.9333139	0.48311271	-177.19955	
	0.50938176	-2.4522452	0.486209	2.5463224	0.48471729	-177.51174	0.48613489	2.512696	
	0.48396756	2.9333139	0.48471729	-177.51174	0.48834113	2.2143706	0.50929341	-2.5572723	
	0.48311271	-177.19955	0.48613489	2.512696	0.50929341	-2.5572723	0.48687818	2.4127309	
	
0.104673487907914	0.48766855	2.3948232	0.50967276	-2.4741932	0.48477072	2.5587358	0.48354485	-177.4112	
	0.50967276	-2.4741932	0.48719895	2.4846811	0.48350466	-177.5044	0.48408263	2.6919572	
	0.48477072	2.5587358	0.48350466	-177.5044	0.48753472	2.527354	0.50895778	-2.3945873	
	0.48354485	-177.4112	0.48408263	2.6919572	0.50895778	-2.3945873	0.48744058	2.4681835	
	
0.107091510398389	0.48756235	2.2543824	0.50926456	-2.3849161	0.48451696	2.569467	0.48408599	-177.4299	
	0.50926456	-2.3849161	0.48806612	2.4075825	0.48327311	-177.46074	0.48468089	2.5873653	
	0.48451696	2.569467	0.48327311	-177.46074	0.48704085	2.4241188	0.50882872	-2.3264167	
	0.48408599	-177.4299	0.48468089	2.5873653	0.50882872	-2.3264167	0.48827561	2.5797678	
	
0.109565390708082	0.4883922	2.3436059	0.50971266	-2.3991741	0.48483229	2.5375609	0.48407446	-177.47084	
	0.50971266	-2.3991741	0.48608579	2.5028502	0.48441956	-177.65399	0.48540346	2.5075432	
	0.48483229	2.5375609	0.48441956	-177.65399	0.48709855	2.4067933	0.50949812	-2.3645697	
	0.48407446	-177.47084	0.48540346	2.5075432	0.50949812	-2.3645697	0.48699988	2.3316027	
	
0.112096419187261	0.48808512	2.1210312	0.50982778	-2.3408575	0.48451376	2.4898479	0.48393557	-177.50745	
	0.50982778	-2.3408575	0.48662966	2.3169791	0.48417325	-177.65314	0.48479108	2.4408633	
	0.48451376	2.4898479	0.48417325	-177.65314	0.48795423	2.2223411	0.5092758	-2.34404	
	0.48393557	-177.50745	0.48479108	2.4408633	0.5092758	-2.34404	0.48730688	2.4065499	
	
0.114685915994083	0.48812459	2.2105476	0.50911568	-2.2574125	0.48504492	2.4709501	0.4837316	-177.58903	
	0.50911568	-2.2574125	0.48635671	2.2626857	0.48467153	-177.62652	0.48560978	2.3913616	
	0.48504492	2.4709501	0.48467153	-177.62652	0.48866194	2.3080745	0.50869735	-2.2904332	
	0.4837316	-177.58903	0.48560978	2.3913616	0.50869735	-2.2904332	0.48750111	2.3303344	
	
0.117335231783182	0.48911614	2.1063062	0.50882637	-2.2880139	0.48533753	2.4435814	0.4846535	-177.63529	
	0.50882637	-2.2880139	0.48716148	2.26329	0.48454315	-177.6966	0.48555967	2.3681763	
	0.48533753	2.4435814	0.48454315	-177.6966	0.48834782	2.1775771	0.5085537	-2.2196495	
	0.4846535	-177.63529	0.48555967	2.3681763	0.5085537	-2.2196495	0.48759181	2.1772922	
	
0.120045748410147	0.48891299	2.0363746	0.50784807	-2.2539948	0.4850529	2.4488186	0.48348854	-177.66766	
	0.50784807	-2.2539948	0.48696067	2.0764599	0.48429537	-177.78677	0.48565111	2.2820468	
	0.4850529	2.4488186	0.48429537	-177.78677	0.48869682	2.10875	0.50851147	-2.1453327	
	0.48348854	-177.66766	0.48565111	2.2820468	0.50851147	-2.1453327	0.48722196	2.1675588	
	
0.122818879652292	0.48788012	2.1372454	0.50890033	-2.2158036	0.48520354	2.3887994	0.4843468	-177.68354	
	0.50890033	-2.2158036	0.48789047	2.1550258	0.48454755	-177.81651	0.4859188	2.2378304	
	0.48520354	2.3887994	0.48454755	-177.81651	0.48846685	2.0711302	0.50818863	-2.1633694	
	0.4843468	-177.68354	0.4859188	2.2378304	0.50818863	-2.1633694	0.48744148	2.1844658	
	
0.125656071946061	0.48877684	1.983421	0.50904979	-2.1796676	0.48583833	2.3190429	0.48535713	-177.68951	
	0.50904979	-2.1796676	0.48711828	2.0485851	0.48559028	-177.82429	0.48609998	2.2214142	
	0.48583833	2.3190429	0.48559028	-177.82429	0.48783359	2.1567587	0.50919621	-2.0923286	
	0.48535713	-177.68951	0.48609998	2.2214142	0.50919621	-2.0923286	0.48759318	2.0804356	
	
0.128558805141477	0.487598	1.9900706	0.5085756	-2.1278294	0.48538773	2.3471339	0.48392945	-177.79423	
	0.5085756	-2.1278294	0.48686037	2.1780726	0.48460602	-177.91861	0.48575711	2.1758185	
	0.48538773	2.3471339	0.48460602	-177.91861	0.48856487	2.1233121	0.50852069	-1.9932875	
	0.48392945	-177.79423	0.48575711	2.1758185	0.50852069	-1.9932875	0.48744781	2.1477208	
	
0.131528593274019	0.48965357	1.9565759	0.50833093	-2.0163862	0.48585011	2.2314101	0.48562934	-177.90471	
	0.50833093	-2.0163862	0.48826303	2.0434405	0.48565627	-177.91936	0.48625872	2.1232803	
	0.48585011	2.2314101	0.48565627	-177.91936	0.48915507	1.9478533	0.50859453	-2.0078766	
	0.48562934	-177.90471	0.48625872	2.1232803	0.50859453	-2.0078766	0.48730201	1.9329882	
	
0.134566985354323	0.48904921	1.9198822	0.50828975	-2.0064713	0.48535032	2.1575603	0.48443262	-177.949	
	0.50828975	-2.0064713	0.48771049	2.152985	0.48467216	-178.00108	0.48574452	2.1059218	
	0.48535032	2.1575603	0.48467216	-178.00108	0.48910984	2.0332682	0.50789478	-2.0031764	
	0.48443262	-177.949	0.48574452	2.1059218	0.50789478	-2.0031764	0.48743688	1.8720569	
	
0.13767556617613	0.48927629	1.8911432	0.50759142	-1.9755866	0.48497463	2.2014316	0.48355582	-177.90794	
	0.50759142	-1.9755866	0.48761551	2.0750676	0.48424808	-178.02376	0.48536609	2.0695623	
	0.48497463	2.2014316	0.48424808	-178.02376	0.48843144	1.8760523	0.50799589	-1.9220738	
	0.48355582	-177.90794	0.48536609	2.0695623	0.50799589	-1.9220738	0.48814142	1.873339	
	
0.140855957142902	0.48958825	1.8300166	0.50834699	-2.0295891	0.48567037	2.1448173	0.48496817	-177.97174	
	0.50834699	-2.0295891	0.48742453	1.9924914	0.48446953	-178.09771	0.4859917	2.0809494	
	0.48567037	2.1448173	0.48446953	-178.09771	0.48822423	1.901248	0.50780298	-1.9923534	
	0.48496817	-177.97174	0.4859917	2.0809494	0.50780298	-1.9923534	0.48665509	1.8912386	
	
0.144109817113524	0.48953915	1.8032612	0.50806191	-1.9215492	0.48547679	2.1127344	0.48442391	-177.96375	
	0.50806191	-1.9215492	0.48718623	1.9347385	0.48498079	-178.09546	0.48595312	1.9888092	
	0.48547679	2.1127344	0.48498079	-178.09546	0.48859079	1.8260327	0.50776189	-1.9387937	
	0.48442391	-177.96375	0.48595312	1.9888092	0.50776189	-1.9387937	0.48864567	1.8833215	
	
0.147438843267552	0.48884392	1.7946057	0.50810233	-1.8838407	0.48657186	2.0413799	0.48511545	-178.12472	
	0.50810233	-1.8838407	0.48845582	1.8887012	0.48584409	-178.15785	0.48652899	1.9670182	
	0.48657186	2.0413799	0.48584409	-178.15785	0.48823996	1.8326758	0.50799011	-1.8933949	
	0.48511545	-178.12472	0.48652899	1.9670182	0.50799011	-1.8933949	0.48760871	1.9176795	
	
0.150844771990442	0.48926306	1.7574044	0.50737194	-1.898215	0.48608631	2.0707772	0.48448754	-178.02199	
	0.50737194	-1.898215	0.48685955	1.8623299	0.48500749	-178.15138	0.48645823	1.9179143	
	0.48608631	2.0707772	0.48500749	-178.15138	0.48850144	1.7782887	0.50782807	-1.8133171	
	0.48448754	-178.02199	0.48645823	1.9179143	0.50782807	-1.8133171	0.48828409	1.8171704	
	
0.154329379779229	0.48935078	1.8056044	0.50803207	-1.7801487	0.48593651	2.0000067	0.48487466	-178.13672	
	0.50803207	-1.7801487	0.48788671	1.8873036	0.48550415	-178.26577	0.48662883	1.8928652	
	0.48593651	2.0000067	0.48550415	-178.26577	0.48811491	1.6278035	0.50725622	-1.8049293	
	0.48487466	-178.13672	0.48662883	1.8928652	0.50725622	-1.8049293	0.48880413	1.8271929	
	
0.157894484169135	0.48858566	1.678762	0.50807114	-1.797901	0.4856497	1.9304054	0.48520268	-178.16903	
	0.50807114	-1.797901	0.48717635	1.8355655	0.48537175	-178.21992	0.48648431	1.9029547	
	0.4856497	1.9304054	0.48537175	-178.21992	0.48968036	1.6831488	0.50775491	-1.8096462	
	0.48520268	-178.16903	0.48648431	1.9029547	0.50775491	-1.8096462	0.48834409	1.6932677	
	
0.16154194468157	0.48983917	1.6059582	0.50783549	-1.8141735	0.48597578	1.931251	0.48508258	-178.17441	
	0.50783549	-1.8141735	0.48773596	1.5877214	0.48546311	-178.23697	0.48659876	1.8763622	
	0.48597578	1.931251	0.48546311	-178.23697	0.4889873	1.567963	0.50727598	-1.7643614	
	0.48508258	-178.17441	0.48659876	1.8763622	0.50727598	-1.7643614	0.48849981	1.7898138	
	
0.165273663794043	0.48907187	1.6317793	0.50752727	-1.7989092	0.48603065	1.9099277	0.48488718	-178.20004	
	0.50752727	-1.7989092	0.48912213	1.6602488	0.48516014	-178.36524	0.48611537	1.8115756	
	0.48603065	1.9099277	0.48516014	-178.36524	0.4887851	1.6389829	0.50732897	-1.739771	
	0.48488718	-178.20004	0.48611537	1.8115756	0.50732897	-1.739771	0.48802442	1.6746411	
	
0.169091587932473	0.48920635	1.6149761	0.50724648	-1.7595876	0.48613744	1.8547338	0.48483337	-178.15351	
	0.50724648	-1.7595876	0.48881993	1.6376867	0.48529781	-178.30317	0.48630675	1.8185943	
	0.48613744	1.8547338	0.48529781	-178.30317	0.48923067	1.6181886	0.50698019	-1.744001	
	0.48483337	-178.15351	0.48630675	1.8185943	0.50698019	-1.744001	0.488382	1.7507672	
	
0.172997708486424	0.48935203	1.5060522	0.50755282	-1.679102	0.48644173	1.8712952	0.48552864	-178.3624	
	0.50755282	-1.679102	0.48901997	1.5666007	0.48539842	-178.3596	0.48605393	1.7140886	
	0.48644173	1.8712952	0.48539842	-178.3596	0.48917092	1.4835916	0.50750365	-1.6273294	
	0.48552864	-178.3624	0.48605393	1.7140886	0.50750365	-1.6273294	0.48818603	1.7115322	
	
0.176994062847797	0.48957355	1.53232	0.50722872	-1.690736	0.48661259	1.8042253	0.4850022	-178.33295	
	0.50722872	-1.690736	0.48847249	1.6779164	0.48583111	-178.49949	0.48656339	1.7472417	
	0.48661259	1.8042253	0.48583111	-178.49949	0.48959883	1.5626624	0.50701047	-1.6314156	
	0.4850022	-178.33295	0.48656339	1.7472417	0.50701047	-1.6314156	0.48820717	1.6434656	
	
0.181082735473506	0.4896512	1.3314807	0.50720864	-1.5973645	0.48641974	1.6939812	0.48563465	-178.31103	
	0.50720864	-1.5973645	0.48863203	1.5051937	0.48561198	-178.47277	0.48619947	1.6951819	
	0.48641974	1.6939812	0.48561198	-178.47277	0.48935479	1.6083989	0.50739389	-1.6304727	
	0.48563465	-178.31103	0.48619947	1.6951819	0.50739389	-1.6304727	0.48856122	1.4887956	
	
0.185265858972714	0.48951746	1.4811786	0.50743179	-1.5901978	0.48653734	1.7261386	0.48540461	-178.33505	
	0.50743179	-1.5901978	0.48871979	1.5762255	0.48608543	-178.48517	0.48650062	1.6463717	
	0.48653734	1.7261386	0.48608543	-178.48517	0.48941498	1.4474042	0.50700243	-1.5423859	
	0.48540461	-178.33505	0.48650062	1.6463717	0.50700243	-1.5423859	0.48933468	1.5000995	
	
0.18954561521918	0.48993392	1.456903	0.50644332	-1.6226137	0.48648798	1.6329115	0.48503462	-178.3886	
	0.50644332	-1.6226137	0.48794966	1.651165	0.48499312	-178.5809	0.486517	1.583352	
	0.48648798	1.6329115	0.48499312	-178.5809	0.48923542	1.5134476	0.50716174	-1.5248091	
	0.48503462	-178.3886	0.486517	1.583352	0.50716174	-1.5248091	0.48826877	1.5049335	
	
0.193924236489297	0.48971969	1.5284598	0.50698889	-1.5931515	0.48649394	1.6730329	0.48525109	-178.44304	
	0.50698889	-1.5931515	0.48824738	1.4944589	0.48587888	-178.55112	0.48676696	1.6095416	
	0.48649394	1.6730329	0.48587888	-178.55112	0.48943971	1.4201448	0.50714587	-1.5036872	
	0.48525109	-178.44304	0.48676696	1.6095416	0.50714587	-1.5036872	0.48908559	1.4452093	
	
0.19840400662643	0.48974132	1.3830025	0.50734502	-1.5531394	0.48626527	1.6947794	0.48543808	-178.48126	
	0.50734502	-1.5531394	0.48908586	1.4421492	0.48602961	-178.59055	0.48679694	1.5777727	
	0.48626527	1.6947794	0.48602961	-178.59055	0.4889772	1.3297343	0.50699172	-1.512692	
	0.48543808	-178.48126	0.48679694	1.5777727	0.50699172	-1.512692	0.4889257	1.397118	
	
0.202987262232139	0.48991625	1.3377497	0.50722451	-1.5327763	0.48630235	1.6053647	0.48549997	-178.3955	
	0.50722451	-1.5327763	0.4888301	1.5472481	0.48544248	-178.58778	0.48607392	1.5131409	
	0.48630235	1.6053647	0.48544248	-178.58778	0.48944021	1.3956955	0.50652033	-1.4857592	
	0.48549997	-178.3955	0.48607392	1.5131409	0.50652033	-1.4857592	0.48945302	1.4118447	
	
0.207676393884933	0.489748	1.3566401	0.50715299	-1.5550853	0.48686542	1.5967681	0.48559275	-178.50985	
	0.50715299	-1.5550853	0.48899039	1.4218438	0.4859926	-178.63487	0.48657303	1.5344787	
	0.48686542	1.5967681	0.4859926	-178.63487	0.49010644	1.2940839	0.50646375	-1.4515873	
	0.48559275	-178.50985	0.48657303	1.5344787	0.50646375	-1.4515873	0.4889661	1.3841752	
	
0.212473847387164	0.49027039	1.306966	0.50696194	-1.5274702	0.48670484	1.5840923	0.48559701	-178.55911	
	0.50696194	-1.5274702	0.48885574	1.4234711	0.48584887	-178.59175	0.48679401	1.4653939	
	0.48670484	1.5840923	0.48584887	-178.59175	0.4890192	1.3038336	0.50680954	-1.4311876	
	0.48559701	-178.55911	0.48679401	1.4653939	0.50680954	-1.4311876	0.48865095	1.3361049	
	
0.217382125040737	0.49146562	1.2776363	0.50667945	-1.4842265	0.48641148	1.5301529	0.48556362	-178.58832	
	0.50667945	-1.4842265	0.48841206	1.2682791	0.48605945	-178.67384	0.48694884	1.509697	
	0.48641148	1.5301529	0.48605945	-178.67384	0.48956639	1.4073684	0.50658689	-1.3468469	
	0.48556362	-178.58832	0.48694884	1.509697	0.50658689	-1.3468469	0.48920029	1.4248402	
	
0.222403786952283	0.49034473	1.3062381	0.50677785	-1.455657	0.4870926	1.4820603	0.48593448	-178.59805	
	0.50677785	-1.455657	0.48827425	1.4609746	0.48599918	-178.76754	0.48701491	1.4105886	
	0.4870926	1.4820603	0.48599918	-178.76754	0.48968302	1.3474324	0.50611674	-1.4241387	
	0.48593448	-178.59805	0.48701491	1.4105886	0.50611674	-1.4241387	0.48907833	1.2268953	
	
0.227541452368483	0.49014851	1.2234317	0.50667018	-1.3950674	0.48666947	1.5331616	0.48575205	-178.55224	
	0.50667018	-1.3950674	0.48915889	1.3157139	0.48586713	-178.68421	0.48696115	1.3518315	
	0.48666947	1.5331616	0.48586713	-178.68421	0.49013088	1.3060222	0.50629096	-1.3683788	
	0.48575205	-178.55224	0.48696115	1.3518315	0.50629096	-1.3683788	0.48909912	1.324183	
	
0.232797801042241	0.4910971	1.3245548	0.50702651	-1.4226949	0.4867684	1.4429594	0.48660423	-178.64095	
	0.50702651	-1.4226949	0.48839773	1.3378005	0.4862151	-178.74653	0.48758263	1.3767179	
	0.4867684	1.4429594	0.4862151	-178.74653	0.48976965	1.3031847	0.50618221	-1.3641136	
	0.48660423	-178.64095	0.48758263	1.3767179	0.50618221	-1.3641136	0.4893211	1.2737742	
	
0.238175574630416	0.49039148	1.1765193	0.50650259	-1.4125408	0.48694729	1.4465049	0.48607587	-178.68069	
	0.50650259	-1.4125408	0.4884972	1.2677491	0.48610199	-178.76473	0.48739323	1.3965325	
	0.48694729	1.4465049	0.48610199	-178.76473	0.49073686	1.3532208	0.50640628	-1.3784527	
	0.48607587	-178.68069	0.48739323	1.3965325	0.50640628	-1.3784527	0.48882171	1.2618461	
	
0.24367757812384	0.49049224	1.1373626	0.50668144	-1.3909767	0.4874251	1.4414076	0.48631337	-178.69242	
	0.50668144	-1.3909767	0.48955852	1.2729601	0.48713441	-178.88736	0.48746637	1.3436451	
	0.4874251	1.4414076	0.48713441	-178.88736	0.48933023	1.17912	0.5062837	-1.3267484	
	0.48631337	-178.69242	0.48746637	1.3436451	0.5062837	-1.3267484	0.48935772	1.3013975	
	
0.249306681310373	0.48982597	1.0476289	0.50670425	-1.4073539	0.48802288	1.45191	0.48672223	-178.69247	
	0.50670425	-1.4073539	0.48822391	1.2884314	0.48688335	-178.76249	0.48761621	1.3519795	
	0.48802288	1.45191	0.48688335	-178.76249	0.49001756	1.2877143	0.50674549	-1.3489035	
	0.48672223	-178.69247	0.48761621	1.3519795	0.50674549	-1.3489035	0.48902062	1.2446323	
	
0.255065820271756	0.49040887	1.0372592	0.50656437	-1.3457912	0.48762998	1.4365985	0.48669336	-178.72225	
	0.50656437	-1.3457912	0.48918621	1.223405	0.4869753	-178.88301	0.48715537	1.3380932	
	0.48762998	1.4365985	0.4869753	-178.88301	0.49005334	1.1702596	0.50659757	-1.2877277	
	0.48669336	-178.72225	0.48715537	1.3380932	0.50659757	-1.2877277	0.48886577	1.2169026	
	
0.260957998915036	0.49109274	1.0839084	0.50639449	-1.32314	0.48663216	1.4250738	0.4864463	-178.79268	
	0.50639449	-1.32314	0.48904365	1.1359957	0.48658545	-178.86191	0.48732423	1.2977869	
	0.48663216	1.4250738	0.48658545	-178.86191	0.48973106	1.1174883	0.50639681	-1.2809125	
	0.4864463	-178.79268	0.48732423	1.2977869	0.50639681	-1.2809125	0.48960195	1.2271918	
	
0.266986290539378	0.49026551	1.0931198	0.50618133	-1.3371069	0.48752308	1.3473804	0.48696923	-178.8074	
	0.50618133	-1.3371069	0.48887523	1.193701	0.4869057	-178.88721	0.48798692	1.2699314	
	0.48752308	1.3473804	0.4869057	-178.88721	0.49126626	1.1381697	0.50616234	-1.2677526	
	0.48696923	-178.8074	0.48798692	1.2699314	0.50616234	-1.2677526	0.48947412	1.1559874	
	
0.273153839439064	0.4905788	1.1724894	0.50695615	-1.3739635	0.48783844	1.37645	0.48699682	-178.80524	
	0.50695615	-1.3739635	0.48912861	1.2815288	0.4876064	-178.89536	0.48788843	1.2998331	
	0.48783844	1.37645	0.4876064	-178.89536	0.49011404	1.0730997	0.50630297	-1.2512406	
	0.48699682	-178.80524	0.48788843	1.2998331	0.50630297	-1.2512406	0.48953403	1.0618976	
	
0.279463862543524	0.49063636	0.98081963	0.50640186	-1.3380655	0.48810971	1.3314263	0.48739389	-178.82282	
	0.50640186	-1.3380655	0.48931372	1.1599238	0.48694336	-178.93435	0.48713805	1.1932264	
	0.48810971	1.3314263	0.48694336	-178.93435	0.49087212	1.0337433	0.50640599	-1.2515276	
	0.48739389	-178.82282	0.48713805	1.1932264	0.50640599	-1.2515276	0.48999875	1.1209632	
	
0.285919651095252	0.49074282	1.0710882	0.50615792	-1.2941358	0.48780361	1.3123146	0.48701037	-178.91783	
	0.50615792	-1.2941358	0.48972888	1.1864389	0.48705974	-178.99278	0.48789106	1.2061305	
	0.48780361	1.3123146	0.48705974	-178.99278	0.49015317	1.119974	0.50620546	-1.2747979	
	0.48701037	-178.91783	0.48789106	1.2061305	0.50620546	-1.2747979	0.48982001	1.1034223	
	
0.292524572366485	0.49162817	0.97741066	0.50581559	-1.2803458	0.48728967	1.3366721	0.48678957	-178.8997	
	0.50581559	-1.2803458	0.48985631	1.2838765	0.48726032	-179.08029	0.48775064	1.1523911	
	0.48728967	1.3366721	0.48726032	-179.08029	0.49017316	1.1701953	0.50583533	-1.2499513	
	0.48678957	-178.8997	0.48775064	1.1523911	0.50583533	-1.2499513	0.48929645	1.0712342	
	
0.299282071415539	0.49138146	1.0372016	0.5058994	-1.2620716	0.48713927	1.2464782	0.4863844	-178.94511	
	0.5058994	-1.2620716	0.48977373	1.2929617	0.48683095	-179.06687	0.48767062	1.0587985	
	0.48713927	1.2464782	0.48683095	-179.06687	0.49013275	1.1300728	0.50583442	-1.1980532	
	0.4863844	-178.94511	0.48767062	1.0587985	0.50583442	-1.1980532	0.48893694	1.1302845	
	
0.30619567288371	0.49078268	1.0975363	0.50610693	-1.3364054	0.48763705	1.2368428	0.48667134	-178.91091	
	0.50610693	-1.3364054	0.49050884	1.0892644	0.48727984	-179.07691	0.48732195	1.1045667	
	0.48763705	1.2368428	0.48727984	-179.07691	0.49037905	1.0549844	0.50593005	-1.1887177	
	0.48667134	-178.91091	0.48732195	1.1045667	0.50593005	-1.1887177	0.4905596	1.0640176	
	
0.313268982833699	0.49111877	0.88618619	0.50592141	-1.2425849	0.48812952	1.2591573	0.48663314	-178.93085	
	0.50592141	-1.2425849	0.48965234	1.0804737	0.48735041	-179.07265	0.48789956	1.111725	
	0.48812952	1.2591573	0.48735041	-179.07265	0.4905575	1.0234518	0.50550314	-1.1506871	
	0.48663314	-178.93085	0.48789956	1.111725	0.50550314	-1.1506871	0.48917359	1.0250775	
	
0.320505690630487	0.49059359	0.92776325	0.50627632	-1.1870081	0.48752822	1.2335019	0.48710306	-178.92145	
	0.50627632	-1.1870081	0.48913076	1.0685822	0.48709299	-178.98977	0.48860199	1.121687	
	0.48752822	1.2335019	0.48709299	-178.98977	0.4902097	0.93352966	0.5058917	-1.1112943	
	0.48710306	-178.92145	0.48860199	1.121687	0.5058917	-1.1112943	0.48993929	0.8606657	
	
0.327909570865677	0.49074221	0.7923483	0.50601287	-1.1337002	0.4884774	1.3205319	0.48756996	-178.91322	
	0.50601287	-1.1337002	0.48897637	0.90187025	0.48746476	-178.99166	0.48834019	1.135227	
	0.4884774	1.3205319	0.48746476	-178.99166	0.49117754	0.85378947	0.50572927	-1.0325785	
	0.48756996	-178.91322	0.48834019	1.135227	0.50572927	-1.0325785	0.49018213	0.8799049	
	
0.335484485326279	0.49043296	0.80248313	0.50571931	-1.16568	0.48812403	1.2174895	0.48701206	-178.95712	
	0.50571931	-1.16568	0.48989094	0.93748982	0.48730204	-178.98819	0.48844379	1.2330417	
	0.48812403	1.2174895	0.48730204	-178.98819	0.48995082	0.7616214	0.50570674	-1.0412186	
	0.48701206	-178.95712	0.48844379	1.2330417	0.50570674	-1.0412186	0.49016929	0.85526043	
	
0.343234385008977	0.49017236	0.81243298	0.50566975	-1.1733445	0.48861852	1.2179076	0.48732682	-178.97944	
