# MHz S MA R 50

0.1	0.40540894	29.355932	0.67276575	-17.330277	0.4056245	30.016242	0.40421904	-150.17451	
	0.67276575	-17.330277	0.40641161	29.928416	0.40619198	-150.47592	0.40720526	29.316457	
	0.4056245	30.016242	0.40619198	-150.47592	0.40533796	29.412889	0.67313506	-17.406448	
	0.40421904	-150.17451	0.40720526	29.316457	0.67313506	-17.406448	0.40824417	29.670185	
	
0.102310062021247	0.40864586	28.920127	0.66766475	-17.443891	0.40917634	29.702893	0.40843836	-150.41874	
	0.66766475	-17.443891	0.41004851	29.26319	0.40908474	-150.68828	0.41071802	29.129538	
	0.40917634	29.702893	0.40908474	-150.68828	0.41030835	28.868521	0.66785199	-17.537583	
	0.40843836	-150.41874	0.41071802	29.129538	0.66785199	-17.537583	0.41142511	29.14352	
	
0.104673487907914	0.4129535	28.487692	0.66505395	-17.386674	0.41038573	28.861255	0.40967396	-151.08122	
	0.66505395	-17.386674	0.4119069	28.732197	0.4095435	-151.14376	0.41015135	29.034827	
	0.41038573	28.861255	0.4095435	-151.14376	0.41310329	28.71699	0.66373639	-17.34648	
	0.40967396	-151.08122	0.41015135	29.034827	0.66373639	-17.34648	0.41201692	28.630143	
	
0.107091510398389	0.41398107	27.971304	0.66056693	-17.308849	0.41324895	28.488809	0.41241401	-151.56753	
	0.66056693	-17.308849	0.41445099	28.30414	0.41217421	-151.50068	0.4127906	28.479277	
	0.41324895	28.488809	0.41217421	-151.50068	0.41533996	28.238937	0.66019195	-17.268236	
	0.41241401	-151.56753	0.4127906	28.479277	0.66019195	-17.268236	0.41562254	28.210503	
	
0.109565390708082	0.41680874	27.537116	0.65657692	-17.160174	0.41526376	27.913257	0.41441449	-152.09725	
	0.65657692	-17.160174	0.41622471	27.838643	0.41474635	-152.288	0.41595367	27.822031	
	0.41526376	27.913257	0.41474635	-152.288	0.41661437	27.674696	0.65599246	-17.179797	
	0.41441449	-152.09725	0.41595367	27.822031	0.65599246	-17.179797	0.41660421	27.563767	
	
0.112096419187261	0.41804906	26.891479	0.65259617	-17.107699	0.41740158	27.407832	0.4164717	-152.58389	
	0.65259617	-17.107699	0.41841646	27.099755	0.41639435	-152.66181	0.41702511	27.308662	
	0.41740158	27.407832	0.41639435	-152.66181	0.41884887	27.079692	0.6518957	-17.125728	
	0.4164717	-152.58389	0.41702511	27.308662	0.6518957	-17.125728	0.41874491	27.207574	
	
0.114685915994083	0.42142857	26.570612	0.64798488	-16.968667	0.41966179	26.895157	0.41866354	-153.14953	
	0.64798488	-16.968667	0.42040469	26.795675	0.4194652	-153.12372	0.42034761	26.810457	
	0.41966179	26.895157	0.4194652	-153.12372	0.4216247	26.623378	0.64784507	-17.010486	
	0.41866354	-153.14953	0.42034761	26.810457	0.64784507	-17.010486	0.42110784	26.706323	
	
0.117335231783182	0.42294745	25.952793	0.64423541	-16.919082	0.42202824	26.466045	0.42165144	-153.56782	
	0.64423541	-16.919082	0.4229419	26.251661	0.4212622	-153.6041	0.42263411	26.347916	
	0.42202824	26.466045	0.4212622	-153.6041	0.42300911	26.081903	0.64371892	-16.913474	
	0.42165144	-153.56782	0.42263411	26.347916	0.64371892	-16.913474	0.42348684	26.16077	
	
0.120045748410147	0.42509009	25.516352	0.63978209	-16.811388	0.42361992	26.057491	0.42218565	-154.04634	
	0.63978209	-16.811388	0.42393426	25.864607	0.42245619	-154.10336	0.42417543	25.726836	
	0.42361992	26.057491	0.42245619	-154.10336	0.42510046	25.587988	0.63959194	-16.767743	
	0.42218565	-154.04634	0.42417543	25.726836	0.63959194	-16.767743	0.42485951	25.602437	
	
0.122818879652292	0.42631576	25.116067	0.63702247	-16.674379	0.42611905	25.46907	0.42522054	-154.56307	
	0.63702247	-16.674379	0.42680882	25.276523	0.42554342	-154.64714	0.42639675	25.314745	
	0.42611905	25.46907	0.42554342	-154.64714	0.42716895	25.09764	0.63634228	-16.672398	
	0.42522054	-154.56307	0.42639675	25.314745	0.63634228	-16.672398	0.42672477	25.299475	
	
0.125656071946061	0.42896445	24.616177	0.63334746	-16.563023	0.42786173	25.046013	0.42757038	-154.97907	
	0.63334746	-16.563023	0.42855252	24.894297	0.4277678	-155.12081	0.42840754	24.900921	
	0.42786173	25.046013	0.4277678	-155.12081	0.42890289	24.679772	0.63263077	-16.505691	
	0.42757038	-154.97907	0.42840754	24.900921	0.63263077	-16.505691	0.42884911	24.752834	
	
0.128558805141477	0.42984216	24.081855	0.62920629	-16.42353	0.42962178	24.578639	0.4283817	-155.50707	
	0.62920629	-16.42353	0.43030949	24.364396	0.42827493	-155.66461	0.42944869	24.359163	
	0.42962178	24.578639	0.42827493	-155.66461	0.4312857	24.196126	0.62848982	-16.334441	
	0.4283817	-155.50707	0.42944869	24.359163	0.62848982	-16.334441	0.43002065	24.244812	
	
0.131528593274019	0.4330129	23.808989	0.62583008	-16.272335	0.43149409	24.105685	0.43140657	-155.98694	
	0.62583008	-16.272335	0.43270248	23.929083	0.43076232	-156.04322	0.43189738	23.925257	
	0.43149409	24.105685	0.43076232	-156.04322	0.43365385	23.692287	0.6250809	-16.281787	
	0.43140657	-155.98694	0.43189738	23.925257	0.6250809	-16.281787	0.4318253	23.862875	
	
0.134566985354323	0.43379344	23.163947	0.62196831	-16.10418	0.43251204	23.595499	0.43159194	-156.43156	
	0.62196831	-16.10418	0.43402521	23.497489	0.43132374	-156.51747	0.43284971	23.498041	
	0.43251204	23.595499	0.43132374	-156.51747	0.43524263	23.527774	0.62064058	-16.127286	
	0.43159194	-156.43156	0.43284971	23.498041	0.62064058	-16.127286	0.4342385	23.329203	
	
0.13767556617613	0.43576782	22.795439	0.61800089	-16.00264	0.43386522	23.203892	0.43244361	-156.781	
	0.61800089	-16.00264	0.43508531	23.063844	0.4330104	-156.8943	0.43399636	23.055148	
	0.43386522	23.203892	0.4330104	-156.8943	0.43611427	22.764335	0.61828517	-15.991415	
	0.43244361	-156.781	0.43399636	23.055148	0.61828517	-15.991415	0.43534967	22.803289	
	
0.140855957142902	0.4371521	22.344925	0.61587847	-15.872212	0.43617272	22.777443	0.43484837	-157.30886	
	0.61587847	-15.872212	0.4362522	22.626702	0.43514232	-157.43236	0.43676294	22.588344	
	0.43617272	22.777443	0.43514232	-157.43236	0.43796037	22.409999	0.61446726	-15.842402	
	0.43484837	-157.30886	0.43676294	22.588344	0.61446726	-15.842402	0.43559944	22.363819	
	
0.144109817113524	0.43874733	21.904777	0.61228551	-15.643512	0.43727126	22.311946	0.43647619	-157.71965	
	0.61228551	-15.643512	0.43856787	22.051639	0.43688243	-157.83545	0.43785534	22.215586	
	0.43727126	22.311946	0.43688243	-157.83545	0.43940836	22.032606	0.61157259	-15.692847	
	0.43647619	-157.71965	0.43785534	22.215586	0.61157259	-15.692847	0.43899541	22.089722	
	
0.147438843267552	0.44068842	21.519032	0.60880097	-15.508898	0.43974081	21.792284	0.43789207	-158.28859	
	0.60880097	-15.508898	0.44023899	21.528012	0.43824141	-158.36285	0.43920699	21.769135	
	0.43974081	21.792284	0.43824141	-158.36285	0.44042815	21.6562	0.60819261	-15.535949	
	0.43789207	-158.28859	0.43920699	21.769135	0.60819261	-15.535949	0.43967524	21.640747	
	
0.150844771990442	0.44116194	21.110279	0.60554046	-15.325776	0.44044029	21.462838	0.43912846	-158.5619	
	0.60554046	-15.325776	0.44037705	21.228415	0.4398639	-158.72881	0.44081588	21.2743	
	0.44044029	21.462838	0.4398639	-158.72881	0.44267683	21.177761	0.60534995	-15.324025	
	0.43912846	-158.5619	0.44081588	21.2743	0.60534995	-15.324025	0.44211451	21.178897	
	
0.154329379779229	0.44308938	20.812808	0.60294396	-15.107984	0.44226819	20.970791	0.44053914	-159.06406	
	0.60294396	-15.107984	0.44267103	20.889552	0.44204739	-159.20271	0.44254698	20.808394	
	0.44226819	20.970791	0.44204739	-159.20271	0.44306401	20.623634	0.60209861	-15.170358	
	0.44053914	-159.06406	0.44254698	20.808394	0.60209861	-15.170358	0.44351648	20.734382	
	
0.157894484169135	0.4446249	20.186098	0.5999751	-14.939959	0.44342279	20.569244	0.44279494	-159.48783	
	0.5999751	-14.939959	0.44364958	20.518479	0.44285031	-159.57215	0.44362596	20.454334	
	0.44342279	20.569244	0.44285031	-159.57215	0.44590138	20.319331	0.599389	-14.990523	
	0.44279494	-159.48783	0.44362596	20.454334	0.599389	-14.990523	0.443942	20.302759	
	
0.16154194468157	0.44653983	19.773841	0.59721973	-14.790146	0.44445471	20.169186	0.44343275	-159.90252	
	0.59721973	-14.790146	0.44478322	19.911308	0.44434564	-159.97866	0.44488407	20.076805	
	0.44445471	20.169186	0.44434564	-159.97866	0.44614617	19.880954	0.59604003	-14.820336	
	0.44343275	-159.90252	0.44488407	20.076805	0.59604003	-14.820336	0.4462493	19.995634	
	
0.165273663794043	0.44728856	19.36227	0.59417525	-14.662569	0.44533871	19.788966	0.44465738	-160.22954	
	0.59417525	-14.662569	0.44687168	19.643719	0.44466344	-160.40704	0.44576429	19.666086	
	0.44533871	19.788966	0.44466344	-160.40704	0.44681181	19.435546	0.59348401	-14.649884	
	0.44465738	-160.22954	0.44576429	19.666086	0.59348401	-14.649884	0.4467054	19.474451	
	
0.169091587932473	0.4474919	18.963093	0.59150051	-14.48353	0.44706984	19.349629	0.44583018	-160.62312	
	0.59150051	-14.48353	0.44820576	19.120638	0.44621317	-160.74714	0.44689705	19.272757	
	0.44706984	19.349629	0.44621317	-160.74714	0.44872452	19.123162	0.5906438	-14.486509	
	0.44583018	-160.62312	0.44689705	19.272757	0.5906438	-14.486509	0.44825878	19.095408	
	
0.172997708486424	0.44862937	18.594015	0.58927737	-14.254699	0.44845213	19.018411	0.44744075	-161.14117	
	0.58927737	-14.254699	0.44900731	18.733324	0.44720735	-161.18698	0.44807266	18.840442	
	0.44845213	19.018411	0.44720735	-161.18698	0.44950292	18.641195	0.58847617	-14.200387	
	0.44744075	-161.14117	0.44807266	18.840442	0.58847617	-14.200387	0.44913304	18.77145	
	
0.176994062847797	0.4504251	18.258	0.58586245	-14.084349	0.44908644	18.563252	0.44763297	-161.47569	
	0.58586245	-14.084349	0.4496012	18.476596	0.44783696	-161.65832	0.44931992	18.430542	
	0.44908644	18.563252	0.44783696	-161.65832	0.45120771	18.303539	0.58538316	-14.04067	
	0.44763297	-161.47569	0.44931992	18.430542	0.58538316	-14.04067	0.44997498	18.283385	
	
0.181082735473506	0.45112773	17.735147	0.58343038	-13.831148	0.44997018	18.118114	0.44919556	-161.78925	
	0.58343038	-13.831148	0.45140024	17.993369	0.4492964	-162.02346	0.45020937	18.119656	
	0.44997018	18.118114	0.4492964	-162.02346	0.45198201	17.965995	0.58298376	-13.849176	
	0.44919556	-161.78925	0.45020937	18.119656	0.58298376	-13.849176	0.45082165	17.887158	
	
0.185265858972714	0.45223324	17.408664	0.5813499	-13.641413	0.45077993	17.783379	0.44969981	-162.21152	
	0.5813499	-13.641413	0.45229311	17.653075	0.45028511	-162.36432	0.45080478	17.640117	
	0.45077993	17.783379	0.45028511	-162.36432	0.45301574	17.53342	0.58027068	-13.638326	
	0.44969981	-162.21152	0.45080478	17.640117	0.58027068	-13.638326	0.45300302	17.573371	
	
0.18954561521918	0.45375441	17.141487	0.57896516	-13.473096	0.45136892	17.369489	0.45043136	-162.55503	
	0.57896516	-13.473096	0.45211923	17.32118	0.45056797	-162.79956	0.45185755	17.263832	
	0.45136892	17.369489	0.45056797	-162.79956	0.45371341	17.209422	0.57819885	-13.408331	
	0.45043136	-162.55503	0.45185755	17.263832	0.57819885	-13.408331	0.45335539	17.187795	
	
0.193924236489297	0.45449355	16.774156	0.57714952	-13.289055	0.45266804	17.045357	0.4516796	-162.99951	
	0.57714952	-13.289055	0.45318288	16.953727	0.45221971	-163.06517	0.45297193	17.008915	
	0.45266804	17.045357	0.45221971	-163.06517	0.45486777	16.813811	0.57634817	-13.223602	
	0.4516796	-162.99951	0.45297193	17.008915	0.57634817	-13.223602	0.45422738	16.859584	
	
0.19840400662643	0.45525202	16.314463	0.57463857	-13.04932	0.45399807	16.718449	0.45266045	-163.36719	
	0.57463857	-13.04932	0.45418519	16.547078	0.45384861	-163.46805	0.45429878	16.614383	
	0.45399807	16.718449	0.45384861	-163.46805	0.45579405	16.49538	0.57411103	-13.057425	
	0.45266045	-163.36719	0.45429878	16.614383	0.57411103	-13.057425	0.45562472	16.375791	
	
0.202987262232139	0.45556369	16.022917	0.5728233	-12.824459	0.45409567	16.274691	0.45335152	-163.59984	
	0.5728233	-12.824459	0.45557425	16.216885	0.45342305	-163.80035	0.45423463	16.204762	
	0.45409567	16.274691	0.45342305	-163.80035	0.45573531	16.123254	0.57168376	-12.885633	
	0.45335152	-163.59984	0.45423463	16.204762	0.57168376	-12.885633	0.45580944	16.081903	
	
0.207676393884933	0.4565015	15.75491	0.57071299	-12.6605	0.45521052	16.012234	0.45403313	-164.08856	
	0.57071299	-12.6605	0.45580816	15.810331	0.45489713	-164.18496	0.45571803	15.855876	
	0.45521052	16.012234	0.45489713	-164.18496	0.45710584	15.673211	0.57015588	-12.656588	
	0.45403313	-164.08856	0.45571803	15.855876	0.57015588	-12.656588	0.45666586	15.695095	
	
0.212473847387164	0.45832789	15.373088	0.56852306	-12.451192	0.45626378	15.657179	0.45505913	-164.39365	
	0.56852306	-12.451192	0.45675194	15.578309	0.45536823	-164.44244	0.45612494	15.529339	
	0.45626378	15.657179	0.45536823	-164.44244	0.45684202	15.36001	0.56835684	-12.448057	
	0.45505913	-164.39365	0.45612494	15.529339	0.56835684	-12.448057	0.45763666	15.427677	
	
0.217382125040737	0.45956903	15.00557	0.56684565	-12.303138	0.45620125	15.280754	0.45525947	-164.70041	
	0.56684565	-12.303138	0.45696354	15.155923	0.45591835	-164.8733	0.45713157	15.209633	
	0.45620125	15.280754	0.45591835	-164.8733	0.4575938	15.111144	0.5661171	-12.217016	
	0.45525947	-164.70041	0.45713157	15.209633	0.5661171	-12.217016	0.45757583	15.082098	
	
0.222403786952283	0.45956763	14.809386	0.56504804	-12.040623	0.45738282	14.954683	0.45684784	-165.02294	
	0.56504804	-12.040623	0.4580481	14.927821	0.45695677	-165.24441	0.45766445	14.897469	
	0.45738282	14.954683	0.45695677	-165.24441	0.45980841	14.753384	0.56440875	-12.059824	
	0.45684784	-165.02294	0.45766445	14.897469	0.56440875	-12.059824	0.45913251	14.791071	
	
0.227541452368483	0.45919921	14.282332	0.56282527	-11.850031	0.4577313	14.680145	0.45672259	-165.32219	
	0.56282527	-11.850031	0.45994829	14.51244	0.45687902	-165.46266	0.45777826	14.490662	
	0.4577313	14.680145	0.45687902	-165.46266	0.45974106	14.507104	0.56256785	-11.830658	
	0.45672259	-165.32219	0.45777826	14.490662	0.56256785	-11.830658	0.45958568	14.517832	
	
0.232797801042241	0.46052413	14.110663	0.56213245	-11.644799	0.45850094	14.284716	0.45780929	-165.70878	
	0.56213245	-11.644799	0.45931755	14.192068	0.45834716	-165.77966	0.45918813	14.274025	
	0.45850094	14.284716	0.45834716	-165.77966	0.46129136	14.200049	0.56082442	-11.638106	
	0.45780929	-165.70878	0.45918813	14.274025	0.56082442	-11.638106	0.45951517	14.252553	
	
0.238175574630416	0.46078199	13.774908	0.55956637	-11.472588	0.45907109	14.050939	0.45805903	-165.97511	
	0.55956637	-11.472588	0.45997396	13.904128	0.45812832	-166.07413	0.45928789	13.924184	
	0.45907109	14.050939	0.45812832	-166.07413	0.46199672	13.9284	0.55963851	-11.44336	
	0.45805903	-165.97511	0.45928789	13.924184	0.55963851	-11.44336	0.46018126	13.849921	
	
0.24367757812384	0.46143944	13.381489	0.55838958	-11.273169	0.45992986	13.769825	0.45820707	-166.29729	
	0.55838958	-11.273169	0.46138507	13.540652	0.45914037	-166.46257	0.45973994	13.594509	
	0.45992986	13.769825	0.45914037	-166.46257	0.46054274	13.603799	0.55745476	-11.216555	
	0.45820707	-166.29729	0.45973994	13.594509	0.55745476	-11.216555	0.46004673	13.601381	
	
0.249306681310373	0.46208968	13.076689	0.55747914	-11.042956	0.46117602	13.42173	0.46001406	-166.58738	
	0.55747914	-11.042956	0.46020151	13.368198	0.46028829	-166.68947	0.46083705	13.365238	
	0.46117602	13.42173	0.46028829	-166.68947	0.46130469	13.281827	0.55704858	-11.024229	
	0.46001406	-166.58738	0.46083705	13.365238	0.55704858	-11.024229	0.46163133	13.276585	
	
0.255065820271756	0.46271257	12.800136	0.55585146	-10.874335	0.46123593	13.157513	0.46033348	-166.87609	
	0.55585146	-10.874335	0.46173444	13.002005	0.46088944	-167.02974	0.46118935	13.063216	
	0.46123593	13.157513	0.46088944	-167.02974	0.46226353	13.01043	0.55519027	-10.826941	
	0.46033348	-166.87609	0.46118935	13.063216	0.55519027	-10.826941	0.46264329	13.02604	
	
0.260957998915036	0.46400549	12.682652	0.55426579	-10.64247	0.46105095	12.914499	0.46062881	-167.17247	
	0.55426579	-10.64247	0.4625728	12.730279	0.46075676	-167.25955	0.46167896	12.83051	
	0.46105095	12.914499	0.46075676	-167.25955	0.46279085	12.572994	0.55379084	-10.688462	
	0.46062881	-167.17247	0.46167896	12.83051	0.55379084	-10.688462	0.46268701	12.713442	
	
0.266986290539378	0.46323362	12.302398	0.55315219	-10.497331	0.46188786	12.577586	0.46122202	-167.46153	
	0.55315219	-10.497331	0.46280839	12.498702	0.4614329	-167.55583	0.46244389	12.471534	
	0.46188786	12.577586	0.4614329	-167.55583	0.46450548	12.473524	0.55222774	-10.430359	
	0.46122202	-167.46153	0.46244389	12.471534	0.55222774	-10.430359	0.46285946	12.440859	
	
0.273153839439064	0.46380555	12.138834	0.55246003	-10.307382	0.46243688	12.310395	0.46174163	-167.69861	
	0.55246003	-10.307382	0.4631427	12.194616	0.46198851	-167.8019	0.46258167	12.240051	
	0.46243688	12.310395	0.46198851	-167.8019	0.46388767	12.105627	0.55114101	-10.226903	
	0.46174163	-167.69861	0.46258167	12.240051	0.55114101	-10.226903	0.46346965	12.208952	
	
0.279463862543524	0.46455901	11.793746	0.55115942	-10.121087	0.46338078	12.087507	0.46241855	-167.99229	
	0.55115942	-10.121087	0.46349638	11.952996	0.46256128	-168.06417	0.462561	11.981609	
	0.46338078	12.087507	0.46256128	-168.06417	0.46452362	11.752011	0.55025847	-10.085824	
	0.46241855	-167.99229	0.462561	11.981609	0.55025847	-10.085824	0.46407687	11.92336	
	
0.285919651095252	0.46508979	11.608975	0.54968268	-9.9475538	0.46302684	11.783041	0.46243694	-168.31717	
	0.54968268	-9.9475538	0.46438327	11.739961	0.46266352	-168.36044	0.46335472	11.714369	
	0.46302684	11.783041	0.46266352	-168.36044	0.46485843	11.63696	0.54928632	-9.9539061	
	0.46243694	-168.31717	0.46335472	11.714369	0.54928632	-9.9539061	0.46384829	11.574747	
	
0.292524572366485	0.46516601	11.312327	0.54837804	-9.7525817	0.4635242	11.553647	0.46294276	-168.52657	
	0.54837804	-9.7525817	0.4647703	11.616994	0.46337693	-168.74138	0.46387403	11.368545	
	0.4635242	11.553647	0.46337693	-168.74138	0.46575296	11.464838	0.5481628	-9.7440835	
	0.46294276	-168.52657	0.46387403	11.368545	0.5481628	-9.7440835	0.46452149	11.440959	
	
0.299282071415539	0.46624973	11.140359	0.5473149	-9.5506493	0.46336067	11.277768	0.46263715	-168.76214	
	0.5473149	-9.5506493	0.46440122	11.406232	0.46282393	-168.91483	0.46358786	11.091898	
	0.46336067	11.277768	0.46282393	-168.91483	0.46532352	11.196633	0.54723937	-9.5269027	
	0.46263715	-168.76214	0.46358786	11.091898	0.54723937	-9.5269027	0.46506408	11.323418	
	
0.30619567288371	0.46581543	10.980971	0.54677381	-9.4336864	0.46389077	11.026014	0.46308609	-169.00868	
	0.54677381	-9.4336864	0.46584831	10.97081	0.46350341	-169.14	0.46373423	10.90263	
	0.46389077	11.026014	0.46350341	-169.14	0.46532521	11.093413	0.54577392	-9.3169827	
	0.46308609	-169.00868	0.46373423	10.90263	0.54577392	-9.3169827	0.46579918	10.915098	
	
0.313268982833699	0.46618189	10.545925	0.54513389	-9.2040092	0.46449919	10.807345	0.46335214	-169.20743	
	0.54513389	-9.2040092	0.46579664	10.710363	0.46369058	-169.36515	0.46471067	10.691858	
	0.46449919	10.807345	0.46369058	-169.36515	0.46640778	10.643863	0.54432316	-9.1471535	
	0.46335214	-169.20743	0.46471067	10.691858	0.54432316	-9.1471535	0.46493636	10.622353	
	
0.320505690630487	0.4658295	10.307677	0.54475968	-9.0134196	0.46443869	10.59657	0.46417002	-169.46745	
	0.54475968	-9.0134196	0.46592778	10.44018	0.46421309	-169.53596	0.46533938	10.447722	
	0.46443869	10.59657	0.46421309	-169.53596	0.46655093	10.336158	0.54421356	-8.9599863	
	0.46417002	-169.46745	0.46533938	10.447722	0.54421356	-8.9599863	0.46555127	10.317636	
	
0.327909570865677	0.46566927	9.8886078	0.54352952	-8.8147521	0.4659038	10.462678	0.46462487	-169.6465	
	0.54352952	-8.8147521	0.4651893	10.108585	0.46520408	-169.70519	0.46589822	10.278435	
	0.4659038	10.462678	0.46520408	-169.70519	0.46697774	10.016817	0.54313621	-8.729911	
	0.46462487	-169.6465	0.46589822	10.278435	0.54313621	-8.729911	0.46633593	10.1027	
	
0.335484485326279	0.46688869	9.7972613	0.54263487	-8.6556295	0.4657996	10.173282	0.46474587	-169.871	
	0.54263487	-8.6556295	0.46614168	9.9883952	0.46519701	-169.89665	0.46602742	10.159063	
	0.4657996	10.173282	0.46519701	-169.89665	0.46659066	9.766373	0.54235782	-8.5994712	
	0.46474587	-169.871	0.46602742	10.159063	0.54235782	-8.5994712	0.46654787	9.8275518	
	
0.343234385008977	0.46644825	9.5749464	0.54222679	-8.5100621	0.46634324	9.9296464	0.46562212	-170.12048	
