# MHz S MA R 50

0.1	0.35597319	11.405272	0.6514702	-6.3357456	0.4238262	11.893042	0.42289075	-168.24591	
	0.6514702	-6.3357456	0.3534957	12.285429	0.42482223	-168.57751	0.42606301	11.373734	
	0.4238262	11.893042	0.42482223	-168.57751	0.51036832	11.294606	0.50646738	-11.73892	
	0.42289075	-168.24591	0.42606301	11.373734	0.50646738	-11.73892	0.51052237	11.495652	
	
0.102310062021247	0.35693457	11.062709	0.64950406	-6.2710396	0.42571884	11.801725	0.42447538	-168.25866	
	0.64950406	-6.2710396	0.35600235	11.556166	0.4262692	-168.57006	0.42708314	11.357558	
	0.42571884	11.801725	0.4262692	-168.57006	0.51302165	11.165353	0.50379776	-11.714713	
	0.42447538	-168.25866	0.42708314	11.357558	0.50379776	-11.714713	0.51234675	11.326194	
	
0.104673487907914	0.35817952	11.127299	0.64894242	-6.2101627	0.42570526	11.317383	0.4248914	-168.62657	
	0.64894242	-6.2101627	0.35801097	11.176814	0.42480808	-168.68414	0.42567629	11.422933	
	0.42570526	11.317383	0.42480808	-168.68414	0.51272583	11.207701	0.5025515	-11.458182	
	0.4248914	-168.62657	0.42567629	11.422933	0.5025515	-11.458182	0.51222545	11.193731	
	
0.107091510398389	0.35851679	10.7905	0.64822082	-6.1121017	0.42679953	11.18943	0.42618881	-168.81277	
	0.64822082	-6.1121017	0.35819403	11.072358	0.42582981	-168.80582	0.4264335	11.18746	
	0.42679953	11.18943	0.42582981	-168.80582	0.51347717	11.012878	0.50175239	-11.254968	
	0.42618881	-168.81277	0.4264335	11.18746	0.50175239	-11.254968	0.5136812	11.10477	
	
0.109565390708082	0.35934899	10.747492	0.64755949	-6.0369967	0.4274403	11.020401	0.42675069	-168.98773	
	0.64755949	-6.0369967	0.35754891	10.968431	0.42696489	-169.21898	0.42806632	10.901174	
	0.4274403	11.020401	0.42696489	-169.21898	0.51369466	10.846423	0.50040911	-11.147031	
	0.42675069	-168.98773	0.42806632	10.901174	0.50040911	-11.147031	0.51425822	10.739082	
	
0.112096419187261	0.35949516	10.4335	0.64703815	-5.9328924	0.4276987	10.826441	0.42730241	-169.13526	
	0.64703815	-5.9328924	0.3584967	10.598006	0.42715773	-169.31047	0.42781462	10.714786	
	0.4276987	10.826441	0.42715773	-169.31047	0.51506448	10.626311	0.49932341	-11.002959	
	0.42730241	-169.13526	0.42781462	10.714786	0.49932341	-11.002959	0.51390996	10.69349	
	
0.114685915994083	0.35953488	10.371096	0.64586371	-5.7953409	0.42843616	10.622509	0.42753325	-169.39805	
	0.64586371	-5.7953409	0.35827325	10.535688	0.42859739	-169.44301	0.42951037	10.521594	
	0.42843616	10.622509	0.42859739	-169.44301	0.51678121	10.409038	0.49760522	-10.899644	
	0.42753325	-169.39805	0.42951037	10.521594	0.49760522	-10.899644	0.51562896	10.453897	
	
0.117335231783182	0.36000296	10.025863	0.64492722	-5.7670772	0.42921219	10.476022	0.42868627	-169.55746	
	0.64492722	-5.7670772	0.35911322	10.364359	0.42873874	-169.6193	0.43029796	10.373096	
	0.42921219	10.476022	0.42873874	-169.6193	0.51672739	10.265415	0.49638481	-10.708553	
	0.42868627	-169.55746	0.43029796	10.373096	0.49638481	-10.708553	0.51645034	10.280254	
	
0.120045748410147	0.36127508	9.8692815	0.64325875	-5.6673642	0.42991022	10.28752	0.42817498	-169.6846	
	0.64325875	-5.6673642	0.35866638	10.230644	0.42910984	-169.80499	0.43027479	10.154745	
	0.42991022	10.28752	0.42910984	-169.80499	0.51747067	9.9628349	0.4953851	-10.542018	
	0.42817498	-169.6846	0.43027479	10.154745	0.4953851	-10.542018	0.51619939	10.10534	
	
0.122818879652292	0.36137395	9.7881007	0.64386138	-5.5787583	0.43030414	10.101705	0.42958899	-169.93989	
	0.64386138	-5.5787583	0.36090788	10.003324	0.43009217	-170.00466	0.43084307	9.9964019	
	0.43030414	10.101705	0.43009217	-170.00466	0.51822286	9.7950318	0.49380335	-10.425257	
	0.42958899	-169.93989	0.43084307	9.9964019	0.49380335	-10.425257	0.51657105	10.009795	
	
0.125656071946061	0.36175868	9.5411493	0.64328846	-5.5122699	0.43124061	9.9946507	0.43089253	-170.00696	
	0.64328846	-5.5122699	0.3605061	9.7682205	0.43134271	-170.1845	0.43169484	9.818127	
	0.43124061	9.9946507	0.43134271	-170.1845	0.51810691	9.7344538	0.49326653	-10.263524	
	0.43089253	-170.00696	0.43169484	9.818127	0.49326653	-10.263524	0.51795091	9.7473601	
	
0.128558805141477	0.361132	9.2468179	0.64208779	-5.400944	0.43160848	9.789664	0.4304705	-170.25243	
	0.64208779	-5.400944	0.36094645	9.7751395	0.43080304	-170.42957	0.43215511	9.6122824	
	0.43160848	9.789664	0.43080304	-170.42957	0.51895362	9.6037833	0.49182824	-10.107248	
	0.4304705	-170.25243	0.43215511	9.6122824	0.49182824	-10.107248	0.51766494	9.5437114	
	
0.131528593274019	0.36211324	9.2555967	0.64130336	-5.3047304	0.43225871	9.6230229	0.43163245	-170.48409	
	0.64130336	-5.3047304	0.36268282	9.6440318	0.43185548	-170.53365	0.43277007	9.5084311	
	0.43225871	9.6230229	0.43185548	-170.53365	0.52061698	9.4081933	0.49064587	-9.9891408	
	0.43163245	-170.48409	0.43277007	9.5084311	0.49064587	-9.9891408	0.51928841	9.3676024	
	
0.134566985354323	0.36305464	8.9799635	0.64106454	-5.2582904	0.43216863	9.3604356	0.43157038	-170.60639	
	0.64106454	-5.2582904	0.36215078	9.4446097	0.43191606	-170.72801	0.43270413	9.3653543	
	0.43216863	9.3604356	0.43191606	-170.72801	0.52118981	9.2492178	0.48912519	-9.8320508	
	0.43157038	-170.60639	0.43270413	9.3653543	0.48912519	-9.8320508	0.51979219	9.2292944	
	
0.13767556617613	0.36357204	8.8511166	0.63991451	-5.1814443	0.43242356	9.2942096	0.43154761	-170.69664	
	0.63991451	-5.1814443	0.36273038	9.3004396	0.43197978	-170.84576	0.43294201	9.1834917	
	0.43242356	9.2942096	0.43197978	-170.84576	0.52095491	9.0003289	0.48853273	-9.7400287	
	0.43154761	-170.69664	0.43294201	9.1834917	0.48853273	-9.7400287	0.52058163	9.037797	
	
0.140855957142902	0.36410306	8.8419131	0.64012345	-5.1120382	0.43320124	9.1549256	0.43283701	-170.87668	
	0.64012345	-5.1120382	0.36265749	9.0160487	0.43263222	-171.05621	0.43356331	8.9728459	
	0.43320124	9.1549256	0.43263222	-171.05621	0.52162327	8.8284266	0.48752538	-9.5984328	
	0.43283701	-170.87668	0.43356331	8.9728459	0.48752538	-9.5984328	0.5199278	8.9486139	
	
0.144109817113524	0.36417479	8.6030231	0.63943556	-4.9992085	0.43379769	8.9737504	0.43320848	-171.04767	
	0.63943556	-4.9992085	0.36269026	8.8553691	0.43370708	-171.14319	0.43432505	8.847656	
	0.43379769	8.9737504	0.43370708	-171.14319	0.522154	8.7872546	0.48689683	-9.5003264	
	0.43320848	-171.04767	0.43432505	8.847656	0.48689683	-9.5003264	0.52169468	8.7854901	
	
0.147438843267552	0.36479157	8.6117641	0.63844017	-4.9010669	0.43507755	8.7714776	0.43387997	-171.33635	
	0.63844017	-4.9010669	0.36446627	8.5850831	0.43471893	-171.34006	0.43495006	8.7244144	
	0.43507755	8.7714776	0.43471893	-171.34006	0.52182163	8.6176561	0.48572281	-9.3593789	
	0.43387997	-171.33635	0.43495006	8.7244144	0.48572281	-9.3593789	0.52259154	8.6665243	
	
0.150844771990442	0.36511345	8.3045889	0.63816686	-4.893338	0.43527387	8.6954792	0.43411217	-171.29137	
	0.63816686	-4.893338	0.36265228	8.5609396	0.43456095	-171.41175	0.43527643	8.5443078	
	0.43527387	8.6954792	0.43456095	-171.41175	0.52338721	8.4500164	0.48478507	-9.1900861	
	0.43411217	-171.29137	0.43527643	8.5443078	0.48478507	-9.1900861	0.52306412	8.5968395	
	
0.154329379779229	0.36578385	8.464136	0.63787512	-4.7961046	0.43560328	8.5297521	0.43479162	-171.56387	
	0.63787512	-4.7961046	0.36361723	8.4458041	0.43535523	-171.65952	0.43612835	8.3643911	
	0.43560328	8.5297521	0.43535523	-171.65952	0.52328431	8.3169842	0.48376568	-9.1142439	
	0.43479162	-171.56387	0.43612835	8.3643911	0.48376568	-9.1142439	0.52393896	8.3560854	
	
0.157894484169135	0.36575211	8.0541276	0.63744155	-4.7139344	0.43550289	8.3500717	0.4351377	-171.66302	
	0.63744155	-4.7139344	0.36423001	8.3350177	0.43556068	-171.75385	0.43632471	8.2971529	
	0.43550289	8.3500717	0.43556068	-171.75385	0.52458221	8.0821422	0.48262128	-9.0112544	
	0.4351377	-171.66302	0.43632471	8.2971529	0.48262128	-9.0112544	0.52324752	8.2160759	
	
0.16154194468157	0.3665841	7.9402087	0.63661285	-4.6574605	0.43608925	8.2294721	0.43538733	-171.75803	
	0.63661285	-4.6574605	0.36445251	8.0714214	0.43588921	-171.88149	0.43678411	8.151405	
	0.43608925	8.2294721	0.43588921	-171.88149	0.52523569	7.9403817	0.48149409	-8.8454995	
	0.43538733	-171.75803	0.43678411	8.151405	0.48149409	-8.8454995	0.52438082	8.1111856	
	
0.165273663794043	0.36665416	7.7547699	0.6356305	-4.6203777	0.43610067	8.0852118	0.43541529	-171.86978	
	0.6356305	-4.6203777	0.36589862	8.0129821	0.43563377	-172.04658	0.43656156	8.021693	
	0.43610067	8.0852118	0.43563377	-172.04658	0.52484903	7.900601	0.48081574	-8.7628718	
	0.43541529	-171.86978	0.43656156	8.021693	0.48081574	-8.7628718	0.52439501	7.9553804	
	
0.169091587932473	0.36644344	7.6396562	0.63498174	-4.5602396	0.43735597	7.9746732	0.43605789	-171.99134	
	0.63498174	-4.5602396	0.36626947	7.8108908	0.43622615	-172.08536	0.43683481	7.9134723	
	0.43735597	7.9746732	0.43622615	-172.08536	0.52617172	7.7798289	0.47995991	-8.6266075	
	0.43605789	-171.99134	0.43683481	7.9134723	0.47995991	-8.6266075	0.52553987	7.8273448	
	
0.172997708486424	0.36614689	7.5298267	0.63542943	-4.4368407	0.43740575	7.9206075	0.43732221	-172.24007	
	0.63542943	-4.4368407	0.36666129	7.7518339	0.43689198	-172.23619	0.43727145	7.6982706	
	0.43740575	7.9206075	0.43689198	-172.23619	0.52697435	7.6509641	0.48005853	-8.4378651	
	0.43732221	-172.24007	0.43727145	7.6982706	0.48005853	-8.4378651	0.52604099	7.7242435	
	
0.176994062847797	0.36708309	7.366523	0.63441705	-4.4445922	0.437718	7.6998509	0.43685389	-172.32561	
	0.63441705	-4.4445922	0.36642772	7.6669278	0.43722003	-172.46307	0.43792728	7.5871112	
	0.437718	7.6998509	0.43722003	-172.46307	0.52751283	7.514273	0.47892111	-8.3841073	
	0.43685389	-172.32561	0.43792728	7.5871112	0.47892111	-8.3841073	0.52569741	7.4771257	
	
0.181082735473506	0.3677342	7.1373895	0.63368856	-4.3009714	0.43789671	7.5107782	0.43737437	-172.41175	
	0.63368856	-4.3009714	0.36711333	7.4560709	0.43737177	-172.60315	0.43811983	7.5016195	
	0.43789671	7.5107782	0.43737177	-172.60315	0.52719957	7.4603275	0.47787109	-8.2399289	
	0.43737437	-172.41175	0.43811983	7.5016195	0.47787109	-8.2399289	0.52648665	7.3242154	
	
0.185265858972714	0.36835452	7.2065307	0.63358743	-4.2562213	0.43842002	7.4817087	0.4377904	-172.51871	
	0.63358743	-4.2562213	0.36675524	7.3280588	0.43831742	-172.7542	0.43866359	7.2974052	
	0.43842002	7.4817087	0.43831742	-172.7542	0.52753243	7.2708374	0.47723385	-8.0414206	
	0.4377904	-172.51871	0.43866359	7.2974052	0.47723385	-8.0414206	0.52831084	7.3333407	
	
0.18954561521918	0.36821672	7.1207764	0.63264114	-4.2035176	0.43875654	7.250208	0.43743485	-172.70745	
	0.63264114	-4.2035176	0.36729382	7.357967	0.43767327	-172.88657	0.43906036	7.2268249	
	0.43875654	7.250208	0.43767327	-172.88657	0.52757475	7.2116966	0.47633245	-7.9773883	
	0.43743485	-172.70745	0.43906036	7.2268249	0.47633245	-7.9773883	0.52711541	7.1133044	
	
0.193924236489297	0.36929938	6.9752642	0.63255324	-4.1503044	0.43905934	7.2180663	0.43796836	-172.86418	
	0.63255324	-4.1503044	0.36726046	7.0324923	0.4384574	-172.91286	0.43907432	7.1334644	
	0.43905934	7.2180663	0.4384574	-172.91286	0.52873347	7.0826325	0.47580121	-7.8271159	
	0.43796836	-172.86418	0.43907432	7.1334644	0.47580121	-7.8271159	0.5276568	7.0471771	
	
0.19840400662643	0.36854361	6.6910231	0.63199237	-4.1282483	0.43952563	7.129798	0.43820964	-172.97537	
	0.63199237	-4.1282483	0.36814893	6.8768042	0.43922949	-173.05404	0.43984822	6.9675677	
	0.43952563	7.129798	0.43922949	-173.05404	0.52927111	6.9223597	0.47502742	-7.7753185	
	0.43820964	-172.97537	0.43984822	6.9675677	0.47502742	-7.7753185	0.52872302	6.9028224	
	
0.202987262232139	0.36887318	6.6421232	0.63211697	-4.0102836	0.43958425	6.9218463	0.43884969	-172.93845	
	0.63211697	-4.0102836	0.36782327	6.9916084	0.43886995	-173.17618	0.43922889	6.830278	
	0.43958425	6.9218463	0.43886995	-173.17618	0.52988378	6.7501567	0.47430166	-7.7380318	
	0.43884969	-172.93845	0.43922889	6.830278	0.47430166	-7.7380318	0.52868869	6.8387108	
	
0.207676393884933	0.36918584	6.5838067	0.63157961	-3.9752829	0.44026597	6.8581449	0.43865467	-173.16305	
	0.63157961	-3.9752829	0.3676222	6.7339629	0.43944058	-173.35205	0.44023699	6.7874406	
	0.44026597	6.8581449	0.43944058	-173.35205	0.5301317	6.6645974	0.47365654	-7.5658108	
	0.43865467	-173.16305	0.44023699	6.7874406	0.47365654	-7.5658108	0.52875167	6.7418878	
	
0.212473847387164	0.37018493	6.4617088	0.63094589	-3.9335826	0.44068395	6.7616099	0.43959059	-173.29791	
	0.63094589	-3.9335826	0.36863353	6.7370884	0.4402503	-173.35999	0.44065484	6.6355512	
	0.44068395	6.7616099	0.4402503	-173.35999	0.53020904	6.5899334	0.4730195	-7.4819114	
	0.43959059	-173.29791	0.44065484	6.6355512	0.4730195	-7.4819114	0.52993963	6.5647375	
	
0.217382125040737	0.37090521	6.3603692	0.63057577	-3.8740703	0.44070359	6.6383919	0.43966904	-173.42245	
	0.63057577	-3.8740703	0.36817216	6.4543879	0.44014908	-173.51175	0.44110727	6.5982888	
	0.44070359	6.6383919	0.44014908	-173.51175	0.53030783	6.5781437	0.47261512	-7.3151374	
	0.43966904	-173.42245	0.44110727	6.5982888	0.47261512	-7.3151374	0.52978032	6.5658534	
	
0.222403786952283	0.37059528	6.2660085	0.63029506	-3.8353633	0.44154039	6.4749046	0.44098713	-173.4822	
	0.63029506	-3.8353633	0.36866072	6.6435252	0.44112213	-173.66844	0.44165919	6.4266692	
	0.44154039	6.4749046	0.44112213	-173.66844	0.53170734	6.3741668	0.47173875	-7.2822707	
	0.44098713	-173.4822	0.44165919	6.4266692	0.47173875	-7.2822707	0.53117823	6.4174304	
	
0.227541452368483	0.37049509	6.1210703	0.62975958	-3.7277754	0.44130657	6.464265	0.44040482	-173.53112	
	0.62975958	-3.7277754	0.36983164	6.3776564	0.44076851	-173.64759	0.44148378	6.3503277	
	0.44130657	6.464265	0.44076851	-173.64759	0.53204891	6.3333532	0.47071625	-7.1366376	
	0.44040482	-173.53112	0.44148378	6.3503277	0.47071625	-7.1366376	0.53071192	6.3166463	
	
0.232797801042241	0.37134699	6.0903858	0.62962501	-3.7012555	0.44145041	6.3053145	0.44110308	-173.68551	
	0.62962501	-3.7012555	0.36952992	6.2990941	0.44119341	-173.78942	0.44242986	6.2385781	
	0.44145041	6.3053145	0.44119341	-173.78942	0.53160407	6.2198173	0.46982357	-7.0843343	
	0.44110308	-173.68551	0.44242986	6.2385781	0.46982357	-7.0843343	0.53066354	6.1779771	
	
0.238175574630416	0.37119431	5.9374782	0.62882555	-3.6793587	0.44203041	6.2139566	0.4415287	-173.74026	
	0.62882555	-3.6793587	0.36971991	6.2186547	0.44146748	-173.881	0.4428512	6.1473211	
	0.44203041	6.2139566	0.44146748	-173.881	0.5332274	6.1399718	0.4699112	-7.0002012	
	0.4415287	-173.74026	0.4428512	6.1473211	0.4699112	-7.0002012	0.53148314	6.0866081	
	
0.24367757812384	0.37128704	5.7579539	0.62894024	-3.6145585	0.44271577	6.1865022	0.44203001	-173.88206	
	0.62894024	-3.6145585	0.37007974	6.0934362	0.44262716	-174.0762	0.44303389	6.0381378	
	0.44271577	6.1865022	0.44262716	-174.0762	0.53211654	6.0011075	0.46928729	-6.8980824	
	0.44203001	-173.88206	0.44303389	6.0381378	0.46928729	-6.8980824	0.53300839	6.0147385	
	
0.249306681310373	0.37181832	5.6845391	0.62902588	-3.5914508	0.44399984	6.0554296	0.44270644	-173.96421	
	0.62902588	-3.5914508	0.36906422	5.9887661	0.44357911	-174.05451	0.44331433	5.9581298	
	0.44399984	6.0554296	0.44357911	-174.05451	0.53312317	5.9320642	0.46922721	-6.8528967	
	0.44270644	-173.96421	0.44331433	5.9581298	0.46922721	-6.8528967	0.53310918	5.9038711	
	
0.255065820271756	0.37229485	5.595605	0.62811425	-3.5455277	0.44383827	6.0087161	0.44265282	-174.01886	
	0.62811425	-3.5455277	0.37022359	5.9070994	0.44322176	-174.16975	0.4432013	5.8716785	
	0.44383827	6.0087161	0.44322176	-174.16975	0.53382748	5.8840694	0.46842304	-6.6815193	
	0.44265282	-174.01886	0.4432013	5.8716785	0.46842304	-6.6815193	0.53299385	5.8235641	
	
0.260957998915036	0.372985	5.5467182	0.62753116	-3.4738933	0.44301055	5.8793591	0.44272392	-174.19825	
	0.62753116	-3.4738933	0.37108154	5.72657	0.44299989	-174.25424	0.44372201	5.7685884	
	0.44301055	5.8793591	0.44299989	-174.25424	0.53328385	5.6998825	0.46770606	-6.6391859	
	0.44272392	-174.19825	0.44372201	5.7685884	0.46770606	-6.6391859	0.53357692	5.8416331	
	
0.266986290539378	0.37206395	5.5406179	0.62756021	-3.4361919	0.44400575	5.7353219	0.44362575	-174.26413	
	0.62756021	-3.4361919	0.37113034	5.8497088	0.4439602	-174.36899	0.44475186	5.6774613	
	0.44400575	5.7353219	0.4439602	-174.36899	0.53529413	5.668155	0.46710243	-6.5283638	
	0.44362575	-174.26413	0.44475186	5.6774613	0.46710243	-6.5283638	0.53422028	5.6667415	
	
0.273153839439064	0.37269491	5.5822002	0.6275281	-3.4255427	0.44423516	5.7331267	0.44370177	-174.33342	
	0.6275281	-3.4255427	0.37144731	5.6530592	0.44398811	-174.46669	0.44447797	5.6389277	
	0.44423516	5.7331267	0.44398811	-174.46669	0.53457016	5.5223851	0.46647696	-6.4412389	
	0.44370177	-174.33342	0.44447797	5.6389277	0.46647696	-6.4412389	0.5342585	5.5419422	
	
0.279463862543524	0.37253061	5.2434158	0.62674377	-3.3878261	0.44521837	5.6752296	0.44477235	-174.33441	
	0.62674377	-3.3878261	0.37226683	5.6462605	0.44440345	-174.51084	0.44442683	5.4730032	
	0.44521837	5.6752296	0.44440345	-174.51084	0.53516783	5.4785701	0.46592647	-6.4053292	
	0.44477235	-174.33441	0.44442683	5.4730032	0.46592647	-6.4053292	0.53525243	5.4712633	
	
0.285919651095252	0.37315243	5.4318604	0.62666277	-3.3243045	0.4449518	5.5417089	0.44480034	-174.5652	
	0.62666277	-3.3243045	0.37200314	5.5782701	0.44439403	-174.61896	0.44546278	5.4239231	
	0.4449518	5.5417089	0.44439403	-174.61896	0.53513941	5.4979697	0.46589335	-6.3206381	
	0.44480034	-174.5652	0.44546278	5.4239231	0.46589335	-6.3206381	0.53535543	5.3771207	
	
0.292524572366485	0.37324107	5.1528857	0.62576158	-3.2989935	0.44503189	5.4784843	0.44474023	-174.63937	
	0.62576158	-3.2989935	0.37226065	5.5581197	0.44515062	-174.79476	0.4461806	5.261087	
	0.44503189	5.4784843	0.44515062	-174.79476	0.53622991	5.4274807	0.46513905	-6.2184531	
	0.44474023	-174.63937	0.4461806	5.261087	0.46513905	-6.2184531	0.53626248	5.3348853	
	
0.299282071415539	0.37389543	5.1979847	0.62535294	-3.2226737	0.44504201	5.3211492	0.44432801	-174.70661	
	0.62535294	-3.2226737	0.37304254	5.6711221	0.44485286	-174.85475	0.44567374	5.1480216	
	0.44504201	5.3211492	0.44485286	-174.85475	0.53572017	5.2580981	0.46453489	-6.1353012	
	0.44432801	-174.70661	0.44567374	5.1480216	0.46453489	-6.1353012	0.53542056	5.301081	
	
0.30619567288371	0.37402534	5.267024	0.62578437	-3.2334184	0.44559818	5.2737144	0.44477652	-174.77003	
	0.62578437	-3.2334184	0.37319807	5.3383638	0.44536543	-174.88652	0.44515045	5.1194754	
	0.44559818	5.2737144	0.44536543	-174.88652	0.53569705	5.2111362	0.46353671	-6.0345151	
	0.44477652	-174.77003	0.44515045	5.1194754	0.46353671	-6.0345151	0.5364545	5.173026	
	
0.313268982833699	0.37432111	4.9633078	0.62476584	-3.1159364	0.44644556	5.2042371	0.44553786	-174.81981	
	0.62476584	-3.1159364	0.37307389	5.2230526	0.44585541	-174.97213	0.44655106	5.0584657	
	0.44644556	5.2042371	0.44585541	-174.97213	0.53723483	5.0276297	0.4635834	-5.9456545	
	0.44553786	-174.81981	0.44655106	5.0584657	0.4635834	-5.9456545	0.53659543	5.0383414	
	
0.320505690630487	0.37435782	4.7848848	0.62462062	-3.0842607	0.44600279	5.143405	0.44585922	-174.8405	
	0.62462062	-3.0842607	0.37307135	5.1644208	0.44597148	-174.94115	0.44751176	5.0323546	
	0.44600279	5.143405	0.44597148	-174.94115	0.53758756	4.8772303	0.46333396	-5.8747036	
	0.44585922	-174.8405	0.44751176	5.0323546	0.46333396	-5.8747036	0.53619008	4.9382018	
	
0.327909570865677	0.37391786	4.6184252	0.62436281	-3.010871	0.4471392	5.1848399	0.44623687	-174.93051	
	0.62436281	-3.010871	0.37236476	4.9122278	0.44622139	-175.0374	0.44758288	4.949296	
	0.4471392	5.1848399	0.44622139	-175.0374	0.53820529	4.8276783	0.46248516	-5.7279382	
	0.44623687	-174.93051	0.44758288	4.949296	0.46248516	-5.7279382	0.53746052	4.8610411	
	
0.335484485326279	0.37481236	4.7092685	0.62407625	-2.9790754	0.4474838	5.0172229	0.44662555	-175.01594	
	0.62407625	-2.9790754	0.37355483	4.7598291	0.44688975	-175.06887	0.4477293	4.9962329	
	0.4474838	5.0172229	0.44688975	-175.06887	0.53779431	4.7241351	0.46221503	-5.7060935	
	0.44662555	-175.01594	0.4477293	4.9962329	0.46221503	-5.7060935	0.53753261	4.7214273	
	
0.343234385008977	0.37445727	4.5875632	0.62385266	-2.9722529	0.44790006	4.9350058	0.44703092	-175.09501	
