# MHz S MA R 50

0.1	0.24861843	45.032613	0.83899458	-12.157857	0.31132468	45.407836	0.31068393	-134.76494	
	0.83899458	-12.157857	0.24991353	46.287998	0.31223268	-135.16279	0.3128662	44.715517	
	0.31132468	45.407836	0.31223268	-135.16279	0.38938585	44.340533	0.76708406	-20.955133	
	0.31068393	-134.76494	0.3128662	44.715517	0.76708406	-20.955133	0.39460645	44.580289	
	
0.102310062021247	0.25004234	44.460074	0.83552547	-12.331184	0.31611974	45.067381	0.31587805	-135.00338	
	0.83552547	-12.331184	0.25272495	45.128601	0.31640856	-135.45229	0.31734667	44.473938	
	0.31611974	45.067381	0.31640856	-135.45229	0.39631956	43.627653	0.76172819	-21.327968	
	0.31587805	-135.00338	0.31734667	44.473938	0.76172819	-21.327968	0.39774522	43.980769	
	
0.104673487907914	0.25591337	43.786707	0.83219896	-12.378175	0.31819132	44.059248	0.3176428	-135.80612	
	0.83219896	-12.378175	0.25494463	44.146293	0.31766841	-135.94786	0.3185334	44.214968	
	0.31819132	44.059248	0.31766841	-135.94786	0.40204463	43.260481	0.75526538	-21.322134	
	0.3176428	-135.80612	0.3185334	44.214968	0.75526538	-21.322134	0.39969074	43.185787	
	
0.107091510398389	0.25751365	43.143993	0.82866869	-12.448861	0.32260374	43.534292	0.32176588	-136.46964	
	0.82866869	-12.448861	0.25823032	43.590992	0.32170329	-136.47159	0.32206325	43.545737	
	0.32260374	43.534292	0.32170329	-136.47159	0.40564516	42.717143	0.75054486	-21.477973	
	0.32176588	-136.46964	0.32206325	43.545737	0.75054486	-21.477973	0.40535841	42.84521	
	
0.109565390708082	0.26100772	42.617001	0.82484472	-12.502945	0.32631347	42.833779	0.32558639	-137.18152	
	0.82484472	-12.502945	0.26136837	43.171908	0.3257469	-137.38107	0.32670965	42.771634	
	0.32631347	42.833779	0.3257469	-137.38107	0.40941629	42.067904	0.74441052	-21.675895	
	0.32558639	-137.18152	0.32670965	42.771634	0.74441052	-21.675895	0.4092096	42.013539	
	
0.112096419187261	0.26328933	41.790509	0.82042157	-12.557296	0.32949897	42.243912	0.32888076	-137.68563	
	0.82042157	-12.557296	0.26352703	42.257046	0.3286891	-137.81863	0.32924295	42.113963	
	0.32949897	42.243912	0.3286891	-137.81863	0.41327978	41.32423	0.73804087	-21.834849	
	0.32888076	-137.68563	0.32924295	42.113963	0.73804087	-21.834849	0.4133876	41.392233	
	
0.114685915994083	0.26689382	41.420353	0.81691512	-12.598929	0.3329196	41.629505	0.33255639	-138.49328	
	0.81691512	-12.598929	0.26706977	41.900472	0.33299571	-138.45231	0.33417283	41.527126	
	0.3329196	41.629505	0.33299571	-138.45231	0.41794662	40.892913	0.73340881	-21.95538	
	0.33255639	-138.49328	0.33417283	41.527126	0.73340881	-21.95538	0.41832149	40.960318	
	
0.117335231783182	0.26911775	40.698889	0.81298351	-12.645434	0.33679827	41.076351	0.33688156	-138.96032	
	0.81298351	-12.645434	0.26914057	41.208557	0.33646094	-139.03607	0.33757718	40.9044	
	0.33679827	41.076351	0.33646094	-139.03607	0.42246794	40.273518	0.72716984	-22.122756	
	0.33688156	-138.96032	0.33757718	40.9044	0.72716984	-22.122756	0.42245038	40.297975	
	
0.120045748410147	0.27219479	39.883836	0.80866191	-12.682653	0.339712	40.518245	0.33907623	-139.63543	
	0.80866191	-12.682653	0.27184048	41.075562	0.33919726	-139.61264	0.3408762	40.261562	
	0.339712	40.518245	0.33919726	-139.61264	0.4258099	39.538112	0.7209244	-22.185716	
	0.33907623	-139.63543	0.3408762	40.261562	0.7209244	-22.185716	0.42610476	39.538601	
	
0.122818879652292	0.27483243	39.578334	0.804982	-12.695661	0.34337877	39.811508	0.34274212	-140.28302	
	0.804982	-12.695661	0.27499321	39.993149	0.34281068	-140.29136	0.34357516	39.63901	
	0.34337877	39.811508	0.34281068	-140.29136	0.43080336	38.909106	0.71491071	-22.331523	
	0.34274212	-140.28302	0.34357516	39.63901	0.71491071	-22.331523	0.43107898	39.106968	
	
0.125656071946061	0.27690598	38.880731	0.80139675	-12.708261	0.34671527	39.187772	0.34654814	-140.76418	
	0.80139675	-12.708261	0.2769634	39.52649	0.34668999	-140.91895	0.34753736	39.080412	
	0.34671527	39.187772	0.34668999	-140.91895	0.43359465	38.324223	0.70916124	-22.429007	
	0.34654814	-140.76418	0.34753736	39.080412	0.70916124	-22.429007	0.43514492	38.424691	
	
0.128558805141477	0.27951965	38.167199	0.79674226	-12.727434	0.35017706	38.64374	0.34952699	-141.48828	
	0.79674226	-12.727434	0.28053268	38.843138	0.34903603	-141.62409	0.35016623	38.428245	
	0.35017706	38.64374	0.34903603	-141.62409	0.43853389	37.641243	0.70265775	-22.50151	
	0.34952699	-141.48828	0.35016623	38.428245	0.70265775	-22.50151	0.43864749	37.820494	
	
0.131528593274019	0.28252916	37.769076	0.79293168	-12.723559	0.35319392	37.997219	0.35296643	-142.11999	
	0.79293168	-12.723559	0.28398294	38.439352	0.35257424	-142.16984	0.35378232	37.830728	
	0.35319392	37.997219	0.35257424	-142.16984	0.44277605	37.264143	0.69689503	-22.617395	
	0.35296643	-142.11999	0.35378232	37.830728	0.69689503	-22.617395	0.44285885	37.245448	
	
0.134566985354323	0.28521457	36.854633	0.78896691	-12.710392	0.35538132	37.31955	0.35548377	-142.77176	
	0.78896691	-12.710392	0.28521416	37.664206	0.35484513	-142.82079	0.356023	37.244828	
	0.35538132	37.31955	0.35484513	-142.82079	0.44596954	36.592087	0.69078272	-22.695216	
	0.35548377	-142.77176	0.356023	37.244828	0.69078272	-22.695216	0.44669344	36.548502	
	
0.13767556617613	0.28762309	36.321716	0.78438279	-12.725239	0.35827556	36.849639	0.35788426	-143.22767	
	0.78438279	-12.725239	0.28892598	37.074294	0.35782497	-143.34203	0.35892513	36.646571	
	0.35827556	36.849639	0.35782497	-143.34203	0.44941505	35.950282	0.68548532	-22.755049	
	0.35788426	-143.22767	0.35892513	36.646571	0.68548532	-22.755049	0.44872178	35.911137	
	
0.140855957142902	0.28994898	35.832609	0.78124686	-12.739025	0.36164474	36.205763	0.36138243	-143.89676	
	0.78124686	-12.739025	0.29039995	36.361405	0.36100792	-144.04245	0.36279117	35.976949	
	0.36164474	36.205763	0.36100792	-144.04245	0.45356638	35.349828	0.67921555	-22.848963	
	0.36138243	-143.89676	0.36279117	35.976949	0.67921555	-22.848963	0.45274626	35.613565	
	
0.144109817113524	0.29266516	35.147217	0.77691928	-12.675037	0.36461929	35.531509	0.36378282	-144.47171	
	0.77691928	-12.675037	0.29255807	35.704487	0.36411725	-144.61055	0.36480582	35.388086	
	0.36461929	35.531509	0.36411725	-144.61055	0.45648166	34.741975	0.67361643	-22.844328	
	0.36378282	-144.47171	0.36480582	35.388086	0.67361643	-22.844328	0.45678843	34.862036	
	
0.147438843267552	0.29532468	34.703963	0.77289132	-12.678214	0.36810971	34.90687	0.36677206	-145.23707	
	0.77289132	-12.678214	0.295599	34.948607	0.3674032	-145.23944	0.36842299	34.758497	
	0.36810971	34.90687	0.3674032	-145.23944	0.46021276	34.344029	0.66749272	-22.871664	
	0.36677206	-145.23707	0.36842299	34.758497	0.66749272	-22.871664	0.4606252	34.285268	
	
0.150844771990442	0.29628179	34.06879	0.76937356	-12.637866	0.37043935	34.406073	0.36919439	-145.63599	
	0.76937356	-12.637866	0.29637397	34.427378	0.36973775	-145.80462	0.37069163	34.189308	
	0.37043935	34.406073	0.36973775	-145.80462	0.46430688	33.636936	0.66200178	-22.875966	
	0.36919439	-145.63599	0.37069163	34.189308	0.66200178	-22.875966	0.46396406	33.695479	
	
0.154329379779229	0.29923607	33.5623	0.76591195	-12.540753	0.37328591	33.625251	0.37203779	-146.39876	
	0.76591195	-12.540753	0.29933342	33.93242	0.37285495	-146.5168	0.37343752	33.53056	
	0.37328591	33.625251	0.37285495	-146.5168	0.46646709	33.050675	0.65583984	-22.912946	
	0.37203779	-146.39876	0.37343752	33.53056	0.65583984	-22.912946	0.46757864	33.022597	
	
0.157894484169135	0.30126159	32.8385	0.76211305	-12.518342	0.37609606	33.144991	0.37560629	-146.95882	
	0.76211305	-12.518342	0.30096417	33.388751	0.37534215	-146.99805	0.37638517	33.001234	
	0.37609606	33.144991	0.37534215	-146.99805	0.47146315	32.419455	0.65064903	-22.917218	
	0.37560629	-146.95882	0.37638517	33.001234	0.65064903	-22.917218	0.4705371	32.572869	
	
0.16154194468157	0.304759	32.05937	0.75806906	-12.515351	0.37798328	32.55039	0.37694956	-147.53958	
	0.75806906	-12.515351	0.30248718	32.459811	0.37802381	-147.60552	0.3785585	32.444208	
	0.37798328	32.55039	0.37802381	-147.60552	0.47296768	31.760076	0.64386801	-22.934771	
	0.37694956	-147.53958	0.3785585	32.444208	0.64386801	-22.934771	0.47346683	32.002289	
	
0.165273663794043	0.30551672	31.618239	0.7544085	-12.461153	0.38101516	31.983165	0.3799035	-148.06549	
	0.7544085	-12.461153	0.30586267	32.092397	0.37993945	-148.16887	0.38101454	31.875606	
	0.38101516	31.983165	0.37993945	-148.16887	0.47657469	31.291303	0.63866305	-22.875219	
	0.3799035	-148.06549	0.38101454	31.875606	0.63866305	-22.875219	0.47580533	31.303706	
	
0.169091587932473	0.30702937	31.009326	0.75067385	-12.399262	0.38331954	31.372812	0.3821071	-148.61663	
	0.75067385	-12.399262	0.30824914	31.455099	0.38261361	-148.69591	0.38319526	31.376247	
	0.38331954	31.372812	0.38261361	-148.69591	0.4799969	30.783179	0.63349441	-22.896483	
	0.3821071	-148.61663	0.38319526	31.376247	0.63349441	-22.896483	0.47967039	30.823103	
	
0.172997708486424	0.30924433	30.584021	0.74747276	-12.27505	0.38601366	30.854959	0.3851987	-149.34921	
	0.74747276	-12.27505	0.30954136	30.770131	0.3850422	-149.34822	0.38546939	30.682457	
	0.38601366	30.854959	0.3850422	-149.34822	0.48330104	30.125718	0.62807852	-22.777326	
	0.3851987	-149.34921	0.38546939	30.682457	0.62807852	-22.777326	0.48267108	30.250877	
	
0.176994062847797	0.31177974	29.975974	0.74391287	-12.225003	0.38762197	30.24205	0.38695334	-149.84226	
	0.74391287	-12.225003	0.31096247	30.477809	0.38696498	-149.96334	0.38805547	30.116946	
	0.38762197	30.24205	0.38696498	-149.96334	0.48640709	29.675482	0.62264291	-22.715177	
	0.38695334	-149.84226	0.38805547	30.116946	0.62264291	-22.715177	0.48467887	29.611087	
	
0.181082735473506	0.31265661	29.161874	0.73993487	-12.134764	0.38997143	29.618448	0.38933131	-150.3159	
	0.73993487	-12.134764	0.31391354	29.634936	0.38947883	-150.52533	0.39004994	29.594183	
	0.38997143	29.618448	0.38947883	-150.52533	0.48863098	29.123164	0.61640061	-22.688148	
	0.38933131	-150.3159	0.39004994	29.594183	0.61640061	-22.688148	0.48788545	28.980036	
	
0.185265858972714	0.31512975	28.784406	0.73707832	-12.022172	0.39192509	29.105091	0.39125792	-150.97604	
	0.73707832	-12.022172	0.31539478	29.261492	0.39153036	-151.02894	0.39220232	28.939372	
	0.39192509	29.105091	0.39153036	-151.02894	0.49025952	28.486493	0.61120713	-22.572239	
	0.39125792	-150.97604	0.39220232	28.939372	0.61120713	-22.572239	0.49065355	28.559435	
	
0.18954561521918	0.31713829	28.272079	0.73339363	-11.929633	0.39367786	28.433578	0.39321166	-151.47356	
	0.73339363	-11.929633	0.3166253	28.852446	0.39282593	-151.65642	0.39460864	28.441581	
	0.39367786	28.433578	0.39282593	-151.65642	0.49308979	27.87533	0.60611419	-22.506135	
	0.39321166	-151.47356	0.39460864	28.441581	0.60611419	-22.506135	0.49333943	28.028458	
	
0.193924236489297	0.3187946	27.768967	0.73085362	-11.86471	0.39610417	27.969913	0.39514462	-152.06889	
	0.73085362	-11.86471	0.31792021	28.090765	0.39576612	-152.10698	0.39640956	27.969721	
	0.39610417	27.969913	0.39576612	-152.10698	0.49592874	27.405477	0.60155153	-22.39952	
	0.39514462	-152.06889	0.39640956	27.969721	0.60155153	-22.39952	0.49595846	27.555283	
	
0.19840400662643	0.3209426	27.097306	0.727349	-11.774679	0.39856406	27.516647	0.39705119	-152.63217	
	0.727349	-11.774679	0.31903653	27.647325	0.39784028	-152.67791	0.39891961	27.310458	
	0.39856406	27.516647	0.39784028	-152.67791	0.49827317	26.927675	0.59571639	-22.305415	
	0.39705119	-152.63217	0.39891961	27.310458	0.59571639	-22.305415	0.4979858	26.816504	
	
0.202987262232139	0.32082782	26.436731	0.72390256	-11.60877	0.39961014	26.897304	0.3988589	-153.01314	
	0.72390256	-11.60877	0.32186262	27.013669	0.39825645	-153.24643	0.39923087	26.779392	
	0.39961014	26.897304	0.39825645	-153.24643	0.50012299	26.352135	0.59057815	-22.185989	
	0.3988589	-153.01314	0.39923087	26.779392	0.59057815	-22.185989	0.49924365	26.473467	
	
0.207676393884933	0.32253657	26.104293	0.72134545	-11.499805	0.40173692	26.38592	0.40047955	-153.62505	
	0.72134545	-11.499805	0.3232778	26.522484	0.40066589	-153.74656	0.40162917	26.285104	
	0.40173692	26.38592	0.40066589	-153.74656	0.50268585	25.828098	0.5857501	-22.101098	
	0.40047955	-153.62505	0.40162917	26.285104	0.5857501	-22.101098	0.50191402	25.894263	
	
0.212473847387164	0.32474481	25.479368	0.71814898	-11.406633	0.40380277	25.875582	0.40273632	-154.15901	
	0.71814898	-11.406633	0.32403249	25.958111	0.40322413	-154.21057	0.40365494	25.7534	
	0.40380277	25.875582	0.40322413	-154.21057	0.50458155	25.394745	0.58141918	-21.948638	
	0.40273632	-154.15901	0.40365494	25.7534	0.58141918	-21.948638	0.50517363	25.389406	
	
0.217382125040737	0.32663935	25.091995	0.71500284	-11.295705	0.40492893	25.343432	0.40369176	-154.659	
	0.71500284	-11.295705	0.32520315	25.288449	0.40455449	-154.79574	0.4059669	25.304436	
	0.40492893	25.343432	0.40455449	-154.79574	0.50715345	24.860543	0.57667282	-21.737608	
	0.40369176	-154.659	0.4059669	25.304436	0.57667282	-21.737608	0.50651071	24.903507	
	
0.222403786952283	0.32782373	24.622613	0.71263863	-11.146385	0.40687287	24.829672	0.40632078	-155.15452	
	0.71263863	-11.146385	0.32667982	25.113809	0.40613114	-155.35445	0.40701679	24.737018	
	0.40687287	24.829672	0.40613114	-155.35445	0.50955813	24.390154	0.57258176	-21.654261	
	0.40632078	-155.15452	0.40701679	24.737018	0.57258176	-21.654261	0.50860856	24.430908	
	
0.227541452368483	0.32870109	23.973036	0.70954155	-11.034921	0.40812418	24.398264	0.40773494	-155.66374	
	0.70954155	-11.034921	0.32846323	24.415705	0.40712176	-155.73448	0.4083273	24.194843	
	0.40812418	24.398264	0.40712176	-155.73448	0.51110661	23.919477	0.56822686	-21.423878	
	0.40773494	-155.66374	0.4083273	24.194843	0.56822686	-21.423878	0.51119273	24.002707	
	
0.232797801042241	0.33017807	23.590274	0.70747755	-10.894323	0.40958489	23.814789	0.40895979	-156.19237	
	0.70747755	-10.894323	0.32881938	23.844449	0.40893623	-156.25636	0.41043314	23.731192	
	0.40958489	23.814789	0.40893623	-156.25636	0.51312933	23.431564	0.56309869	-21.303426	
	0.40895979	-156.19237	0.41043314	23.731192	0.56309869	-21.303426	0.51224905	23.476059	
	
0.238175574630416	0.33146358	23.137498	0.7044421	-10.795178	0.41134638	23.378904	0.41061612	-156.65907	
	0.7044421	-10.795178	0.33011866	23.350042	0.41020535	-156.7224	0.41180524	23.240929	
	0.41134638	23.378904	0.41020535	-156.7224	0.5153319	22.93879	0.55941635	-21.123789	
	0.41061612	-156.65907	0.41180524	23.240929	0.55941635	-21.123789	0.51391011	22.998895	
	
0.24367757812384	0.33223276	22.509336	0.7020553	-10.644874	0.41297175	22.929217	0.41168566	-157.14212	
	0.7020553	-10.644874	0.33226965	22.947774	0.41235606	-157.30338	0.4130441	22.759953	
	0.41297175	22.929217	0.41235606	-157.30338	0.51640056	22.437938	0.55470726	-20.933117	
	0.41168566	-157.14212	0.4130441	22.759953	0.55470726	-20.933117	0.51569219	22.558743	
	
0.249306681310373	0.33303727	22.131528	0.70001081	-10.510105	0.41494679	22.424938	0.41365693	-157.59141	
	0.70001081	-10.510105	0.33205114	22.450775	0.41381487	-157.65446	0.4146364	22.345731	
	0.41494679	22.424938	0.41381487	-157.65446	0.51812444	22.060601	0.55165466	-20.730689	
	0.41365693	-157.59141	0.4146364	22.345731	0.55165466	-20.730689	0.51737254	22.051843	
	
0.255065820271756	0.33473686	21.533505	0.69751023	-10.390226	0.41590174	21.976745	0.41471287	-158.04362	
	0.69751023	-10.390226	0.33343671	21.986774	0.4150366	-158.21451	0.41543874	21.857126	
	0.41590174	21.976745	0.4150366	-158.21451	0.51972246	21.579276	0.54706008	-20.493972	
	0.41471287	-158.04362	0.41543874	21.857126	0.54706008	-20.493972	0.51922113	21.608331	
	
0.260957998915036	0.33587496	21.296148	0.69528748	-10.219058	0.41608767	21.595833	0.41517673	-158.50922	
	0.69528748	-10.219058	0.33505032	21.44746	0.41597693	-158.59836	0.41665279	21.457481	
	0.41608767	21.595833	0.41597693	-158.59836	0.52093062	21.11198	0.54319765	-20.312854	
	0.41517673	-158.50922	0.41665279	21.457481	0.54319765	-20.312854	0.52007433	21.239236	
	
0.266986290539378	0.33661628	20.750909	0.69331322	-10.063783	0.41797818	21.012271	0.41733814	-158.98994	
	0.69331322	-10.063783	0.33547509	21.123646	0.41710136	-159.07739	0.41821916	20.933704	
	0.41797818	21.012271	0.41710136	-159.07739	0.52310599	20.722607	0.53897294	-20.120908	
	0.41733814	-158.98994	0.41821916	20.933704	0.53897294	-20.120908	0.52155362	20.760288	
	
0.273153839439064	0.3373778	20.387853	0.69165705	-9.929263	0.41913755	20.643619	0.41849101	-159.37457	
	0.69165705	-9.929263	0.33623858	20.699047	0.41880273	-159.47116	0.41921301	20.560613	
	0.41913755	20.643619	0.41880273	-159.47116	0.52457183	20.277419	0.53580356	-19.873347	
	0.41849101	-159.37457	0.41921301	20.560613	0.53580356	-19.873347	0.52372085	20.301812	
	
0.279463862543524	0.33738154	19.840694	0.68935186	-9.8086486	0.42076502	20.309092	0.4199181	-159.75059	
	0.68935186	-9.8086486	0.33775446	20.16071	0.41978975	-159.92428	0.41989364	20.115928	
	0.42076502	20.309092	0.41978975	-159.92428	0.52506845	19.84472	0.53278018	-19.704952	
	0.4199181	-159.75059	0.41989364	20.115928	0.53278018	-19.704952	0.52474357	19.859968	
	
0.285919651095252	0.33853501	19.66348	0.68768366	-9.6445514	0.42126707	19.775779	0.42073867	-160.30996	
	0.68768366	-9.6445514	0.33860994	19.898912	0.42083572	-160.36407	0.42140868	19.71842	
	0.42126707	19.775779	0.42083572	-160.36407	0.52705892	19.407758	0.52998379	-19.461646	
	0.42073867	-160.30996	0.42140868	19.71842	0.52998379	-19.461646	0.52655408	19.48542	
	
0.292524572366485	0.33885884	19.125745	0.6852646	-9.5241629	0.42208797	19.433131	0.42119576	-160.65679	
	0.6852646	-9.5241629	0.3392525	19.702678	0.42182691	-160.87431	0.42246101	19.214095	
	0.42208797	19.433131	0.42182691	-160.87431	0.52930438	19.118599	0.52627189	-19.195426	
	0.42119576	-160.65679	0.42246101	19.214095	0.52627189	-19.195426	0.52740341	19.056671	
	
0.299282071415539	0.34107223	18.79343	0.68329299	-9.3532933	0.42244825	19.002313	0.42180078	-161.07823	
	0.68329299	-9.3532933	0.34028774	19.331225	0.42179557	-161.27511	0.4226807	18.72729	
	0.42244825	19.002313	0.42179557	-161.27511	0.52844495	18.708113	0.52276867	-18.932877	
	0.42180078	-161.07823	0.4226807	18.72729	0.52276867	-18.932877	0.52925403	18.752921	
	
0.30619567288371	0.34123713	18.464715	0.68185676	-9.2472879	0.42366427	18.562979	0.42268866	-161.44238	
	0.68185676	-9.2472879	0.34154245	18.685543	0.42338408	-161.59589	0.42361938	18.457099	
	0.42366427	18.562979	0.42338408	-161.59589	0.53024766	18.32975	0.51959115	-18.760865	
	0.42268866	-161.44238	0.42361938	18.457099	0.51959115	-18.760865	0.53034228	18.279173	
	
0.313268982833699	0.34234802	17.851142	0.67966877	-9.0488249	0.42507046	18.227637	0.42406652	-161.839	
	0.67966877	-9.0488249	0.34136874	18.288756	0.42460994	-161.99067	0.4252121	18.065734	
	0.42507046	18.227637	0.42460994	-161.99067	0.53227346	17.895479	0.5164813	-18.446421	
	0.42406652	-161.839	0.4252121	18.065734	0.5164813	-18.446421	0.53123644	17.88444	
	
0.320505690630487	0.34209583	17.460457	0.67853226	-8.8885521	0.42548351	17.852086	0.4253436	-162.19553	
	0.67853226	-8.8885521	0.34134804	17.805266	0.42514639	-162.29833	0.42678087	17.673133	
	0.42548351	17.852086	0.42514639	-162.29833	0.5325047	17.474711	0.51395514	-18.229056	
	0.4253436	-162.19553	0.42678087	17.673133	0.51395514	-18.229056	0.53190319	17.464531	
	
0.327909570865677	0.341164	16.886146	0.67647992	-8.7307298	0.42731623	17.559551	0.42625735	-162.50921	
	0.67647992	-8.7307298	0.34230078	17.252605	0.42617268	-162.61522	0.42746183	17.362819	
	0.42731623	17.559551	0.42617268	-162.61522	0.53417226	17.068698	0.51098539	-17.92972	
	0.42625735	-162.50921	0.42746183	17.362819	0.51098539	-17.92972	0.53269381	17.11899	
	
0.335484485326279	0.34324826	16.744977	0.67493805	-8.6028529	0.42782933	17.156672	0.42682352	-162.90372	
	0.67493805	-8.6028529	0.34279508	16.947558	0.42725226	-162.94597	0.42784143	17.100269	
	0.42782933	17.156672	0.42725226	-162.94597	0.53475186	16.60974	0.50818579	-17.717772	
	0.42682352	-162.90372	0.42784143	17.100269	0.50818579	-17.717772	0.53442797	16.705526	
	
0.343234385008977	0.34395445	16.331237	0.67390999	-8.4744033	0.42907442	16.733635	0.42813545	-163.28339	
