# MHz S MA R 50

0.1	0.15870356	64.154801	0.93840975	-8.8582837	0.15957234	65.643152	0.15927095	-114.65847	
	0.93840975	-8.8582837	0.1637044	66.020715	0.16014044	-115.10055	0.16078411	64.725554	
	0.15957234	65.643152	0.16014044	-115.10055	0.15679644	64.318269	0.93838209	-8.8931906	
	0.15927095	-114.65847	0.16078411	64.725554	0.93838209	-8.8931906	0.16314352	65.23952	
	
0.102310062021247	0.15976799	63.74149	0.93724242	-9.0562407	0.16311249	65.312381	0.1632352	-114.75727	
	0.93724242	-9.0562407	0.16411255	65.013296	0.16317206	-115.1275	0.16405676	64.65833	
	0.16311249	65.312381	0.16317206	-115.1275	0.16094899	63.49373	0.93731129	-9.1070074	
	0.1632352	-114.75727	0.16405676	64.65833	0.93731129	-9.1070074	0.16409384	64.917543	
	
0.104673487907914	0.16669756	62.973197	0.93415279	-9.193438	0.16556488	64.32785	0.16516168	-115.44999	
	0.93415279	-9.193438	0.16544421	63.601366	0.16483653	-115.63777	0.16540562	64.566692	
	0.16556488	64.32785	0.16483653	-115.63777	0.1689049	63.704943	0.93312506	-9.1645624	
	0.16516168	-115.44999	0.16540562	64.566692	0.93312506	-9.1645624	0.16544928	63.155561	
	
0.107091510398389	0.16829446	62.854517	0.93272174	-9.3397911	0.16900136	63.92064	0.1685134	-116.06149	
	0.93272174	-9.3397911	0.16943637	63.303821	0.16851629	-116.07826	0.1686109	63.938175	
	0.16900136	63.92064	0.16851629	-116.07826	0.16988019	63.24214	0.93199151	-9.3078038	
	0.1685134	-116.06149	0.1686109	63.938175	0.93199151	-9.3078038	0.16972006	63.227648	
	
0.109565390708082	0.17226605	62.234041	0.93046552	-9.5156311	0.17235058	63.224942	0.17190647	-116.62563	
	0.93046552	-9.5156311	0.17332758	63.275832	0.17208995	-116.94456	0.17276433	63.308599	
	0.17235058	63.224942	0.17208995	-116.94456	0.17313957	62.961094	0.92981255	-9.4916537	
	0.17190647	-116.62563	0.17276433	63.308599	0.92981255	-9.4916537	0.17191793	62.514365	
	
0.112096419187261	0.17331201	61.367816	0.92720542	-9.6798146	0.17499303	62.827499	0.1747321	-117.15413	
	0.92720542	-9.6798146	0.17625348	62.183363	0.17485596	-117.28321	0.17523627	62.674493	
	0.17499303	62.827499	0.17485596	-117.28321	0.17503254	61.946623	0.92700363	-9.6921717	
	0.1747321	-117.15413	0.17523627	62.674493	0.92700363	-9.6921717	0.17614115	62.290753	
	
0.114685915994083	0.17828627	61.387697	0.92512947	-9.8418454	0.17822461	62.177699	0.17785808	-117.82149	
	0.92512947	-9.8418454	0.1786626	62.119453	0.17839078	-117.80258	0.17899772	62.060065	
	0.17822461	62.177699	0.17839078	-117.80258	0.17944136	61.299425	0.9249508	-9.8181554	
	0.17785808	-117.82149	0.17899772	62.060065	0.9249508	-9.8181554	0.17924572	62.029315	
	
0.117335231783182	0.18088745	60.461152	0.92248577	-9.9785971	0.1816807	61.755272	0.18147711	-118.27118	
	0.92248577	-9.9785971	0.18264423	61.607601	0.18145575	-118.31769	0.18227489	61.593594	
	0.1816807	61.755272	0.18145575	-118.31769	0.18112163	60.713324	0.92190155	-9.972607	
	0.18147711	-118.27118	0.18227489	61.593594	0.92190155	-9.972607	0.18193145	61.317188	
	
0.120045748410147	0.18429029	59.867718	0.91995191	-10.131296	0.18452243	61.216241	0.1840967	-118.89327	
	0.91995191	-10.131296	0.18521278	61.458072	0.18422257	-119.04172	0.18504805	60.939482	
	0.18452243	61.216241	0.18422257	-119.04172	0.18499885	59.910004	0.919119	-10.114009	
	0.1840967	-118.89327	0.18504805	60.939482	0.919119	-10.114009	0.18521485	60.455804	
	
0.122818879652292	0.18745924	59.523282	0.91693103	-10.285546	0.18849282	60.557114	0.18798309	-119.53744	
	0.91693103	-10.285546	0.18894342	60.234323	0.18767988	-119.51452	0.18829637	60.319015	
	0.18849282	60.557114	0.18767988	-119.51452	0.187761	59.585126	0.91664227	-10.288686	
	0.18798309	-119.53744	0.18829637	60.319015	0.91664227	-10.288686	0.18928273	60.392779	
	
0.125656071946061	0.19055553	59.032608	0.91447848	-10.456604	0.1916771	59.952885	0.19148244	-120.00298	
	0.91447848	-10.456604	0.19187898	59.990745	0.19144595	-120.06606	0.192022	59.831925	
	0.1916771	59.952885	0.19144595	-120.06606	0.19138276	59.087897	0.91391107	-10.421787	
	0.19148244	-120.00298	0.192022	59.831925	0.91391107	-10.421787	0.19164297	59.562175	
	
0.128558805141477	0.19283802	58.412802	0.91097959	-10.607253	0.19477956	59.428892	0.19475019	-120.64582	
	0.91097959	-10.607253	0.19582201	59.175346	0.19416738	-120.78615	0.19523802	59.208216	
	0.19477956	59.428892	0.19416738	-120.78615	0.19561961	58.336017	0.91052324	-10.558977	
	0.19475019	-120.64582	0.19523802	59.208216	0.91052324	-10.558977	0.19545924	59.023658	
	
0.131528593274019	0.19728324	58.117656	0.90795877	-10.74144	0.1981287	58.85395	0.19803558	-121.25822	
	0.90795877	-10.74144	0.19977244	58.922656	0.19763321	-121.27751	0.19877168	58.608374	
	0.1981287	58.85395	0.19763321	-121.27751	0.19943287	57.954217	0.90822916	-10.744837	
	0.19803558	-121.25822	0.19877168	58.608374	0.90822916	-10.744837	0.19832427	58.686083	
	
0.134566985354323	0.20092462	57.140731	0.90482919	-10.850751	0.2011733	58.213395	0.20111331	-121.88209	
	0.90482919	-10.850751	0.20236166	58.148638	0.20071068	-121.95255	0.20152637	58.024577	
	0.2011733	58.213395	0.20071068	-121.95255	0.20275904	57.739428	0.90399029	-10.906624	
	0.20111331	-121.88209	0.20152637	58.024577	0.90399029	-10.906624	0.20260429	57.65247	
	
0.13767556617613	0.20377639	56.496471	0.90039876	-11.02519	0.20396658	57.733245	0.20348578	-122.36472	
	0.90039876	-11.02519	0.20643779	57.544445	0.20389597	-122.5164	0.20424746	57.446166	
	0.20396658	57.733245	0.20389597	-122.5164	0.20518122	56.575524	0.90085838	-11.008636	
	0.20348578	-122.36472	0.20424746	57.446166	0.90085838	-11.008636	0.20350289	56.565631	
	
0.140855957142902	0.20733791	55.828048	0.89827828	-11.181358	0.20739246	57.039236	0.2072567	-122.99256	
	0.89827828	-11.181358	0.20884324	56.722208	0.20742852	-123.29854	0.20841444	56.926735	
	0.20739246	57.039236	0.20742852	-123.29854	0.20842001	55.986937	0.89694287	-11.200568	
	0.2072567	-122.99256	0.20841444	56.926735	0.89694287	-11.200568	0.20609955	57.343111	
	
0.144109817113524	0.21049117	55.337253	0.89459636	-11.313807	0.21070553	56.388361	0.21016638	-123.52293	
	0.89459636	-11.313807	0.21247828	55.978567	0.21030411	-123.67487	0.21121157	56.223728	
	0.21070553	56.388361	0.21030411	-123.67487	0.2105161	55.577117	0.89392356	-11.299677	
	0.21016638	-123.52293	0.21121157	56.223728	0.89392356	-11.299677	0.21119939	56.011498	
	
0.147438843267552	0.21460356	54.958312	0.89189062	-11.469618	0.21528969	55.667738	0.21432665	-124.37612	
	0.89189062	-11.469618	0.2150757	55.394748	0.21431886	-124.42375	0.21483293	55.629929	
	0.21528969	55.667738	0.21431886	-124.42375	0.21546259	55.392898	0.8920142	-11.463615	
	0.21432665	-124.37612	0.21483293	55.629929	0.8920142	-11.463615	0.21489429	55.681666	
	
0.150844771990442	0.21629594	54.369089	0.88827906	-11.577353	0.21720581	55.233391	0.21719539	-124.76638	
	0.88827906	-11.577353	0.21786527	54.939834	0.21754372	-124.92912	0.21803427	54.999133	
	0.21720581	55.233391	0.21754372	-124.92912	0.21821048	54.543564	0.88824424	-11.562993	
	0.21719539	-124.76638	0.21803427	54.999133	0.88824424	-11.562993	0.21845587	54.666299	
	
0.154329379779229	0.22097572	53.697938	0.88497368	-11.722155	0.22099641	54.47254	0.22044038	-125.60867	
	0.88497368	-11.722155	0.22244593	54.344086	0.22113033	-125.67226	0.22111606	54.264505	
	0.22099641	54.47254	0.22113033	-125.67226	0.21983308	54.011046	0.8844629	-11.71529	
	0.22044038	-125.60867	0.22111606	54.264505	0.8844629	-11.71529	0.22214343	54.110895	
	
0.157894484169135	0.22406671	52.96461	0.88149972	-11.848718	0.22429051	53.854763	0.22413881	-126.09814	
	0.88149972	-11.848718	0.22455341	53.797484	0.22391073	-126.2392	0.22499961	53.764431	
	0.22429051	53.854763	0.22391073	-126.2392	0.22531022	53.073561	0.88062073	-11.881149	
	0.22413881	-126.09814	0.22499961	53.764431	0.88062073	-11.881149	0.22421427	53.568981	
	
0.16154194468157	0.22792738	52.196749	0.87741888	-11.973002	0.22692669	53.297169	0.2269369	-126.66329	
	0.87741888	-11.973002	0.22720023	52.790174	0.22745483	-126.85641	0.22787859	53.168292	
	0.22692669	53.297169	0.22745483	-126.85641	0.22808131	52.512934	0.87657825	-11.991007	
	0.2269369	-126.66329	0.22787859	53.168292	0.87657825	-11.991007	0.22865273	53.156	
	
0.165273663794043	0.22962747	51.62286	0.87346238	-12.119297	0.23035629	52.62383	0.23007986	-127.33815	
	0.87346238	-12.119297	0.23148664	52.401316	0.23031933	-127.51517	0.23068344	52.611495	
	0.23035629	52.62383	0.23031933	-127.51517	0.2305648	51.92516	0.87295951	-12.078798	
	0.23007986	-127.33815	0.23068344	52.611495	0.87295951	-12.078798	0.23138331	52.157172	
	
0.169091587932473	0.23278662	51.078927	0.86959937	-12.226433	0.23371401	51.995787	0.23324102	-127.92496	
	0.86959937	-12.226433	0.23473577	51.443415	0.23288025	-128.08837	0.23388646	51.807802	
	0.23371401	51.995787	0.23288025	-128.08837	0.23373555	51.251702	0.86926425	-12.225954	
	0.23324102	-127.92496	0.23388646	51.807802	0.86926425	-12.225954	0.23416746	51.6683	
	
0.172997708486424	0.23586243	50.694901	0.86639145	-12.326925	0.23755809	51.374223	0.23703662	-128.7077	
	0.86639145	-12.326925	0.23835385	50.987229	0.23696047	-128.68985	0.23707226	51.146213	
	0.23755809	51.374223	0.23696047	-128.68985	0.23817904	50.422089	0.86623073	-12.280135	
	0.23703662	-128.7077	0.23707226	51.146213	0.86623073	-12.280135	0.23751252	51.372637	
	
0.176994062847797	0.24075453	50.05124	0.86255304	-12.440962	0.2398373	50.733958	0.2394751	-129.31366	
	0.86255304	-12.440962	0.24176364	50.638416	0.23934565	-129.44748	0.24034567	50.568699	
	0.2398373	50.733958	0.23934565	-129.44748	0.24144576	50.12855	0.86220971	-12.422114	
	0.2394751	-129.31366	0.24034567	50.568699	0.86220971	-12.422114	0.23997066	50.09884	
	
0.181082735473506	0.24277957	49.165368	0.85852082	-12.572173	0.24325532	49.944893	0.24289386	-129.81773	
	0.85852082	-12.572173	0.24519291	49.899491	0.2427564	-129.99861	0.24350051	50.0831	
	0.24325532	49.944893	0.2427564	-129.99861	0.24497602	49.607818	0.85788545	-12.526786	
	0.24289386	-129.81773	0.24350051	50.0831	0.85788545	-12.526786	0.24304234	49.679229	
	
0.185265858972714	0.24725751	48.688144	0.85478515	-12.650721	0.24657328	49.385804	0.24600015	-130.53958	
	0.85478515	-12.650721	0.2483908	49.334199	0.24611737	-130.65836	0.24656707	49.366015	
	0.24657328	49.385804	0.24611737	-130.65836	0.24737807	48.83275	0.85416904	-12.630003	
	0.24600015	-130.53958	0.24656707	49.366015	0.85416904	-12.630003	0.24679351	49.026949	
	
0.18954561521918	0.25024109	48.201041	0.85064023	-12.709183	0.24911528	48.730206	0.24851678	-131.16327	
	0.85064023	-12.709183	0.25087642	48.680169	0.24876556	-131.46765	0.24972485	48.662222	
	0.24911528	48.730206	0.24876556	-131.46765	0.25171185	48.104433	0.85024082	-12.720339	
	0.24851678	-131.16327	0.24972485	48.662222	0.85024082	-12.720339	0.25081824	48.449905	
	
0.193924236489297	0.2536295	47.410418	0.84702363	-12.850165	0.25255512	48.116939	0.25196324	-131.8915	
	0.84702363	-12.850165	0.25338588	48.023072	0.2520884	-131.84789	0.25267872	48.090072	
	0.25255512	48.116939	0.2520884	-131.84789	0.25345651	47.480395	0.84662068	-12.806196	
	0.25196324	-131.8915	0.25267872	48.090072	0.84662068	-12.806196	0.25393022	47.853882	
	
0.19840400662643	0.25632074	46.737618	0.84339247	-12.957422	0.25600838	47.659923	0.25550033	-132.52191	
	0.84339247	-12.957422	0.25703686	47.441601	0.25579483	-132.51408	0.25612417	47.407551	
	0.25600838	47.659923	0.25579483	-132.51408	0.25653109	47.277445	0.84380509	-12.891549	
	0.25550033	-132.52191	0.25612417	47.407551	0.84380509	-12.891549	0.25677002	47.16417	
	
0.202987262232139	0.25859911	46.012051	0.83857568	-12.992881	0.25866364	46.892003	0.2581029	-132.95039	
	0.83857568	-12.992881	0.26047353	46.615924	0.25786102	-133.30463	0.25827476	46.803823	
	0.25866364	46.892003	0.25786102	-133.30463	0.25974819	46.329132	0.83799876	-12.969229	
	0.2581029	-132.95039	0.25827476	46.803823	0.83799876	-12.969229	0.25834831	46.611815	
	
0.207676393884933	0.2623687	45.643898	0.83512259	-13.102275	0.26182719	46.315348	0.26094357	-133.7266	
	0.83512259	-13.102275	0.26368707	46.0568	0.26119206	-133.80097	0.26194287	46.197243	
	0.26182719	46.315348	0.26119206	-133.80097	0.2631318	45.776502	0.83446757	-13.069682	
	0.26094357	-133.7266	0.26194287	46.197243	0.83446757	-13.069682	0.26162677	45.968722	
	
0.212473847387164	0.26560335	44.940398	0.83098749	-13.154358	0.26482081	45.658532	0.26426543	-134.36034	
	0.83098749	-13.154358	0.26634916	45.514569	0.26445449	-134.38903	0.2649855	45.448257	
	0.26482081	45.658532	0.26445449	-134.38903	0.26483702	45.258312	0.83068315	-13.164121	
	0.26426543	-134.36034	0.2649855	45.448257	0.83068315	-13.164121	0.26565477	45.286571	
	
0.217382125040737	0.26886529	44.268305	0.82734199	-13.255574	0.26737892	44.998327	0.26681552	-134.96008	
	0.82734199	-13.255574	0.26794185	44.775046	0.26742919	-135.15556	0.26803498	44.838675	
	0.26737892	44.998327	0.26742919	-135.15556	0.26991454	44.699008	0.82611412	-13.181251	
	0.26681552	-134.96008	0.26803498	44.838675	0.82611412	-13.181251	0.26816347	44.656292	
	
0.222403786952283	0.27207164	43.750158	0.82277723	-13.292749	0.27033561	44.288909	0.27010031	-135.60262	
	0.82277723	-13.292749	0.27264404	44.28589	0.27026086	-135.82471	0.27080189	44.192141	
	0.27033561	44.288909	0.27026086	-135.82471	0.27170182	43.991717	0.82254844	-13.288213	
	0.27010031	-135.60262	0.27080189	44.192141	0.82254844	-13.288213	0.27073232	44.080982	
	
0.227541452368483	0.27388111	43.030966	0.81849905	-13.381341	0.27315588	43.821453	0.27287393	-136.22666	
	0.81849905	-13.381341	0.27531784	43.493342	0.27268218	-136.30862	0.27365214	43.601512	
	0.27315588	43.821453	0.27268218	-136.30862	0.27407834	43.117643	0.81862123	-13.306435	
	0.27287393	-136.22666	0.27365214	43.601512	0.81862123	-13.306435	0.27483027	43.432118	
	
0.232797801042241	0.27745844	42.415851	0.81471772	-13.411276	0.27575178	43.061305	0.27567515	-136.85681	
	0.81471772	-13.411276	0.27804798	43.030601	0.27567229	-136.965	0.27686284	42.95453	
	0.27575178	43.061305	0.27567229	-136.965	0.27738977	42.747505	0.81384715	-13.40778	
	0.27567515	-136.85681	0.27686284	42.95453	0.81384715	-13.40778	0.27640944	42.926657	
	
0.238175574630416	0.27999033	41.91242	0.81052821	-13.507385	0.27913872	42.509236	0.27880303	-137.50591	
	0.81052821	-13.507385	0.28073928	42.256608	0.27862372	-137.59682	0.27971776	42.344878	
	0.27913872	42.509236	0.27862372	-137.59682	0.28107285	41.976716	0.81017994	-13.46404	
	0.27880303	-137.50591	0.27971776	42.344878	0.81017994	-13.46404	0.27911162	42.199894	
	
0.24367757812384	0.28237409	41.18789	0.80667412	-13.517225	0.28188165	41.908505	0.28137415	-138.06576	
	0.80667412	-13.517225	0.28423004	41.928043	0.2816469	-138.23234	0.28223201	41.741871	
	0.28188165	41.908505	0.2816469	-138.23234	0.28315581	41.571657	0.80616142	-13.512667	
	0.28137415	-138.06576	0.28223201	41.741871	0.80616142	-13.512667	0.28314375	41.539261	
	
0.249306681310373	0.28536872	40.720462	0.80354597	-13.554986	0.28543068	41.230557	0.28449994	-138.74753	
	0.80354597	-13.554986	0.28536391	41.277892	0.28468452	-138.82779	0.284886	41.147083	
	0.28543068	41.230557	0.28468452	-138.82779	0.28572826	40.890731	0.80281495	-13.507942	
	0.28449994	-138.74753	0.284886	41.147083	0.80281495	-13.507942	0.28468935	41.142015	
	
0.255065820271756	0.28803079	39.952279	0.79866915	-13.607674	0.28762493	40.682711	0.28709512	-139.35468	
	0.79866915	-13.607674	0.28868393	40.418209	0.2873354	-139.51335	0.28755174	40.515811	
	0.28762493	40.682711	0.2873354	-139.51335	0.28899239	40.287991	0.79821097	-13.538703	
	0.28709512	-139.35468	0.28755174	40.515811	0.79821097	-13.538703	0.28814358	40.463824	
	
0.260957998915036	0.29114447	39.379038	0.79477564	-13.595275	0.28974399	40.191046	0.28897657	-140.00645	
	0.79477564	-13.595275	0.29129897	39.864167	0.28967163	-140.03063	0.2899494	39.976153	
	0.28974399	40.191046	0.28967163	-140.03063	0.29085448	39.556652	0.79413562	-13.567961	
	0.28897657	-140.00645	0.2899494	39.976153	0.79413562	-13.567961	0.29010904	39.735504	
	
0.266986290539378	0.29418463	38.968394	0.79102483	-13.605185	0.29300302	39.460987	0.29226637	-140.63205	
	0.79102483	-13.605185	0.29388461	39.424878	0.29246709	-140.7037	0.29336381	39.352188	
	0.29300302	39.460987	0.29246709	-140.7037	0.29391011	39.099983	0.7905595	-13.604077	
	0.29226637	-140.63205	0.29336381	39.352188	0.7905595	-13.604077	0.2937724	39.337343	
	
0.273153839439064	0.29605838	38.27422	0.78699152	-13.639036	0.29526626	38.860304	0.29449405	-141.17448	
	0.78699152	-13.639036	0.29611005	38.635939	0.29478484	-141.27791	0.29555122	38.733628	
	0.29526626	38.860304	0.29478484	-141.27791	0.29563302	38.455845	0.78602178	-13.5924	
	0.29449405	-141.17448	0.29555122	38.733628	0.78602178	-13.5924	0.29571255	38.61845	
	
0.279463862543524	0.2976489	37.698416	0.78319239	-13.682312	0.29841627	38.404922	0.29787678	-141.68065	
	0.78319239	-13.682312	0.29913291	38.09716	0.29789237	-141.88967	0.29800583	38.079992	
	0.29841627	38.404922	0.29789237	-141.88967	0.29947198	37.817531	0.78268914	-13.635995	
	0.29787678	-141.68065	0.29800583	38.079992	0.78268914	-13.635995	0.29789555	38.000702	
	
0.285919651095252	0.3013026	37.265317	0.77913738	-13.638168	0.29991796	37.564984	0.2994467	-142.47042	
	0.77913738	-13.638168	0.30187757	37.489813	0.29984865	-142.48654	0.30023954	37.546677	
	0.29991796	37.564984	0.29984865	-142.48654	0.30104605	37.390157	0.77889134	-13.610579	
	0.2994467	-142.47042	0.30023954	37.546677	0.77889134	-13.610579	0.30052052	37.429141	
	
0.292524572366485	0.30285771	36.548243	0.77500662	-13.669656	0.30234019	37.061266	0.30236095	-142.99546	
	0.77500662	-13.669656	0.30466966	37.281778	0.30230991	-143.20771	0.30319377	36.823993	
	0.30234019	37.061266	0.30230991	-143.20771	0.30452819	36.720999	0.77488129	-13.63194	
	0.30236095	-142.99546	0.30319377	36.823993	0.77488129	-13.63194	0.30316777	36.742614	
	
0.299282071415539	0.30651096	36.039126	0.77080882	-13.591683	0.30442968	36.492927	0.30394325	-143.58772	
	0.77080882	-13.591683	0.3071367	36.545612	0.30426976	-143.76866	0.30471923	36.162334	
	0.30442968	36.492927	0.30426976	-143.76866	0.30625118	36.194925	0.77100828	-13.572854	
	0.30394325	-143.58772	0.30471923	36.162334	0.77100828	-13.572854	0.30653797	36.490657	
	
0.30619567288371	0.3078683	35.506951	0.76746909	-13.616361	0.30657323	35.758349	0.30594427	-144.14822	
	0.76746909	-13.616361	0.30965923	35.935662	0.30621377	-144.28621	0.3067382	35.784074	
	0.30657323	35.758349	0.30621377	-144.28621	0.30831806	35.694325	0.76630036	-13.562858	
	0.30594427	-144.14822	0.3067382	35.784074	0.76630036	-13.562858	0.30767998	35.598423	
	
0.313268982833699	0.31072087	34.840301	0.76341135	-13.578141	0.30948259	35.356578	0.30877634	-144.63816	
	0.76341135	-13.578141	0.31121326	35.434479	0.30910388	-144.77882	0.30969554	35.165994	
	0.30948259	35.356578	0.30910388	-144.77882	0.31040109	35.015422	0.76283484	-13.515851	
	0.30877634	-144.63816	0.30969554	35.165994	0.76283484	-13.515851	0.31020855	35.140952	
	
0.320505690630487	0.31199743	34.252959	0.75974365	-13.539517	0.31120233	34.849663	0.31117809	-145.17196	
	0.75974365	-13.539517	0.31327561	34.710786	0.31122491	-145.25515	0.31256082	34.643667	
	0.31120233	34.849663	0.31122491	-145.25515	0.31252253	34.270262	0.75927312	-13.490789	
	0.31117809	-145.17196	0.31256082	34.643667	0.75927312	-13.490789	0.31165287	34.535853	
	
0.327909570865677	0.3135741	33.729552	0.75619867	-13.540698	0.31457443	34.411507	0.31413845	-145.69814	
	0.75619867	-13.540698	0.31447762	34.080197	0.31388276	-145.75408	0.31490348	34.176193	
	0.31457443	34.411507	0.31388276	-145.75408	0.31506005	33.745849	0.75608474	-13.450668	
	0.31413845	-145.69814	0.31490348	34.176193	0.75608474	-13.450668	0.31388445	33.8975	
	
0.335484485326279	0.31652226	33.316741	0.75240835	-13.48024	0.31632528	33.759949	0.31555223	-146.25123	
	0.75240835	-13.48024	0.31681398	33.604914	0.31602205	-146.30574	0.31646589	33.730732	
	0.31632528	33.759949	0.31602205	-146.30574	0.31632273	33.109292	0.75225147	-13.427367	
	0.31555223	-146.25123	0.31646589	33.730732	0.75225147	-13.427367	0.31683521	33.348017	
	
0.343234385008977	0.31838451	32.692423	0.74888501	-13.464926	0.31892652	33.150214	0.31842347	-146.85858	
