# MHz S MA R 50

0.1	0.4129344	29.076189	0.66649463	-17.716909	0.4128376	29.668316	0.41150892	-150.45306	
	0.66649463	-17.716909	0.41261983	29.709457	0.41327802	-150.81669	0.41402148	29.060374	
	0.4128376	29.668316	0.41327802	-150.81669	0.41196657	28.946774	0.66639215	-17.739729	
	0.41150892	-150.45306	0.41402148	29.060374	0.66639215	-17.739729	0.41553661	29.420709	
	
0.102310062021247	0.41647757	28.62081	0.66132697	-17.774936	0.41653057	29.380956	0.41550068	-150.72006	
	0.66132697	-17.774936	0.41748522	28.954479	0.41656505	-151.04464	0.41814087	28.8816	
	0.41653057	29.380956	0.41656505	-151.04464	0.41795663	28.512541	0.66116683	-17.852838	
	0.41550068	-150.72006	0.41814087	28.8816	0.66116683	-17.852838	0.41798013	28.824779	
	
0.104673487907914	0.42010074	28.091293	0.65784357	-17.706284	0.41778614	28.559466	0.41696568	-151.36003	
	0.65784357	-17.706284	0.41911141	28.283026	0.41670837	-151.43368	0.41780002	28.693828	
	0.41778614	28.559466	0.41670837	-151.43368	0.41999916	28.348785	0.65679792	-17.672512	
	0.41696568	-151.36003	0.41780002	28.693828	0.65679792	-17.672512	0.41949176	28.326245	
	
0.107091510398389	0.42146794	27.66174	0.65362367	-17.621071	0.42048177	28.10157	0.41969176	-151.87092	
	0.65362367	-17.621071	0.42204473	27.887022	0.41913351	-151.85416	0.42015017	28.161176	
	0.42048177	28.10157	0.41913351	-151.85416	0.42192926	27.834565	0.65324448	-17.563051	
	0.41969176	-151.87092	0.42015017	28.161176	0.65324448	-17.563051	0.42290606	28.019733	
	
0.109565390708082	0.4238088	27.171221	0.64969117	-17.486371	0.42240027	27.567864	0.42179909	-152.38169	
	0.64969117	-17.486371	0.42317943	27.492058	0.42167019	-152.60762	0.42318849	27.529948	
	0.42240027	27.567864	0.42167019	-152.60762	0.42376522	27.333696	0.64933607	-17.459859	
	0.42179909	-152.38169	0.42318849	27.529948	0.64933607	-17.459859	0.42363577	27.290828	
	
0.112096419187261	0.42592113	26.607243	0.64564517	-17.400147	0.42457335	27.115286	0.42357442	-152.86762	
	0.64564517	-17.400147	0.42564562	26.744551	0.42371458	-153.03252	0.42436257	27.051806	
	0.42457335	27.115286	0.42371458	-153.03252	0.42603649	26.742318	0.64508231	-17.41696	
	0.42357442	-152.86762	0.42436257	27.051806	0.64508231	-17.41696	0.42554642	26.922595	
	
0.114685915994083	0.42794128	26.095931	0.64060669	-17.273316	0.42670457	26.613972	0.42578733	-153.48321	
	0.64060669	-17.273316	0.42760865	26.463883	0.42654617	-153.46872	0.4279416	26.48783	
	0.42670457	26.613972	0.42654617	-153.46872	0.42871439	26.277718	0.64128283	-17.331723	
	0.42578733	-153.48321	0.4279416	26.48783	0.64128283	-17.331723	0.42853307	26.378842	
	
0.117335231783182	0.43065721	25.632725	0.63728139	-17.172037	0.42905875	26.131111	0.42857932	-153.91441	
	0.63728139	-17.172037	0.42990911	25.912735	0.42850015	-153.904	0.42981375	26.039514	
	0.42905875	26.131111	0.42850015	-153.904	0.43106516	25.768294	0.63634198	-17.207542	
	0.42857932	-153.91441	0.42981375	26.039514	0.63634198	-17.207542	0.43013328	25.874408	
	
0.120045748410147	0.43195562	25.20781	0.63288209	-17.098977	0.43107193	25.798313	0.42924296	-154.36162	
	0.63288209	-17.098977	0.43154815	25.588246	0.42980095	-154.4163	0.43160698	25.430042	
	0.43107193	25.798313	0.42980095	-154.4163	0.43293969	25.255466	0.63258157	-17.012423	
	0.42924296	-154.36162	0.43160698	25.430042	0.63258157	-17.012423	0.43088059	25.281639	
	
0.122818879652292	0.43373705	24.750414	0.62971755	-16.955867	0.43308319	25.173259	0.43210742	-154.90544	
	0.62971755	-16.955867	0.43423909	24.879865	0.43206246	-154.94824	0.43327429	24.982391	
	0.43308319	25.173259	0.43206246	-154.94824	0.43441879	24.737236	0.62888695	-16.93669	
	0.43210742	-154.90544	0.43327429	24.982391	0.62888695	-16.93669	0.43342766	24.925712	
	
0.125656071946061	0.43636541	24.277023	0.62631194	-16.829266	0.4350051	24.69944	0.43459194	-155.27596	
	0.62631194	-16.829266	0.43536606	24.53557	0.43477298	-155.40772	0.43569679	24.596108	
	0.4350051	24.69944	0.43477298	-155.40772	0.43555907	24.361412	0.62556426	-16.757069	
	0.43459194	-155.27596	0.43569679	24.596108	0.62556426	-16.757069	0.43565416	24.376198	
	
0.128558805141477	0.43619706	23.781826	0.62204541	-16.661925	0.43644994	24.245522	0.43567935	-155.83963	
	0.62204541	-16.661925	0.43821575	24.101989	0.4355754	-155.94442	0.43727147	24.094484	
	0.43644994	24.245522	0.4355754	-155.94442	0.4383887	23.840035	0.62166421	-16.615554	
	0.43567935	-155.83963	0.43727147	24.094484	0.62166421	-16.615554	0.43767726	23.980061	
	
0.131528593274019	0.43978378	23.468214	0.61849189	-16.55767	0.43876148	23.795375	0.43791522	-156.31208	
	0.61849189	-16.55767	0.44003975	23.557844	0.43733426	-156.33285	0.43899412	23.619034	
	0.43876148	23.795375	0.43733426	-156.33285	0.44050133	23.449393	0.61757607	-16.517396	
	0.43791522	-156.31208	0.43899412	23.619034	0.61757607	-16.517396	0.43867226	23.578773	
	
0.134566985354323	0.44131836	22.821616	0.61504867	-16.367833	0.43983134	23.285242	0.43917425	-156.80419	
	0.61504867	-16.367833	0.44134862	23.215166	0.43888899	-156.84693	0.44016107	23.200272	
	0.43983134	23.285242	0.43888899	-156.84693	0.44192361	23.033971	0.61420519	-16.3426	
	0.43917425	-156.80419	0.44016107	23.200272	0.61420519	-16.3426	0.44111035	23.022234	
	
0.13767556617613	0.44272649	22.4391	0.61150949	-16.243607	0.44098003	22.896828	0.43970697	-157.10368	
	0.61150949	-16.243607	0.44299248	22.788276	0.440286	-157.25276	0.44133902	22.768504	
	0.44098003	22.896828	0.440286	-157.25276	0.44288022	22.456609	0.61086206	-16.238162	
	0.43970697	-157.10368	0.44133902	22.768504	0.61086206	-16.238162	0.44217404	22.451253	
	
0.140855957142902	0.44443677	21.977814	0.60903698	-16.107396	0.44309825	22.455375	0.44264847	-157.59386	
	0.60903698	-16.107396	0.44366411	22.24929	0.44235446	-157.76405	0.44372994	22.317211	
	0.44309825	22.455375	0.44235446	-157.76405	0.44454086	22.126018	0.60756292	-16.108644	
	0.44264847	-157.59386	0.44372994	22.317211	0.60756292	-16.108644	0.44311039	22.340683	
	
0.144109817113524	0.44604224	21.547981	0.6050487	-15.910283	0.44466658	22.004833	0.44343794	-158.03115	
	0.6050487	-15.910283	0.44558499	21.819606	0.44406327	-158.11511	0.44476741	21.846361	
	0.44466658	22.004833	0.44406327	-158.11511	0.44631757	21.669112	0.60448765	-15.916112	
	0.44343794	-158.03115	0.44476741	21.846361	0.60448765	-15.916112	0.44555562	21.723469	
	
0.147438843267552	0.44824058	21.208428	0.60195059	-15.74927	0.44679783	21.518432	0.44535881	-158.62192	
	0.60195059	-15.74927	0.44754893	21.320625	0.44621289	-158.63008	0.44670597	21.464236	
	0.44679783	21.518432	0.44621289	-158.63008	0.44691941	21.346355	0.60112984	-15.757278	
	0.44535881	-158.62192	0.44670597	21.464236	0.60112984	-15.757278	0.44684382	21.304459	
	
0.150844771990442	0.44898511	20.721337	0.59843689	-15.586849	0.44782088	21.133371	0.44646556	-158.88906	
	0.59843689	-15.586849	0.44689365	20.904766	0.4469419	-158.99397	0.44802206	20.969136	
	0.44782088	21.133371	0.4469419	-158.99397	0.44938232	20.871381	0.5982323	-15.508945	
	0.44646556	-158.88906	0.44802206	20.969136	0.5982323	-15.508945	0.44896108	20.876237	
	
0.154329379779229	0.45028398	20.439439	0.59621098	-15.345558	0.44937146	20.708454	0.4481133	-159.41876	
	0.59621098	-15.345558	0.44953401	20.498251	0.44910062	-159.50971	0.4494954	20.483141	
	0.44937146	20.708454	0.44910062	-159.50971	0.44990982	20.345206	0.59516933	-15.367777	
	0.4481133	-159.41876	0.4494954	20.483141	0.59516933	-15.367777	0.45074502	20.500029	
	
0.157894484169135	0.45147982	19.884235	0.59310591	-15.181855	0.45055723	20.287787	0.44983622	-159.79987	
	0.59310591	-15.181855	0.4505402	20.140058	0.45019788	-159.9018	0.45090794	20.148161	
	0.45055723	20.287787	0.45019788	-159.9018	0.45291089	19.93608	0.59236977	-15.185101	
	0.44983622	-159.79987	0.45090794	20.148161	0.59236977	-15.185101	0.45089881	20.048042	
	
0.16154194468157	0.45370162	19.349644	0.58999373	-15.013932	0.45125587	19.873063	0.4506947	-160.26786	
	0.58999373	-15.013932	0.45172933	19.584225	0.45087318	-160.31991	0.45200527	19.767448	
	0.45125587	19.873063	0.45087318	-160.31991	0.4528729	19.38223	0.58867033	-15.033812	
	0.4506947	-160.26786	0.45200527	19.767448	0.58867033	-15.033812	0.45300122	19.683206	
	
0.165273663794043	0.45382278	19.049791	0.58688914	-14.860942	0.4525081	19.440896	0.45145433	-160.55979	
	0.58688914	-14.860942	0.45412487	19.34649	0.45201316	-160.66769	0.45280395	19.388669	
	0.4525081	19.440896	0.45201316	-160.66769	0.4537475	19.000936	0.58658141	-14.826112	
	0.45145433	-160.55979	0.45280395	19.388669	0.58658141	-14.826112	0.45351295	19.232442	
	
0.169091587932473	0.45539065	18.69895	0.58423859	-14.65638	0.4538184	19.038075	0.45313243	-161.00173	
	0.58423859	-14.65638	0.45522488	18.740781	0.45298131	-161.03254	0.45397848	18.99518	
	0.4538184	19.038075	0.45298131	-161.03254	0.45562444	18.730513	0.58342806	-14.656084	
	0.45313243	-161.00173	0.45397848	18.99518	0.58342806	-14.656084	0.45475205	18.791412	
	
0.172997708486424	0.45607579	18.281878	0.58154194	-14.430891	0.45539106	18.670305	0.45438784	-161.49255	
	0.58154194	-14.430891	0.45619689	18.337485	0.45446042	-161.48869	0.45497351	18.555138	
	0.45539106	18.670305	0.45446042	-161.48869	0.45658654	18.269155	0.5812991	-14.356705	
	0.45438784	-161.49255	0.45497351	18.555138	0.5812991	-14.356705	0.4565576	18.544447	
	
0.176994062847797	0.45764992	17.81315	0.5790333	-14.264697	0.45580974	18.234455	0.45486836	-161.82514	
	0.5790333	-14.264697	0.45710559	18.173391	0.45503771	-161.92548	0.45602741	18.143173	
	0.45580974	18.234455	0.45503771	-161.92548	0.45841851	18.030216	0.57816696	-14.249596	
	0.45486836	-161.82514	0.45602741	18.143173	0.57816696	-14.249596	0.4563793	17.897197	
	
0.181082735473506	0.45835059	17.389389	0.57594804	-14.024749	0.45732016	17.786542	0.45660661	-162.13898	
	0.57594804	-14.024749	0.4585723	17.626791	0.45631884	-162.30469	0.45722566	17.783627	
	0.45732016	17.786542	0.45631884	-162.30469	0.45876315	17.61314	0.57589688	-14.02393	
	0.45660661	-162.13898	0.45722566	17.783627	0.57589688	-14.02393	0.4580627	17.509812	
	
0.185265858972714	0.45906725	17.125829	0.57433653	-13.780701	0.45790693	17.495465	0.45711857	-162.54843	
	0.57433653	-13.780701	0.45919066	17.309476	0.45776342	-162.71056	0.45818141	17.327401	
	0.45790693	17.495465	0.45776342	-162.71056	0.4601894	17.250504	0.5735321	-13.783533	
	0.45711857	-162.54843	0.45818141	17.327401	0.5735321	-13.783533	0.4591769	17.199926	
	
0.18954561521918	0.46108068	16.840945	0.57110911	-13.624783	0.45889222	17.089163	0.45736315	-162.88765	
	0.57110911	-13.624783	0.45916967	17.053197	0.45727339	-163.14673	0.45885298	17.002921	
	0.45889222	17.089163	0.45727339	-163.14673	0.46100591	16.839588	0.57091714	-13.560736	
	0.45736315	-162.88765	0.45885298	17.002921	0.57091714	-13.560736	0.45987534	16.904913	
	
0.193924236489297	0.46134198	16.399511	0.56951287	-13.443834	0.45965352	16.735527	0.45827948	-163.30868	
	0.56951287	-13.443834	0.46085431	16.571101	0.45909408	-163.40983	0.45973273	16.711147	
	0.45965352	16.735527	0.45909408	-163.40983	0.46175701	16.543048	0.5688201	-13.354939	
	0.45827948	-163.30868	0.45973273	16.711147	0.5688201	-13.354939	0.46131939	16.479566	
	
0.19840400662643	0.46239356	16.050617	0.56677355	-13.194776	0.46108537	16.448906	0.45941453	-163.68017	
	0.56677355	-13.194776	0.46146693	16.221788	0.4600311	-163.7688	0.46088103	16.283964	
	0.46108537	16.448906	0.4600311	-163.7688	0.46277598	16.077373	0.56682132	-13.155296	
	0.45941453	-163.68017	0.46088103	16.283964	0.56682132	-13.155296	0.46177753	16.076902	
	
0.202987262232139	0.46253887	15.599703	0.56549961	-12.991144	0.46104783	16.026493	0.46001461	-163.92077	
	0.56549961	-12.991144	0.46263494	15.899271	0.46001074	-164.10568	0.46066046	15.917382	
	0.46104783	16.026493	0.46001074	-164.10568	0.46288233	15.772423	0.56424244	-12.973189	
	0.46001461	-163.92077	0.46066046	15.917382	0.56424244	-12.973189	0.46232782	15.846492	
	
0.207676393884933	0.46334007	15.376553	0.56339436	-12.775883	0.46237083	15.685578	0.46127226	-164.37275	
	0.56339436	-12.775883	0.46393223	15.500512	0.46166534	-164.49213	0.46241172	15.603101	
	0.46237083	15.685578	0.46166534	-164.49213	0.46414742	15.396528	0.56259339	-12.740288	
	0.46127226	-164.37275	0.46241172	15.603101	0.56259339	-12.740288	0.46310201	15.426163	
	
0.212473847387164	0.46517156	15.000406	0.56128956	-12.606516	0.46313639	15.341369	0.4618761	-164.71808	
	0.56128956	-12.606516	0.46408599	15.205052	0.46219341	-164.80264	0.46296464	15.239703	
	0.46313639	15.341369	0.46219341	-164.80264	0.46384995	15.064068	0.56079922	-12.522361	
	0.4618761	-164.71808	0.46296464	15.239703	0.56079922	-12.522361	0.46400223	15.123413	
	
0.217382125040737	0.46638732	14.66246	0.55933077	-12.393066	0.46339477	15.034647	0.46245935	-165.03267	
	0.55933077	-12.393066	0.46377655	14.737158	0.46265656	-165.19425	0.4639126	14.927835	
	0.46339477	15.034647	0.46265656	-165.19425	0.46511438	14.739152	0.5589552	-12.291427	
	0.46245935	-165.03267	0.4639126	14.927835	0.5589552	-12.291427	0.46511268	14.808609	
	
0.222403786952283	0.4662573	14.391857	0.55788449	-12.175216	0.46443901	14.689108	0.46350003	-165.385	
	0.55788449	-12.175216	0.46536529	14.604292	0.46386179	-165.53689	0.4646762	14.579089	
	0.46443901	14.689108	0.46386179	-165.53689	0.46685687	14.476595	0.55701684	-12.128451	
	0.46350003	-165.385	0.4646762	14.579089	0.55701684	-12.128451	0.46508969	14.488	
	
0.227541452368483	0.46654924	13.971353	0.55570764	-11.906124	0.46454455	14.365223	0.46390203	-165.66432	
	0.55570764	-11.906124	0.46577896	14.238503	0.46352991	-165.7582	0.46491588	14.21241	
	0.46454455	14.365223	0.46352991	-165.7582	0.46665272	14.188539	0.55535399	-11.916488	
	0.46390203	-165.66432	0.46491588	14.21241	0.55535399	-11.916488	0.46645719	14.132468	
	
0.232797801042241	0.46790926	13.73727	0.55462043	-11.724704	0.46525754	13.99517	0.46440842	-166.00145	
	0.55462043	-11.724704	0.46547656	13.915313	0.46432695	-166.10863	0.46584987	13.913269	
	0.46525754	13.99517	0.46432695	-166.10863	0.46748088	13.786207	0.55329233	-11.699467	
	0.46440842	-166.00145	0.46584987	13.913269	0.55329233	-11.699467	0.46542737	13.829128	
	
0.238175574630416	0.46792936	13.392784	0.55221139	-11.53876	0.46585367	13.750188	0.46499104	-166.30825	
	0.55221139	-11.53876	0.46676098	13.565762	0.46479172	-166.4154	0.46619184	13.626173	
	0.46585367	13.750188	0.46479172	-166.4154	0.46846454	13.595425	0.55239331	-11.516264	
	0.46499104	-166.30825	0.46619184	13.626173	0.55239331	-11.516264	0.46687501	13.45094	
	
0.24367757812384	0.46823106	12.987764	0.55108477	-11.34337	0.46677965	13.440286	0.4656907	-166.62041	
	0.55108477	-11.34337	0.46783863	13.200078	0.46606954	-166.79367	0.4667004	13.281602	
	0.46677965	13.440286	0.46606954	-166.79367	0.46815147	13.168702	0.55074312	-11.29289	
	0.4656907	-166.62041	0.4667004	13.281602	0.55074312	-11.29289	0.46819212	13.234501	
	
0.249306681310373	0.46882077	12.766469	0.55036631	-11.145728	0.46767042	13.121974	0.46657927	-166.90975	
	0.55036631	-11.145728	0.46762615	13.028409	0.46679193	-167.01455	0.46733089	13.081601	
	0.46767042	13.121974	0.46679193	-167.01455	0.46881054	12.970381	0.54957639	-11.105278	
	0.46657927	-166.90975	0.46733089	13.081601	0.54957639	-11.105278	0.46749772	12.993154	
	
0.255065820271756	0.46960707	12.585992	0.54896125	-10.934813	0.46821086	12.895667	0.46706516	-167.21859	
	0.54896125	-10.934813	0.46760412	12.707308	0.46767798	-167.36994	0.46780952	12.792292	
	0.46821086	12.895667	0.46767798	-167.36994	0.4693508	12.593654	0.54864124	-10.874756	
	0.46706516	-167.21859	0.46780952	12.792292	0.54864124	-10.874756	0.46894554	12.692451	
	
0.260957998915036	0.47016501	12.231225	0.54721846	-10.700531	0.46731114	12.610061	0.466677	-167.51214	
	0.54721846	-10.700531	0.46926197	12.391748	0.46699528	-167.59112	0.46801257	12.489407	
	0.46731114	12.610061	0.46699528	-167.59112	0.4692713	12.317237	0.54623349	-10.670591	
	0.466677	-167.51214	0.46801257	12.489407	0.54623349	-10.670591	0.46845238	12.411286	
	
0.266986290539378	0.47045442	12.018538	0.54617568	-10.507054	0.46868684	12.256539	0.46810246	-167.83767	
	0.54617568	-10.507054	0.46975577	12.187697	0.46851746	-167.8891	0.46922579	12.177687	
	0.46868684	12.256539	0.46851746	-167.8891	0.47019707	12.096594	0.54519095	-10.46796	
	0.46810246	-167.83767	0.46922579	12.177687	0.54519095	-10.46796	0.46940448	12.078758	
	
0.273153839439064	0.47021406	11.80028	0.54551787	-10.330705	0.46921779	12.044457	0.46848004	-168.04975	
	0.54551787	-10.330705	0.46953499	11.863078	0.46901831	-168.17558	0.4694826	11.939528	
	0.46921779	12.044457	0.46901831	-168.17558	0.47042133	11.728109	0.54437046	-10.237827	
	0.46848004	-168.04975	0.4694826	11.939528	0.54437046	-10.237827	0.47052818	11.79398	
	
0.279463862543524	0.47155316	11.321358	0.54369144	-10.133904	0.47002384	11.821431	0.46883327	-168.29984	
	0.54369144	-10.133904	0.46964211	11.600321	0.46872803	-168.38353	0.46891765	11.618432	
	0.47002384	11.821431	0.46872803	-168.38353	0.47124422	11.48718	0.54289425	-10.063251	
	0.46883327	-168.29984	0.46891765	11.618432	0.54289425	-10.063251	0.46938952	11.562812	
	
0.285919651095252	0.47113774	11.29143	0.54295349	-9.9504613	0.46954803	11.501521	0.46870567	-168.6521	
	0.54295349	-9.9504613	0.47055383	11.379946	0.46900351	-168.69286	0.46962968	11.394751	
	0.46954803	11.501521	0.46900351	-168.69286	0.47099081	11.306368	0.54241471	-9.9312703	
	0.46870567	-168.6521	0.46962968	11.394751	0.54241471	-9.9312703	0.47060213	11.266021	
	
0.292524572366485	0.4718275	10.983719	0.5414061	-9.7557358	0.46972061	11.280039	0.46937784	-168.89151	
	0.5414061	-9.7557358	0.47137548	11.202693	0.46985699	-169.07097	0.47020557	11.109663	
	0.46972061	11.280039	0.46985699	-169.07097	0.47219124	11.179066	0.54163476	-9.6993126	
	0.46937784	-168.89151	0.47020557	11.109663	0.54163476	-9.6993126	0.47142976	11.083621	
	
0.299282071415539	0.4722978	10.774644	0.54028365	-9.5510335	0.46969839	10.944136	0.46882688	-169.13771	
	0.54028365	-9.5510335	0.47143663	11.042865	0.46927477	-169.27309	0.47015689	10.766137	
	0.46969839	10.944136	0.46927477	-169.27309	0.47158569	10.808433	0.54035762	-9.5174493	
	0.46882688	-169.13771	0.47015689	10.766137	0.54035762	-9.5174493	0.47112404	10.881072	
	
0.30619567288371	0.47263027	10.602387	0.53995934	-9.4206318	0.47021504	10.731627	0.46921015	-169.35688	
	0.53995934	-9.4206318	0.4716817	10.70629	0.46986134	-169.48013	0.47021123	10.626623	
	0.47021504	10.731627	0.46986134	-169.48013	0.47154162	10.653021	0.53828756	-9.3245915	
	0.46921015	-169.35688	0.47021123	10.626623	0.53828756	-9.3245915	0.47185489	10.541879	
	
0.313268982833699	0.47268737	10.188821	0.53835785	-9.1618126	0.47116707	10.512954	0.46996508	-169.54961	
	0.53835785	-9.1618126	0.47193972	10.443096	0.47035897	-169.70622	0.47107311	10.367286	
	0.47116707	10.512954	0.47035897	-169.70622	0.47250431	10.306984	0.53769455	-9.0756543	
	0.46996508	-169.54961	0.47107311	10.367286	0.53769455	-9.0756543	0.47143205	10.328099	
	
0.320505690630487	0.47231923	9.9816842	0.53776285	-8.9373865	0.47082385	10.279753	0.47060628	-169.79014	
	0.53776285	-8.9373865	0.47203665	10.079724	0.47050917	-169.85936	0.47189332	10.146605	
	0.47082385	10.279753	0.47050917	-169.85936	0.47281012	10.011688	0.53742227	-8.8743649	
	0.47060628	-169.79014	0.47189332	10.146605	0.53742227	-8.8743649	0.47167664	9.9728734	
	
0.327909570865677	0.47214343	9.6485754	0.53674234	-8.7760155	0.47207574	10.153292	0.47089674	-169.97496	
	0.53674234	-8.7760155	0.47148444	9.7462496	0.47128419	-170.09056	0.47230686	9.9707504	
	0.47207574	10.153292	0.47128419	-170.09056	0.47341969	9.6838935	0.53630308	-8.643545	
	0.47089674	-169.97496	0.47230686	9.9707504	0.53630308	-8.643545	0.47217532	9.7344316	
	
0.335484485326279	0.47313653	9.4993764	0.53583531	-8.6063489	0.47207263	9.8695839	0.47098692	-170.19144	
	0.53583531	-8.6063489	0.47272616	9.6445718	0.47137851	-170.27085	0.47226982	9.8782851	
	0.47207263	9.8695839	0.47137851	-170.27085	0.47269245	9.4274202	0.53554971	-8.5270368	
	0.47098692	-170.19144	0.47226982	9.8782851	0.53554971	-8.5270368	0.47251912	9.5085767	
	
0.343234385008977	0.47273314	9.2519406	0.53522995	-8.4478712	0.4725861	9.6131937	0.47162554	-170.39703	
