# MHz S MA R 50

0.1	0.16323962	66.100256	0.94140317	-9.1775526	0.16409752	67.200641	0.16349396	-112.98666	
	0.94140317	-9.1775526	0.1686343	67.529094	0.16455764	-113.41973	0.16491719	66.455095	
	0.16409752	67.200641	0.16455764	-113.41973	0.16095206	66.073873	0.94185561	-9.2118379	
	0.16349396	-112.98666	0.16491719	66.455095	0.94185561	-9.2118379	0.16803051	67.051477	
	
0.102310062021247	0.16418334	65.835192	0.94097239	-9.4123435	0.16781845	67.091195	0.16754054	-113.04452	
	0.94097239	-9.4123435	0.16926568	66.701049	0.16792817	-113.4723	0.16872146	66.429925	
	0.16781845	67.091195	0.16792817	-113.4723	0.16542364	65.045339	0.94058847	-9.4969776	
	0.16754054	-113.04452	0.16872146	66.429925	0.94058847	-9.4969776	0.16817272	66.767628	
	
0.104673487907914	0.1711827	64.911335	0.93795839	-9.5707594	0.17060893	66.080838	0.16997784	-113.91243	
	0.93795839	-9.5707594	0.1704413	65.284167	0.1699777	-113.93252	0.1701754	66.29313	
	0.17060893	66.080838	0.1699777	-113.93252	0.17314827	65.224711	0.93698605	-9.5320333	
	0.16997784	-113.91243	0.1701754	66.29313	0.93698605	-9.5320333	0.17004374	65.088413	
	
0.107091510398389	0.17308983	64.604061	0.93591734	-9.7279728	0.1741812	65.734293	0.17334291	-114.39447	
	0.93591734	-9.7279728	0.17466609	65.073523	0.17320549	-114.22444	0.17341569	65.744039	
	0.1741812	65.734293	0.17320549	-114.22444	0.17506245	64.858788	0.93543813	-9.7011849	
	0.17334291	-114.39447	0.17341569	65.744039	0.93543813	-9.7011849	0.17582844	64.758616	
	
0.109565390708082	0.17722202	63.834984	0.93383396	-9.9419934	0.17766737	65.057227	0.17723506	-114.91088	
	0.93383396	-9.9419934	0.17871034	64.958479	0.17710483	-115.11281	0.17775754	65.026186	
	0.17766737	65.057227	0.17710483	-115.11281	0.17791804	64.536836	0.93288875	-9.9000161	
	0.17723506	-114.91088	0.17775754	65.026186	0.93288875	-9.9000161	0.17792599	64.166769	
	
0.112096419187261	0.17917072	63.192434	0.93096196	-10.090387	0.18069764	64.581878	0.18022357	-115.37726	
	0.93096196	-10.090387	0.18168177	64.084605	0.18040899	-115.45568	0.180763	64.48452	
	0.18069764	64.581878	0.18040899	-115.45568	0.18062916	63.729197	0.92998544	-10.101432	
	0.18022357	-115.37726	0.180763	64.48452	0.92998544	-10.101432	0.18196565	63.977678	
	
0.114685915994083	0.18407604	63.121513	0.92899381	-10.298787	0.18469843	63.9763	0.18377827	-115.98913	
	0.92899381	-10.298787	0.18528265	64.080287	0.18429664	-115.98542	0.1848305	64.028637	
	0.18469843	63.9763	0.18429664	-115.98542	0.18486044	62.826129	0.92812904	-10.258518	
	0.18377827	-115.98913	0.1848305	64.028637	0.92812904	-10.258518	0.18499324	63.723428	
	
0.117335231783182	0.18735375	62.506046	0.92648435	-10.4523	0.18805835	63.635088	0.1880717	-116.4872	
	0.92648435	-10.4523	0.1890663	63.420419	0.18770936	-116.52638	0.18892537	63.411901	
	0.18805835	63.635088	0.18770936	-116.52638	0.18754821	62.577323	0.92567257	-10.487021	
	0.1880717	-116.4872	0.18892537	63.411901	0.92567257	-10.487021	0.18802642	63.061493	
	
0.120045748410147	0.19009913	61.704205	0.92353257	-10.634499	0.19156241	63.026347	0.19099999	-116.97162	
	0.92353257	-10.634499	0.19274875	63.36856	0.19105668	-117.09238	0.19207674	62.825655	
	0.19156241	63.026347	0.19105668	-117.09238	0.19169851	61.87354	0.92283747	-10.626326	
	0.19099999	-116.97162	0.19207674	62.825655	0.92283747	-10.626326	0.19199071	62.463908	
	
0.122818879652292	0.19410134	61.479135	0.9208719	-10.812501	0.19535473	62.344804	0.1950933	-117.66647	
	0.9208719	-10.812501	0.19585093	62.077712	0.19488207	-117.66417	0.19524442	62.270485	
	0.19535473	62.344804	0.19488207	-117.66417	0.19532019	61.535533	0.91999027	-10.817179	
	0.1950933	-117.66647	0.19524442	62.270485	0.91999027	-10.817179	0.19574386	62.268615	
	
0.125656071946061	0.19826084	61.056836	0.91844045	-10.995536	0.19899719	61.836892	0.19877911	-118.09265	
	0.91844045	-10.995536	0.19908295	61.849016	0.19891203	-118.34248	0.19947539	61.748581	
	0.19899719	61.836892	0.19891203	-118.34248	0.19885799	60.870486	0.91751991	-10.995356	
	0.19877911	-118.09265	0.19947539	61.748581	0.91751991	-10.995356	0.19916143	61.356615	
	
0.128558805141477	0.20055995	60.322129	0.91411206	-11.21069	0.20262876	61.331084	0.20235533	-118.79641	
	0.91411206	-11.21069	0.20353906	60.929416	0.20205746	-118.98922	0.20261736	61.003922	
	0.20262876	61.331084	0.20205746	-118.98922	0.20344228	60.047164	0.91327757	-11.151921	
	0.20235533	-118.79641	0.20261736	61.003922	0.91327757	-11.151921	0.20388453	60.702164	
	
0.131528593274019	0.20562578	59.896475	0.91194916	-11.373987	0.20635338	60.646267	0.20621309	-119.48012	
	0.91194916	-11.373987	0.20756979	60.466611	0.20613588	-119.48901	0.20691858	60.512289	
	0.20635338	60.646267	0.20613588	-119.48901	0.2073326	59.811663	0.91133584	-11.351133	
	0.20621309	-119.48012	0.20691858	60.512289	0.91133584	-11.351133	0.20707984	60.72651	
	
0.134566985354323	0.20911547	58.993215	0.90813194	-11.520348	0.20938371	60.022206	0.2095305	-120.06739	
	0.90813194	-11.520348	0.21096245	59.829545	0.20930384	-120.18524	0.20990453	59.879648	
	0.20938371	60.022206	0.20930384	-120.18524	0.21144536	59.419342	0.9069593	-11.547451	
	0.2095305	-120.06739	0.20990453	59.879648	0.9069593	-11.547451	0.21114377	59.463241	
	
0.13767556617613	0.21227932	58.336919	0.90350985	-11.707712	0.21300664	59.487889	0.21266171	-120.50384	
	0.90350985	-11.707712	0.21561771	59.241521	0.21266263	-120.61053	0.21310368	59.292187	
	0.21300664	59.487889	0.21266263	-120.61053	0.2134815	58.338477	0.90353531	-11.677904	
	0.21266171	-120.50384	0.21310368	59.292187	0.90353531	-11.677904	0.2124492	58.36915	
	
0.140855957142902	0.21499345	57.62148	0.9009981	-11.898346	0.21669247	58.709054	0.21647531	-121.21335	
	0.9009981	-11.898346	0.21838872	58.353417	0.21643068	-121.43964	0.21758768	58.599894	
	0.21669247	58.709054	0.21643068	-121.43964	0.21802223	57.920671	0.89984816	-11.889235	
	0.21647531	-121.21335	0.21758768	58.599894	0.89984816	-11.889235	0.21575381	58.821442	
	
0.144109817113524	0.22025895	57.149091	0.89763262	-12.046659	0.22022512	58.232274	0.22007025	-121.80494	
	0.89763262	-12.046659	0.22218338	57.839325	0.22024609	-122.02084	0.22097508	58.013849	
	0.22022512	58.232274	0.22024609	-122.02084	0.22063826	57.149528	0.89682076	-12.041255	
	0.22007025	-121.80494	0.22097508	58.013849	0.89682076	-12.041255	0.22108404	57.674783	
	
0.147438843267552	0.22514417	56.869461	0.894167	-12.242437	0.22475717	57.405468	0.22439505	-122.6734	
	0.894167	-12.242437	0.22607446	57.011545	0.22472736	-122.63971	0.22496329	57.384544	
	0.22475717	57.405468	0.22472736	-122.63971	0.22556462	57.11175	0.89344683	-12.212831	
	0.22439505	-122.6734	0.22496329	57.384544	0.89344683	-12.212831	0.22506886	57.349396	
	
0.150844771990442	0.22709284	56.12141	0.89037771	-12.368251	0.22795947	56.885341	0.22758305	-123.11227	
	0.89037771	-12.368251	0.22797334	56.461685	0.22800256	-123.1927	0.22846764	56.694698	
	0.22795947	56.885341	0.22800256	-123.1927	0.22954673	56.219669	0.88967831	-12.335641	
	0.22758305	-123.11227	0.22846764	56.694698	0.88967831	-12.335641	0.22915727	56.237712	
	
0.154329379779229	0.23214803	55.439802	0.88664569	-12.511074	0.23187131	56.142091	0.23133388	-123.89349	
	0.88664569	-12.511074	0.2337269	56.004372	0.23187872	-123.92254	0.23211405	55.998246	
	0.23187131	56.142091	0.23187872	-123.92254	0.23057707	55.548522	0.88578166	-12.543386	
	0.23133388	-123.89349	0.23211405	55.998246	0.88578166	-12.543386	0.23302968	55.663867	
	
0.157894484169135	0.23542957	54.657278	0.88291444	-12.700335	0.23537646	55.508273	0.2356794	-124.53348	
	0.88291444	-12.700335	0.23606214	55.545587	0.23515667	-124.57465	0.23596605	55.319539	
	0.23537646	55.508273	0.23515667	-124.57465	0.236783	54.810336	0.88219702	-12.705568	
	0.2356794	-124.53348	0.23596605	55.319539	0.88219702	-12.705568	0.23558311	55.234408	
	
0.16154194468157	0.23929019	53.908296	0.87906575	-12.887286	0.23895378	54.879396	0.2385581	-125.15631	
	0.87906575	-12.887286	0.23856174	54.499543	0.23912474	-125.07968	0.23962822	54.833649	
	0.23895378	54.879396	0.23912474	-125.07968	0.23998801	53.951714	0.87801612	-12.87829	
	0.2385581	-125.15631	0.23962822	54.833649	0.87801612	-12.87829	0.24042982	54.618381	
	
0.165273663794043	0.2425409	53.373916	0.87442915	-13.004772	0.24272826	54.215685	0.24223758	-125.72547	
	0.87442915	-13.004772	0.24377483	53.81672	0.24228987	-125.90368	0.24274204	54.089839	
	0.24272826	54.215685	0.24228987	-125.90368	0.24306597	53.504062	0.87343345	-12.984209	
	0.24223758	-125.72547	0.24274204	54.089839	0.87343345	-12.984209	0.24338092	53.758902	
	
0.169091587932473	0.24586419	52.800403	0.87091061	-13.141346	0.2465779	53.548919	0.24584129	-126.44226	
	0.87091061	-13.141346	0.24746636	53.09145	0.24592317	-126.53718	0.24599313	53.44928	
	0.2465779	53.548919	0.24592317	-126.53718	0.24707786	52.867953	0.86991306	-13.152298	
	0.24584129	-126.44226	0.24599313	53.44928	0.86991306	-13.152298	0.24629593	53.102093	
	
0.172997708486424	0.24953269	52.088857	0.86669856	-13.278914	0.25065132	52.907238	0.24974985	-127.20083	
	0.86669856	-13.278914	0.25116174	52.494627	0.24952358	-127.19755	0.25026592	52.809753	
	0.25065132	52.907238	0.24952358	-127.19755	0.25052189	52.069045	0.8663968	-13.241051	
	0.24974985	-127.20083	0.25026592	52.809753	0.8663968	-13.241051	0.25101627	52.697138	
	
0.176994062847797	0.25394827	51.525459	0.86279541	-13.423093	0.25345826	52.212782	0.25287583	-127.83794	
	0.86279541	-13.423093	0.25449125	52.10717	0.25308182	-128.02758	0.25365441	52.082496	
	0.25345826	52.212782	0.25308182	-128.02758	0.25510583	51.535738	0.86200658	-13.396148	
	0.25287583	-127.83794	0.25365441	52.082496	0.86200658	-13.396148	0.25382481	51.634268	
	
0.181082735473506	0.25646998	50.739358	0.85817875	-13.560836	0.25696229	51.44379	0.25682028	-128.41657	
	0.85817875	-13.560836	0.25874517	51.308161	0.25674104	-128.65748	0.25716497	51.503844	
	0.25696229	51.44379	0.25674104	-128.65748	0.25851373	50.924332	0.85753081	-13.555278	
	0.25682028	-128.41657	0.25716497	51.503844	0.85753081	-13.555278	0.25700433	50.893376	
	
0.185265858972714	0.26102797	50.05915	0.85383684	-13.678483	0.26052544	50.822168	0.26003865	-129.1865	
	0.85383684	-13.678483	0.2621451	50.584831	0.26014414	-129.28986	0.26028709	50.69352	
	0.26052544	50.822168	0.26014414	-129.28986	0.26127855	50.225989	0.8530003	-13.660055	
	0.26003865	-129.1865	0.26028709	50.69352	0.8530003	-13.660055	0.26082072	50.218106	
	
0.18954561521918	0.2644868	49.505518	0.84987494	-13.770945	0.26393713	50.033034	0.26335868	-129.87326	
	0.84987494	-13.770945	0.2651664	50.041315	0.26357301	-130.18174	0.26439787	50.010226	
	0.26393713	50.033034	0.26357301	-130.18174	0.26583048	49.448535	0.84872532	-13.771083	
	0.26335868	-129.87326	0.26439787	50.010226	0.84872532	-13.771083	0.2655889	49.743287	
	
0.193924236489297	0.26826102	48.777597	0.84496908	-13.921629	0.26696783	49.475156	0.26637014	-130.57404	
	0.84496908	-13.921629	0.26851485	49.334093	0.26691445	-130.63359	0.26745736	49.394835	
	0.26696783	49.475156	0.26691445	-130.63359	0.26907696	48.860494	0.84483802	-13.855234	
	0.26637014	-130.57404	0.26745736	49.394835	0.84483802	-13.855234	0.26880648	49.0957	
	
0.19840400662643	0.27147069	48.050545	0.84113788	-14.054558	0.27134353	48.853269	0.27075046	-131.30974	
	0.84113788	-14.054558	0.27232727	48.572084	0.27104467	-131.28308	0.27122464	48.658568	
	0.27134353	48.853269	0.27104467	-131.28308	0.27166994	48.35795	0.84068561	-14.009196	
	0.27075046	-131.30974	0.27122464	48.658568	0.84068561	-14.009196	0.27122162	48.405145	
	
0.202987262232139	0.27391234	47.255418	0.83585822	-14.112897	0.27421149	48.175198	0.27363578	-131.73988	
	0.83585822	-14.112897	0.27648703	47.823915	0.27331328	-132.04225	0.27370492	48.006596	
	0.27421149	48.175198	0.27331328	-132.04225	0.27468415	47.488173	0.83464741	-14.092572	
	0.27363578	-131.73988	0.27370492	48.006596	0.83464741	-14.092572	0.27427147	47.71539	
	
0.207676393884933	0.27796856	46.923562	0.83226179	-14.244061	0.27794014	47.461678	0.27712153	-132.57059	
	0.83226179	-14.244061	0.2795217	47.255495	0.2771106	-132.72938	0.27811787	47.359195	
	0.27794014	47.461678	0.2771106	-132.72938	0.27920612	46.900681	0.8314285	-14.200179	
	0.27712153	-132.57059	0.27811787	47.359195	0.8314285	-14.200179	0.27852542	47.110381	
	
0.212473847387164	0.28128555	46.075073	0.82723735	-14.316419	0.2813309	46.78091	0.28083231	-133.24537	
	0.82723735	-14.316419	0.28219152	46.599311	0.28079899	-133.32972	0.28118923	46.612433	
	0.2813309	46.78091	0.28079899	-133.32972	0.28162941	46.270562	0.82717185	-14.339084	
	0.28083231	-133.24537	0.28118923	46.612433	0.82717185	-14.339084	0.2827014	46.292495	
	
0.217382125040737	0.28459367	45.357002	0.82333441	-14.412334	0.28375176	46.086558	0.28326192	-133.92597	
	0.82333441	-14.412334	0.28523559	45.837413	0.28409698	-134.1491	0.28475699	45.94125	
	0.28375176	46.086558	0.28409698	-134.1491	0.28625889	45.578479	0.82197467	-14.362985	
	0.28326192	-133.92597	0.28475699	45.94125	0.82197467	-14.362985	0.28480577	45.658469	
	
0.222403786952283	0.28914118	44.901072	0.81844093	-14.495918	0.28770904	45.397792	0.28718631	-134.56598	
	0.81844093	-14.495918	0.28977184	45.41948	0.28693553	-134.89966	0.28802003	45.267808	
	0.28770904	45.397792	0.28693553	-134.89966	0.28919067	44.971951	0.81774999	-14.491123	
	0.28718631	-134.56598	0.28802003	45.267808	0.81774999	-14.491123	0.2876644	45.141485	
	
0.227541452368483	0.29105018	44.111714	0.81341186	-14.569318	0.29058916	44.784429	0.29014724	-135.25192	
	0.81341186	-14.569318	0.29301962	44.527556	0.28987993	-135.40635	0.29087345	44.477638	
	0.29058916	44.784429	0.28987993	-135.40635	0.29165899	44.192177	0.81334199	-14.477227	
	0.29014724	-135.25192	0.29087345	44.477638	0.81334199	-14.477227	0.29161831	44.477899	
	
0.232797801042241	0.29497072	43.405658	0.8094712	-14.633506	0.29343009	43.992396	0.29342754	-135.95761	
	0.8094712	-14.633506	0.29512507	43.897845	0.29319031	-136.14443	0.29428797	43.911841	
	0.29343009	43.992396	0.29319031	-136.14443	0.29463387	43.56057	0.80807401	-14.611624	
	0.29342754	-135.95761	0.29428797	43.911841	0.80807401	-14.611624	0.29396462	43.929062	
	
0.238175574630416	0.29770107	42.813172	0.80441468	-14.729231	0.29665264	43.386675	0.29660836	-136.58297	
	0.80441468	-14.729231	0.29918682	43.138781	0.29649506	-136.74418	0.29782932	43.286697	
	0.29665264	43.386675	0.29649506	-136.74418	0.29887797	42.836928	0.8043275	-14.688839	
	0.29660836	-136.58297	0.29782932	43.286697	0.8043275	-14.688839	0.29746347	43.103034	
	
0.24367757812384	0.30032674	42.137257	0.80027677	-14.748935	0.30048143	42.712552	0.29947243	-137.24801	
	0.80027677	-14.748935	0.30219142	42.61215	0.30004879	-137.46635	0.30038814	42.581827	
	0.30048143	42.712552	0.30004879	-137.46635	0.30141181	42.422662	0.79943182	-14.743527	
	0.29947243	-137.24801	0.30038814	42.581827	0.79943182	-14.743527	0.30050324	42.392306	
	
0.249306681310373	0.30372719	41.428455	0.79587122	-14.839846	0.30374452	42.03044	0.30310507	-137.9741	
	0.79587122	-14.839846	0.30332888	41.901967	0.30315429	-138.12682	0.30392761	41.883219	
	0.30374452	42.03044	0.30315429	-138.12682	0.30477649	41.602626	0.79559164	-14.780976	
	0.30310507	-137.9741	0.30392761	41.883219	0.79559164	-14.780976	0.302884	41.665748	
	
0.255065820271756	0.30686182	40.840948	0.791233	-14.873488	0.306665	41.417189	0.30562118	-138.61213	
	0.791233	-14.873488	0.30778257	41.282295	0.30612177	-138.87142	0.30649548	41.318019	
	0.306665	41.417189	0.30612177	-138.87142	0.30767603	40.930646	0.79056815	-14.809397	
	0.30562118	-138.61213	0.30649548	41.318019	0.79056815	-14.809397	0.30740777	41.181004	
	
0.260957998915036	0.31019576	40.092252	0.78646883	-14.868719	0.30862741	40.858245	0.30826725	-139.32181	
	0.78646883	-14.868719	0.31028968	40.497212	0.30838379	-139.38781	0.30911332	40.680264	
	0.30862741	40.858245	0.30838379	-139.38781	0.31018235	40.22578	0.78569643	-14.845972	
	0.30826725	-139.32181	0.30911332	40.680264	0.78569643	-14.845972	0.30941762	40.356926	
	
0.266986290539378	0.31310243	39.584111	0.78208028	-14.888281	0.31209289	40.055321	0.31130085	-139.97475	
	0.78208028	-14.888281	0.31346107	40.009025	0.31167333	-140.01251	0.31259952	39.929817	
	0.31209289	40.055321	0.31167333	-140.01251	0.31365085	39.779257	0.78079787	-14.873097	
	0.31130085	-139.97475	0.31259952	39.929817	0.78079787	-14.873097	0.31279838	39.86136	
	
0.273153839439064	0.31559358	38.98175	0.77792735	-14.938698	0.3152122	39.43648	0.31447186	-140.58201	
	0.77792735	-14.938698	0.31584988	39.284711	0.31482891	-140.68721	0.31534058	39.321056	
	0.3152122	39.43648	0.31482891	-140.68721	0.31551557	38.984084	0.7770287	-14.872395	
	0.31447186	-140.58201	0.31534058	39.321056	0.7770287	-14.872395	0.31552771	39.18992	
	
0.279463862543524	0.31764158	38.350128	0.77353136	-14.985322	0.31816526	38.859059	0.31765525	-141.23639	
	0.77353136	-14.985322	0.3193009	38.508124	0.31761429	-141.32396	0.31793161	38.634329	
	0.31816526	38.859059	0.31761429	-141.32396	0.31868413	38.26961	0.77260344	-14.900784	
	0.31765525	-141.23639	0.31793161	38.634329	0.77260344	-14.900784	0.31787623	38.614839	
	
0.285919651095252	0.3213757	37.808313	0.76904064	-14.930458	0.3204471	38.131756	0.31970977	-141.99234	
	0.76904064	-14.930458	0.32108757	38.046303	0.3202189	-142.01339	0.32054426	38.005731	
	0.3204471	38.131756	0.3202189	-142.01339	0.32145315	37.779131	0.76874092	-14.937058	
	0.31970977	-141.99234	0.32054426	38.005731	0.76874092	-14.937058	0.32138978	37.841109	
	
0.292524572366485	0.32346734	37.023318	0.76406049	-14.927615	0.32264396	37.444039	0.32212881	-142.57936	
	0.76406049	-14.927615	0.32551921	37.640778	0.32260072	-142.78983	0.3227127	37.237741	
	0.32264396	37.444039	0.32260072	-142.78983	0.32525883	37.126869	0.76315454	-14.882156	
	0.32212881	-142.57936	0.3227127	37.237741	0.76315454	-14.882156	0.32381846	37.114834	
	
0.299282071415539	0.32731182	36.407096	0.75926357	-14.894425	0.32492899	36.835162	0.32436263	-143.22643	
	0.75926357	-14.894425	0.3275046	36.907343	0.32452833	-143.40206	0.32535242	36.555969	
	0.32492899	36.835162	0.32452833	-143.40206	0.32691831	36.575795	0.75878094	-14.84141	
	0.32436263	-143.22643	0.32535242	36.555969	0.75878094	-14.84141	0.32730604	36.764037	
	
0.30619567288371	0.32887196	35.817579	0.75535571	-14.894399	0.32733175	36.153055	0.32670617	-143.84342	
	0.75535571	-14.894399	0.33003905	36.061205	0.32725811	-143.94124	0.32775769	36.056041	
	0.32733175	36.153055	0.32725811	-143.94124	0.32932697	36.027869	0.75406896	-14.824165	
	0.32670617	-143.84342	0.32775769	36.056041	0.75406896	-14.824165	0.32854414	35.933746	
	
0.313268982833699	0.33126145	35.017301	0.75061379	-14.885937	0.33063144	35.627257	0.32945168	-144.41678	
	0.75061379	-14.885937	0.3324526	35.586397	0.33025014	-144.54608	0.33083537	35.419427	
	0.33063144	35.627257	0.33025014	-144.54608	0.33199768	35.339171	0.7499564	-14.791752	
	0.32945168	-144.41678	0.33083537	35.419427	0.7499564	-14.791752	0.33119976	35.33642	
	
0.320505690630487	0.3335202	34.509382	0.74658474	-14.827575	0.33281664	34.994183	0.33235878	-145.00232	
	0.74658474	-14.827575	0.33384041	34.882254	0.33233266	-145.05279	0.33383167	34.877376	
	0.33281664	34.994183	0.33233266	-145.05279	0.33333905	34.478908	0.74618446	-14.76961	
	0.33235878	-145.00232	0.33383167	34.877376	0.74618446	-14.76961	0.33322359	34.724323	
	
0.327909570865677	0.33440048	33.754124	0.74265222	-14.821887	0.33636443	34.525967	0.33543457	-145.51029	
	0.74265222	-14.821887	0.3359015	34.217453	0.33534142	-145.63115	0.33606161	34.263122	
	0.33636443	34.525967	0.33534142	-145.63115	0.33705394	33.829978	0.74156275	-14.692083	
	0.33543457	-145.51029	0.33606161	34.263122	0.74156275	-14.692083	0.33535123	34.128823	
	
0.335484485326279	0.33813271	33.417404	0.73857771	-14.748623	0.33828986	33.852932	0.33728143	-146.16453	
	0.73857771	-14.748623	0.33816876	33.686116	0.33782014	-146.20411	0.33821165	33.825766	
	0.33828986	33.852932	0.33782014	-146.20411	0.33814823	33.277821	0.737848	-14.690067	
	0.33728143	-146.16453	0.33821165	33.825766	0.737848	-14.690067	0.33795303	33.307727	
	
0.343234385008977	0.33984998	32.813561	0.73431496	-14.703237	0.34091313	33.203333	0.3401415	-146.80393	
