# MHz S MA R 50

0.1	0.13467841	41.946227	0.9000581	-5.8268498	0.27058546	42.308989	0.26967633	-137.77656	
	0.9000581	-5.8268498	0.13560009	44.894809	0.27092087	-138.15414	0.27149121	41.621111	
	0.27058546	42.308989	0.27092087	-138.15414	0.54472724	40.572707	0.68249641	-31.572697	
	0.26967633	-137.77656	0.27149121	41.621111	0.68249641	-31.572697	0.54865716	40.58501	
	
0.102310062021247	0.13509101	40.873263	0.8988265	-5.9298667	0.27466775	41.996788	0.27411587	-138.09428	
	0.8988265	-5.9298667	0.1361272	42.984032	0.27483653	-138.48033	0.27552453	41.447505	
	0.27466775	41.996788	0.27483653	-138.48033	0.55272853	40.065055	0.67541531	-32.07486	
	0.27411587	-138.09428	0.27552453	41.447505	0.67541531	-32.07486	0.55396859	40.347789	
	
0.104673487907914	0.13927094	40.843484	0.89696221	-5.9227894	0.27583892	41.044557	0.27585803	-138.91148	
	0.89696221	-5.9227894	0.13871195	41.413922	0.27568095	-138.90701	0.27607734	41.228699	
	0.27583892	41.044557	0.27568095	-138.90701	0.55861348	39.578043	0.66827568	-32.150698	
	0.27585803	-138.91148	0.27607734	41.228699	0.66827568	-32.150698	0.55570322	39.618361	
	
0.107091510398389	0.13969585	40.299972	0.89508243	-5.9065276	0.27946948	40.526699	0.27887408	-139.447	
	0.89508243	-5.9065276	0.14041444	41.020022	0.27906715	-139.39318	0.27883624	40.51326	
	0.27946948	40.526699	0.27906715	-139.39318	0.5634215	39.029824	0.66180667	-32.431085	
	0.27887408	-139.447	0.27883624	40.51326	0.66180667	-32.431085	0.56297276	39.030332	
	
0.109565390708082	0.1415736	39.772296	0.89340445	-5.9188981	0.28226382	39.804977	0.28197218	-140.10564	
	0.89340445	-5.9188981	0.14144413	40.859734	0.28213315	-140.37036	0.2828389	39.735791	
	0.28226382	39.804977	0.28213315	-140.37036	0.56881397	38.423307	0.65404016	-32.732	
	0.28197218	-140.10564	0.2828389	39.735791	0.65404016	-32.732	0.56759975	38.38689	
	
0.112096419187261	0.14225296	38.46244	0.89097139	-5.9256029	0.28481957	39.294781	0.28421346	-140.67632	
	0.89097139	-5.9256029	0.14226407	39.929567	0.28442744	-140.83582	0.28482226	39.119909	
	0.28481957	39.294781	0.28442744	-140.83582	0.57333629	37.736435	0.64681155	-33.025875	
	0.28421346	-140.67632	0.28482226	39.119909	0.64681155	-33.025875	0.57220354	37.802328	
	
0.114685915994083	0.14428939	38.661432	0.88970082	-5.9083366	0.28778264	38.700296	0.28717604	-141.41807	
	0.88970082	-5.9083366	0.14360312	39.703363	0.28768632	-141.43995	0.28843022	38.538238	
	0.28778264	38.700296	0.28768632	-141.43995	0.57856725	37.267266	0.64077486	-33.216857	
	0.28717604	-141.41807	0.28843022	38.538238	0.64077486	-33.216857	0.57918088	37.36753	
	
0.117335231783182	0.1452597	37.795112	0.88719598	-5.8971338	0.29040896	38.16162	0.29001995	-141.97339	
	0.88719598	-5.8971338	0.14503503	39.213207	0.28986787	-141.96115	0.29124538	37.963869	
	0.29040896	38.16162	0.28986787	-141.96115	0.58382883	36.647944	0.63312168	-33.561079	
	0.29001995	-141.97339	0.29124538	37.963869	0.63312168	-33.561079	0.5847835	36.713253	
	
0.120045748410147	0.14712061	37.003217	0.88457796	-5.9065807	0.2928467	37.601402	0.29191329	-142.496	
	0.88457796	-5.9065807	0.14558539	39.038424	0.29209568	-142.54023	0.29339273	37.275099	
	0.2928467	37.601402	0.29209568	-142.54023	0.58784269	36.010104	0.62542764	-33.679956	
	0.29191329	-142.496	0.29339273	37.275099	0.62542764	-33.679956	0.58873286	36.022754	
	
0.122818879652292	0.14714777	36.839129	0.88320463	-5.8557016	0.2953829	36.859	0.2951078	-143.14191	
	0.88320463	-5.8557016	0.14802026	37.819315	0.29532855	-143.21341	0.29580551	36.612401	
	0.2953829	36.859	0.29532855	-143.21341	0.59426081	35.484622	0.61813818	-33.958337	
	0.2951078	-143.14191	0.29580551	36.612401	0.61813818	-33.958337	0.59433076	35.53922	
	
0.125656071946061	0.14890005	36.162308	0.88172118	-5.828343	0.29829121	36.243934	0.29792944	-143.68588	
	0.88172118	-5.828343	0.14813387	37.219767	0.29812342	-143.89224	0.29861161	36.125694	
	0.29829121	36.243934	0.29812342	-143.89224	0.59765616	34.913759	0.61125784	-34.146764	
	0.29792944	-143.68588	0.29861161	36.125694	0.61125784	-34.146764	0.59857767	34.915723	
	
0.128558805141477	0.1496859	35.334887	0.87905552	-5.8557382	0.3008782	35.694096	0.29993979	-144.44315	
	0.87905552	-5.8557382	0.15034761	36.594434	0.2997668	-144.53114	0.30073734	35.502829	
	0.3008782	35.694096	0.2997668	-144.53114	0.60277503	34.319586	0.60360171	-34.322849	
	0.29993979	-144.44315	0.30073734	35.502829	0.60360171	-34.322849	0.60267208	34.305679	
	
0.131528593274019	0.15150984	35.210507	0.87734589	-5.8157036	0.30289248	35.103914	0.30275944	-145.01656	
	0.87734589	-5.8157036	0.15272028	36.304264	0.30282119	-145.05325	0.30351263	34.861141	
	0.30289248	35.103914	0.30282119	-145.05325	0.60863732	33.686102	0.59645638	-34.583694	
	0.30275944	-145.01656	0.30351263	34.861141	0.59645638	-34.583694	0.60764816	33.837548	
	
0.134566985354323	0.15355695	34.187019	0.8750259	-5.7583974	0.30465626	34.439349	0.30461885	-145.62475	
	0.8750259	-5.7583974	0.15352965	35.534956	0.30397633	-145.72925	0.3048038	34.442	
	0.30465626	34.439349	0.30397633	-145.72925	0.61206795	33.213047	0.58846454	-34.710996	
	0.30461885	-145.62475	0.3048038	34.442	0.58846454	-34.710996	0.61198632	33.181468	
	
0.13767556617613	0.15461775	33.431933	0.87244765	-5.7480647	0.30684188	34.001543	0.3059235	-146.08153	
	0.87244765	-5.7480647	0.15508784	34.946838	0.30634695	-146.19676	0.30714129	33.81951	
	0.30684188	34.001543	0.30634695	-146.19676	0.61560736	32.655377	0.58210714	-34.879861	
	0.3059235	-146.08153	0.30714129	33.81951	0.58210714	-34.879861	0.61477496	32.618037	
	
0.140855957142902	0.15584747	32.502255	0.87067363	-5.7503531	0.3086744	33.33338	0.30886602	-146.68699	
	0.87067363	-5.7503531	0.15557801	34.192305	0.3083644	-146.93473	0.30953789	33.154543	
	0.3086744	33.33338	0.3083644	-146.93473	0.61838207	31.910234	0.57306949	-35.11424	
	0.30886602	-146.68699	0.30953789	33.154543	0.57306949	-35.11424	0.61929361	32.254355	
	
0.144109817113524	0.15691963	32.272294	0.86894555	-5.6462421	0.31121663	32.772046	0.31045181	-147.29402	
	0.86894555	-5.6462421	0.15682122	33.422302	0.31089257	-147.41964	0.31146539	32.535528	
	0.31121663	32.772046	0.31089257	-147.41964	0.62331496	31.484557	0.56722909	-35.211755	
	0.31045181	-147.29402	0.31146539	32.535528	0.56722909	-35.211755	0.62363973	31.528554	
	
0.147438843267552	0.15803909	32.117625	0.86748834	-5.6442768	0.31406668	32.011838	0.31333424	-148.04507	
	0.86748834	-5.6442768	0.15837479	32.741759	0.313876	-148.10439	0.31403619	32.03003	
	0.31406668	32.011838	0.313876	-148.10439	0.62923039	30.956684	0.55988524	-35.334708	
	0.31333424	-148.04507	0.31403619	32.03003	0.55988524	-35.334708	0.62832913	31.049103	
	
0.150844771990442	0.15840191	31.389878	0.86562468	-5.5752036	0.31584752	31.614244	0.31505064	-148.41945	
	0.86562468	-5.5752036	0.15767503	32.05939	0.31535955	-148.54435	0.31614814	31.391687	
	0.31584752	31.614244	0.31535955	-148.54435	0.63228001	30.44605	0.55353449	-35.412097	
	0.31505064	-148.41945	0.31614814	31.391687	0.55353449	-35.412097	0.63256049	30.456269	
	
0.154329379779229	0.16062186	30.944942	0.86394909	-5.5271368	0.31797728	31.041037	0.31702936	-149.08402	
	0.86394909	-5.5271368	0.15980438	32.069122	0.31804221	-149.22891	0.31788269	30.781399	
	0.31797728	31.041037	0.31804221	-149.22891	0.63618596	29.953213	0.54604264	-35.566664	
	0.31702936	-149.08402	0.31788269	30.781399	0.54604264	-35.566664	0.63610523	29.900769	
	
0.157894484169135	0.16074505	30.129875	0.86219371	-5.5087032	0.31963525	30.417165	0.3193433	-149.64983	
	0.86219371	-5.5087032	0.15956245	31.204032	0.31928154	-149.72911	0.32026978	30.301871	
	0.31963525	30.417165	0.31928154	-149.72911	0.64074067	29.332002	0.53926467	-35.64913	
	0.3193433	-149.64983	0.32026978	30.301871	0.53926467	-35.64913	0.6403629	29.384323	
	
0.16154194468157	0.16298481	29.426167	0.86013821	-5.4628267	0.32126716	29.817785	0.32034999	-150.2135	
	0.86013821	-5.4628267	0.16076401	30.110244	0.321218	-150.23778	0.32143989	29.709287	
	0.32126716	29.817785	0.321218	-150.23778	0.64242391	28.698559	0.53165066	-35.731871	
	0.32034999	-150.2135	0.32143989	29.709287	0.53165066	-35.731871	0.64285368	28.847753	
	
0.165273663794043	0.16296443	28.679785	0.85807293	-5.4149774	0.32332235	29.319545	0.32262104	-150.65878	
	0.85807293	-5.4149774	0.16283134	29.827008	0.3225176	-150.82778	0.32323667	29.228081	
	0.32332235	29.319545	0.3225176	-150.82778	0.64628952	28.220601	0.52474321	-35.796959	
	0.32262104	-150.65878	0.32323667	29.228081	0.52474321	-35.796959	0.6458639	28.212721	
	
0.169091587932473	0.16329067	28.27336	0.85645684	-5.372509	0.32511481	28.722992	0.32426304	-151.25685	
	0.85645684	-5.372509	0.16399682	29.029716	0.3245371	-151.31305	0.32501919	28.66553	
	0.32511481	28.722992	0.3245371	-151.31305	0.65088222	27.748238	0.51829113	-35.834264	
	0.32426304	-151.25685	0.32501919	28.66553	0.51829113	-35.834264	0.64921035	27.773819	
	
0.172997708486424	0.16450569	27.716456	0.85489468	-5.3021627	0.32705461	28.258384	0.32608384	-151.91773	
	0.85489468	-5.3021627	0.16498441	28.513318	0.32575498	-151.89546	0.32652503	28.094956	
	0.32705461	28.258384	0.32575498	-151.89546	0.65327713	27.171937	0.51152676	-35.815959	
	0.32608384	-151.91773	0.32652503	28.094956	0.51152676	-35.815959	0.65304381	27.28187	
	
0.176994062847797	0.16642173	27.539146	0.85362382	-5.2487995	0.32849552	27.683158	0.32797719	-152.3734	
	0.85362382	-5.2487995	0.1651487	28.486717	0.32759445	-152.47363	0.32859811	27.559797	
	0.32849552	27.683158	0.32759445	-152.47363	0.65715395	26.667038	0.50534298	-35.848062	
	0.32797719	-152.3734	0.32859811	27.559797	0.50534298	-35.848062	0.65548698	26.744134	
	
0.181082735473506	0.16644001	26.414681	0.85132202	-5.1947552	0.32993753	27.076995	0.32957146	-152.85408	
	0.85132202	-5.1947552	0.1670899	27.669746	0.3295406	-153.00893	0.33003637	27.048995	
	0.32993753	27.076995	0.3295406	-153.00893	0.65919127	26.226917	0.49843267	-35.845416	
	0.32957146	-152.85408	0.33003637	27.048995	0.49843267	-35.845416	0.65874998	26.200431	
	
0.185265858972714	0.1672124	26.309416	0.85040327	-5.1006636	0.33139648	26.597763	0.3307359	-153.3857	
	0.85040327	-5.1006636	0.16733605	27.25248	0.33157593	-153.55837	0.33170069	26.385076	
	0.33139648	26.597763	0.33157593	-153.55837	0.66220034	25.671842	0.49206824	-35.823586	
	0.3307359	-153.3857	0.33170069	26.385076	0.49206824	-35.823586	0.66258177	25.622736	
	
0.18954561521918	0.16848138	25.950905	0.84847639	-5.0463214	0.33294621	26.049981	0.33205232	-153.90182	
	0.84847639	-5.0463214	0.16772952	26.82046	0.3322526	-154.19613	0.33300837	25.949755	
	0.33294621	26.049981	0.3322526	-154.19613	0.66590254	25.187908	0.48557841	-35.785659	
	0.33205232	-153.90182	0.33300837	25.949755	0.48557841	-35.785659	0.6652015	25.145612	
	
0.193924236489297	0.1691466	25.216219	0.84736878	-5.0311155	0.3338807	25.533795	0.33322662	-154.49984	
	0.84736878	-5.0311155	0.16862009	25.957633	0.33381292	-154.59756	0.33471367	25.47992	
	0.3338807	25.533795	0.33381292	-154.59756	0.66782167	24.714495	0.47947508	-35.723882	
	0.33322662	-154.49984	0.33471367	25.47992	0.47947508	-35.723882	0.66798527	24.718715	
	
0.19840400662643	0.17067198	24.54321	0.84572982	-4.9638252	0.33609868	25.076227	0.33467276	-155.00274	
	0.84572982	-4.9638252	0.16858216	25.47106	0.33572292	-155.07705	0.3358875	24.902498	
	0.33609868	25.076227	0.33572292	-155.07705	0.67167846	24.200411	0.47299782	-35.716346	
	0.33467276	-155.00274	0.3358875	24.902498	0.47299782	-35.716346	0.67045973	24.170297	
	
0.202987262232139	0.17024271	23.895769	0.84388706	-4.8758532	0.33632209	24.571193	0.33576669	-155.34481	
	0.84388706	-4.8758532	0.17137716	25.08794	0.33558975	-155.57131	0.3362283	24.403092	
	0.33632209	24.571193	0.33558975	-155.57131	0.67186976	23.785137	0.4662857	-35.653045	
	0.33576669	-155.34481	0.3362283	24.403092	0.4662857	-35.653045	0.67126245	23.796696	
	
0.207676393884933	0.17030321	23.712459	0.84327563	-4.8003908	0.33841008	24.041393	0.33728238	-155.90332	
	0.84327563	-4.8003908	0.17135238	24.537781	0.33790597	-156.04406	0.33849295	23.942866	
	0.33841008	24.041393	0.33790597	-156.04406	0.6755283	23.341433	0.46073563	-35.570831	
	0.33728238	-155.90332	0.33849295	23.942866	0.46073563	-35.570831	0.67508506	23.337571	
	
0.212473847387164	0.1722232	23.127219	0.84179883	-4.7218407	0.33972025	23.564864	0.33867279	-156.44941	
	0.84179883	-4.7218407	0.1714607	24.101659	0.33939872	-156.53912	0.33992524	23.52354	
	0.33972025	23.564864	0.33939872	-156.53912	0.67816558	22.83036	0.45506194	-35.512265	
	0.33867279	-156.44941	0.33992524	23.52354	0.45506194	-35.512265	0.67820796	22.806497	
	
0.217382125040737	0.17332413	22.807932	0.84070746	-4.6384676	0.3406619	23.119027	0.33963195	-156.96547	
	0.84070746	-4.6384676	0.17156693	23.423918	0.33999729	-157.04473	0.34108706	23.057268	
	0.3406619	23.119027	0.33999729	-157.04473	0.67999432	22.356574	0.44907956	-35.293314	
	0.33963195	-156.96547	0.34108706	23.057268	0.44907956	-35.293314	0.67963407	22.395885	
	
0.222403786952283	0.17380194	22.378697	0.83963703	-4.6064459	0.34187848	22.596196	0.34138098	-157.35996	
	0.83963703	-4.6064459	0.17243874	23.572544	0.3412013	-157.59997	0.3421001	22.506837	
	0.34187848	22.596196	0.3412013	-157.59997	0.68272943	21.860768	0.44314421	-35.305164	
	0.34138098	-157.35996	0.3421001	22.506837	0.44314421	-35.305164	0.68177244	21.955703	
	
0.227541452368483	0.1736447	21.502243	0.8378316	-4.5258672	0.34251414	22.179919	0.34210006	-157.81901	
	0.8378316	-4.5258672	0.17418432	22.641866	0.342256	-157.925	0.34279667	22.007821	
	0.34251414	22.179919	0.342256	-157.925	0.68437993	21.577495	0.4381851	-35.078664	
	0.34210006	-157.81901	0.34279667	22.007821	0.4381851	-35.078664	0.68433429	21.559671	
	
0.232797801042241	0.17512391	21.242193	0.83721084	-4.4519458	0.34381087	21.68047	0.34323699	-158.29978	
	0.83721084	-4.4519458	0.17340747	22.230216	0.34345273	-158.40699	0.34420788	21.613728	
	0.34381087	21.68047	0.34345273	-158.40699	0.68662525	21.024877	0.43225807	-34.995547	
	0.34323699	-158.29978	0.34420788	21.613728	0.43225807	-34.995547	0.68655147	21.075803	
	
0.238175574630416	0.17467296	20.831223	0.8358613	-4.4117191	0.34506804	21.288308	0.34474235	-158.69093	
	0.8358613	-4.4117191	0.17444544	21.629212	0.34432799	-158.83519	0.3454965	21.162691	
	0.34506804	21.288308	0.34432799	-158.83519	0.68877541	20.698669	0.42738491	-34.781365	
	0.34474235	-158.69093	0.3454965	21.162691	0.42738491	-34.781365	0.6897701	20.64241	
	
0.24367757812384	0.17579059	20.275689	0.83499281	-4.3087398	0.34616643	20.922652	0.34513387	-159.1942	
	0.83499281	-4.3087398	0.17458946	21.462157	0.34565532	-159.37363	0.3462303	20.732476	
	0.34616643	20.922652	0.34565532	-159.37363	0.69082204	20.306103	0.42203635	-34.578517	
	0.34513387	-159.1942	0.3462303	20.732476	0.42203635	-34.578517	0.69088845	20.291742	
	
0.249306681310373	0.17510953	19.710127	0.83481872	-4.2516784	0.34743757	20.386983	0.34687491	-159.59448	
	0.83481872	-4.2516784	0.1737694	20.868523	0.3469746	-159.74471	0.34725015	20.302094	
	0.34743757	20.386983	0.3469746	-159.74471	0.69324935	19.865286	0.417134	-34.417046	
	0.34687491	-159.59448	0.34725015	20.302094	0.417134	-34.417046	0.69288893	19.804144	
	
0.255065820271756	0.17619929	19.386316	0.83347874	-4.1856253	0.34824833	20.036102	0.34739149	-160.00504	
	0.83347874	-4.1856253	0.17522119	20.286977	0.34777309	-160.21563	0.34782216	19.892689	
	0.34824833	20.036102	0.34777309	-160.21563	0.69371515	19.443458	0.4117277	-34.189763	
	0.34739149	-160.00504	0.34782216	19.892689	0.4117277	-34.189763	0.69397948	19.420198	
	
0.260957998915036	0.17783549	19.09382	0.83191984	-4.0854441	0.34817881	19.625201	0.34767912	-160.44233	
	0.83191984	-4.0854441	0.17611016	19.618208	0.34817002	-160.56753	0.34872909	19.489141	
	0.34817881	19.625201	0.34817002	-160.56753	0.69522096	18.996619	0.40641677	-34.048522	
	0.34767912	-160.44233	0.34872909	19.489141	0.40641677	-34.048522	0.69474021	19.059943	
	
0.266986290539378	0.17752236	18.794814	0.83156973	-4.0540735	0.34974661	19.142086	0.34893041	-160.85854	
	0.83156973	-4.0540735	0.17596856	19.621058	0.34932493	-160.97028	0.35016066	19.03697	
	0.34974661	19.142086	0.34932493	-160.97028	0.69877349	18.6697	0.40168556	-33.81112	
	0.34893041	-160.85854	0.35016066	19.03697	0.40168556	-33.81112	0.69770332	18.686255	
	
0.273153839439064	0.17756489	18.340518	0.83105648	-4.0050283	0.35013267	18.783721	0.3494798	-161.26931	
	0.83105648	-4.0050283	0.1764143	19.134499	0.34991216	-161.38477	0.35045155	18.701674	
	0.35013267	18.783721	0.34991216	-161.38477	0.69906403	18.237397	0.39720758	-33.593394	
	0.3494798	-161.26931	0.35045155	18.701674	0.39720758	-33.593394	0.69921661	18.264263	
	
0.279463862543524	0.17700213	17.652291	0.8299613	-3.9014575	0.35177092	18.49647	0.3508431	-161.63746	
	0.8299613	-3.9014575	0.17723863	18.58413	0.35075996	-161.7533	0.350914	18.192966	
	0.35177092	18.49647	0.35075996	-161.7533	0.70049837	17.875564	0.39293059	-33.413797	
	0.3508431	-161.63746	0.350914	18.192966	0.39293059	-33.413797	0.69973837	17.897423	
	
0.285919651095252	0.17781573	17.843595	0.82960894	-3.8367426	0.35166763	17.946543	0.351861	-162.11622	
	0.82960894	-3.8367426	0.17760924	18.366154	0.3513436	-162.16408	0.35212229	17.883735	
	0.35166763	17.946543	0.3513436	-162.16408	0.7023645	17.590531	0.38931878	-33.145507	
	0.351861	-162.11622	0.35212229	17.883735	0.38931878	-33.145507	0.70270848	17.50569	
	
0.292524572366485	0.17855774	17.071917	0.82837702	-3.8060215	0.35242989	17.629027	0.35191011	-162.46309	
	0.82837702	-3.8060215	0.17750532	18.597288	0.35268373	-162.61434	0.35300042	17.416507	
	0.35242989	17.629027	0.35268373	-162.61434	0.70459997	17.167389	0.38419724	-32.846713	
	0.35191011	-162.46309	0.35300042	17.416507	0.38419724	-32.846713	0.70266795	17.129321	
	
0.299282071415539	0.17949098	17.010269	0.82703254	-3.7004908	0.35256429	17.227406	0.35211971	-162.81861	
	0.82703254	-3.7004908	0.17890483	18.446536	0.35248376	-162.99956	0.3531334	16.992196	
	0.35256429	17.227406	0.35248376	-162.99956	0.70478343	16.80064	0.38016723	-32.529326	
	0.35211971	-162.81861	0.3531334	16.992196	0.38016723	-32.529326	0.70503967	16.827866	
	
0.30619567288371	0.17934866	16.522736	0.8268888	-3.6679126	0.35334559	16.855307	0.35294101	-163.12518	
	0.8268888	-3.6679126	0.17908349	17.390007	0.35318616	-163.30017	0.35327321	16.759323	
	0.35334559	16.855307	0.35318616	-163.30017	0.70601863	16.479175	0.37557178	-32.224684	
	0.35294101	-163.12518	0.35327321	16.759323	0.37557178	-32.224684	0.70585321	16.44016	
	
0.313268982833699	0.17984929	16.111542	0.82610818	-3.557794	0.35446817	16.579343	0.35373322	-163.47757	
	0.82610818	-3.557794	0.17884499	16.92831	0.35432214	-163.6508	0.35477863	16.347055	
	0.35446817	16.579343	0.35432214	-163.6508	0.7085694	16.089593	0.37141093	-31.976083	
	0.35373322	-163.47757	0.35477863	16.347055	0.37141093	-31.976083	0.70784013	16.083813	
	
0.320505690630487	0.17949691	15.589402	0.8258872	-3.476783	0.35480813	16.247098	0.35503141	-163.82674	
	0.8258872	-3.476783	0.17845886	16.515103	0.35481229	-163.93735	0.35610678	16.075348	
	0.35480813	16.247098	0.35481229	-163.93735	0.70892991	15.803807	0.36824524	-31.723601	
	0.35503141	-163.82674	0.35610678	16.075348	0.36824524	-31.723601	0.70854679	15.803838	
	
0.327909570865677	0.17842486	14.649287	0.82520085	-3.404329	0.35609982	15.966051	0.35539505	-164.1369	
	0.82520085	-3.404329	0.17836391	15.754281	0.35568432	-164.2167	0.35666947	15.738106	
	0.35609982	15.966051	0.35568432	-164.2167	0.71134725	15.42162	0.3639499	-31.347758	
	0.35539505	-164.1369	0.35666947	15.738106	0.3639499	-31.347758	0.70993452	15.445448	
	
0.335484485326279	0.17961596	14.954232	0.82458482	-3.3681624	0.35681765	15.615208	0.35596802	-164.45836	
	0.82458482	-3.3681624	0.17891606	15.354875	0.35638188	-164.45529	0.35703997	15.541341	
	0.35681765	15.615208	0.35638188	-164.45529	0.71135953	15.041116	0.36063719	-31.133346	
	0.35596802	-164.45836	0.35703997	15.541341	0.36063719	-31.133346	0.71141142	15.114733	
	
0.343234385008977	0.17942767	14.496069	0.82416744	-3.3220759	0.35744034	15.193639	0.35665574	-164.80069	
	0.82416744	-3.3220759	0.17840519	15.492832	0.35667052	-164.97163	0.35752091	15.11693	
