# MHz S MA R 50

0.1	0.25039822	44.890062	0.83755623	-12.215223	0.31403384	45.248198	0.31304416	-134.9113	
	0.83755623	-12.215223	0.25171352	46.120956	0.31439378	-135.32398	0.31506323	44.436542	
	0.31403384	45.248198	0.31439378	-135.32398	0.39408595	43.989071	0.76445855	-21.217113	
	0.31304416	-134.9113	0.31506323	44.436542	0.76445855	-21.217113	0.39666075	44.243325	
	
0.102310062021247	0.25266678	44.366345	0.83481073	-12.418164	0.31909612	44.907881	0.31829099	-135.15539	
	0.83481073	-12.418164	0.25433979	45.206528	0.3190095	-135.54823	0.31990066	44.349146	
	0.31909612	44.907881	0.3190095	-135.54823	0.39970261	43.499702	0.75950749	-21.519662	
	0.31829099	-135.15539	0.31990066	44.349146	0.75950749	-21.519662	0.40097966	43.824477	
	
0.104673487907914	0.25744535	43.648147	0.83061299	-12.470405	0.32123032	43.91122	0.32024139	-135.9989	
	0.83061299	-12.470405	0.25670894	44.141505	0.31998273	-136.05913	0.3208022	44.114499	
	0.32123032	43.91122	0.31998273	-136.05913	0.40532287	43.134112	0.75308888	-21.504721	
	0.32024139	-135.9989	0.3208022	44.114499	0.75308888	-21.504721	0.40351469	42.954647	
	
0.107091510398389	0.25939092	43.174495	0.82728927	-12.547712	0.32504028	43.41057	0.32465665	-136.58998	
	0.82728927	-12.547712	0.26043702	43.542185	0.3243301	-136.53389	0.32450281	43.375935	
	0.32504028	43.41057	0.3243301	-136.53389	0.40883694	42.58215	0.74801464	-21.682819	
	0.32465665	-136.58998	0.32450281	43.375935	0.74801464	-21.682819	0.40933047	42.554966	
	
0.109565390708082	0.26351812	42.534734	0.82342702	-12.583741	0.32843445	42.720599	0.32808049	-137.22625	
	0.82342702	-12.583741	0.26316562	43.251377	0.3280635	-137.47024	0.32903118	42.651202	
	0.32843445	42.720599	0.3280635	-137.47024	0.41282202	41.929884	0.74153649	-21.846195	
	0.32808049	-137.22625	0.32903118	42.651202	0.74153649	-21.846195	0.41294889	41.928205	
	
0.112096419187261	0.26502671	41.731888	0.81943555	-12.655862	0.33188627	42.134906	0.33151593	-137.86239	
	0.81943555	-12.655862	0.26529435	42.219885	0.3315313	-138.00208	0.33187276	41.978033	
	0.33188627	42.134906	0.3315313	-138.00208	0.41720098	41.30959	0.73630186	-22.058217	
	0.33151593	-137.86239	0.33187276	41.978033	0.73630186	-22.058217	0.41731171	41.257483	
	
0.114685915994083	0.26951627	41.428285	0.81484108	-12.690121	0.33532621	41.532452	0.33482463	-138.4678	
	0.81484108	-12.690121	0.26830776	41.818646	0.33514724	-138.49838	0.33660129	41.399516	
	0.33532621	41.532452	0.33514724	-138.49838	0.42164257	40.684117	0.73038121	-22.159338	
	0.33482463	-138.4678	0.33660129	41.399516	0.73038121	-22.159338	0.42227055	40.881054	
	
0.117335231783182	0.27127554	40.685137	0.81123484	-12.724081	0.33911664	40.961694	0.33885624	-139.09115	
	0.81123484	-12.724081	0.27155115	41.297831	0.3385612	-139.08292	0.34023177	40.81421	
	0.33911664	40.961694	0.3385612	-139.08292	0.42574062	40.187744	0.72420791	-22.312402	
	0.33885624	-139.09115	0.34023177	40.81421	0.72420791	-22.312402	0.42616423	40.131226	
	
0.120045748410147	0.27390805	39.986277	0.80664112	-12.748292	0.34206292	40.406987	0.34096842	-139.68789	
	0.80664112	-12.748292	0.2742443	41.042646	0.34158753	-139.67278	0.3431502	40.144295	
	0.34206292	40.406987	0.34158753	-139.67278	0.43011848	39.443465	0.71800703	-22.384857	
	0.34096842	-139.68789	0.3431502	40.144295	0.71800703	-22.384857	0.4293447	39.363681	
	
0.122818879652292	0.27641048	39.676863	0.80360838	-12.786482	0.34609224	39.690718	0.34504081	-140.33389	
	0.80360838	-12.786482	0.27723019	39.954192	0.34540971	-140.37964	0.34610523	39.521985	
	0.34609224	39.690718	0.34540971	-140.37964	0.43403857	38.853222	0.71230255	-22.540466	
	0.34504081	-140.33389	0.34610523	39.521985	0.71230255	-22.540466	0.43379118	38.973428	
	
0.125656071946061	0.27907317	38.92167	0.79981851	-12.808353	0.34940863	39.041592	0.34906859	-140.91554	
	0.79981851	-12.808353	0.27899421	39.414692	0.3490372	-141.01271	0.35005475	38.978412	
	0.34940863	39.041592	0.3490372	-141.01271	0.43757249	38.271208	0.70665172	-22.630779	
	0.34906859	-140.91554	0.35005475	38.978412	0.70665172	-22.630779	0.4381792	38.261692	
	
0.128558805141477	0.28107731	38.261558	0.79545935	-12.850378	0.35231132	38.495438	0.35199296	-141.57521	
	0.79545935	-12.850378	0.2828235	38.845177	0.35140595	-141.69277	0.35256837	38.253249	
	0.35231132	38.495438	0.35140595	-141.69277	0.44196137	37.620286	0.70032409	-22.716475	
	0.35199296	-141.57521	0.35256837	38.253249	0.70032409	-22.716475	0.44243443	37.695822	
	
0.131528593274019	0.28476662	37.888174	0.791897	-12.856876	0.35594591	37.922988	0.35548066	-142.24178	
	0.791897	-12.856876	0.28603928	38.263872	0.35583262	-142.22641	0.35665817	37.756922	
	0.35594591	37.922988	0.35583262	-142.22641	0.44746948	37.160958	0.69459886	-22.834089	
	0.35548066	-142.24178	0.35665817	37.756922	0.69459886	-22.834089	0.44580329	37.237051	
	
0.134566985354323	0.28688218	37.107264	0.78739875	-12.818855	0.35815268	37.239128	0.35783649	-142.80247	
	0.78739875	-12.818855	0.28751853	37.664388	0.3577291	-142.87463	0.35858819	37.132576	
	0.35815268	37.239128	0.3577291	-142.87463	0.45100541	36.528922	0.68858194	-22.880625	
	0.35783649	-142.80247	0.35858819	37.132576	0.68858194	-22.880625	0.44952975	36.450616	
	
0.13767556617613	0.2897399	36.463942	0.78294932	-12.833033	0.36108216	36.732678	0.36022993	-143.29084	
	0.78294932	-12.833033	0.29056371	37.161507	0.36047425	-143.38883	0.36145773	36.57937	
	0.36108216	36.732678	0.36047425	-143.38883	0.45322591	35.838666	0.68317558	-22.984618	
	0.36022993	-143.29084	0.36145773	36.57937	0.68317558	-22.984618	0.45287202	35.823239	
	
0.140855957142902	0.29201298	35.871956	0.78004553	-12.869981	0.36450641	36.111633	0.36387171	-143.90432	
	0.78004553	-12.869981	0.29197986	36.28405	0.36335918	-144.16114	0.36497706	35.940484	
	0.36450641	36.111633	0.36335918	-144.16114	0.45660447	35.322155	0.67642502	-23.058359	
	0.36387171	-143.90432	0.36497706	35.940484	0.67642502	-23.058359	0.45512648	35.418671	
	
0.144109817113524	0.29422592	35.244662	0.77588392	-12.787213	0.36701908	35.513854	0.3661828	-144.56448	
	0.77588392	-12.787213	0.29492316	35.694171	0.3667851	-144.6726	0.36735857	35.311719	
	0.36701908	35.513854	0.3667851	-144.6726	0.4602766	34.72951	0.67079061	-23.065817	
	0.3661828	-144.56448	0.36735857	35.311719	0.67079061	-23.065817	0.45988932	34.742209	
	
0.147438843267552	0.29735708	34.779621	0.77211553	-12.786497	0.3708745	34.818047	0.36947712	-145.32201	
	0.77211553	-12.786497	0.29758161	35.086087	0.370394	-145.32542	0.37075266	34.767891	
	0.3708745	34.818047	0.370394	-145.32542	0.46439835	34.237315	0.66496629	-23.081861	
	0.36947712	-145.32201	0.37075266	34.767891	0.66496629	-23.081861	0.46353444	34.334308	
	
0.150844771990442	0.29832919	34.071038	0.76782825	-12.741482	0.37327855	34.288795	0.37201626	-145.73858	
	0.76782825	-12.741482	0.29886429	34.49198	0.37239396	-145.84973	0.37322737	34.100106	
	0.37327855	34.288795	0.37239396	-145.84973	0.46762633	33.580142	0.65924099	-23.104675	
	0.37201626	-145.73858	0.37322737	34.100106	0.65924099	-23.104675	0.46792769	33.566523	
	
0.154329379779229	0.30152792	33.66428	0.76442881	-12.656808	0.37584835	33.695881	0.3745675	-146.43871	
	0.76442881	-12.656808	0.30229679	33.979532	0.37604377	-146.50509	0.37611236	33.483089	
	0.37584835	33.695881	0.37604377	-146.50509	0.47146903	33.028896	0.65349933	-23.133779	
	0.3745675	-146.43871	0.37611236	33.483089	0.65349933	-23.133779	0.47136468	33.001842	
	
0.157894484169135	0.30389939	32.770781	0.76055382	-12.636568	0.37823556	33.087611	0.37797842	-146.99766	
	0.76055382	-12.636568	0.30315769	33.367061	0.37769216	-147.07957	0.37890899	32.939647	
	0.37823556	33.087611	0.37769216	-147.07957	0.47486454	32.382296	0.6473348	-23.156113	
	0.37797842	-146.99766	0.37890899	32.939647	0.6473348	-23.156113	0.47352511	32.431986	
	
0.16154194468157	0.30684384	32.380612	0.75682067	-12.654399	0.38059865	32.534972	0.37986222	-147.55933	
	0.75682067	-12.654399	0.30515403	32.468113	0.38060045	-147.61661	0.38148845	32.39402	
	0.38059865	32.534972	0.38060045	-147.61661	0.4765514	31.73831	0.64161473	-23.166408	
	0.37986222	-147.55933	0.38148845	32.39402	0.64161473	-23.166408	0.47740565	31.915167	
	
0.165273663794043	0.30822121	31.701821	0.75328279	-12.557285	0.3834435	31.94639	0.38285937	-148.05986	
	0.75328279	-12.557285	0.30763704	32.136857	0.38296094	-148.19759	0.38350401	31.809873	
	0.3834435	31.94639	0.38296094	-148.19759	0.47995252	31.205404	0.63618618	-23.129744	
	0.38285937	-148.05986	0.38350401	31.809873	0.63618618	-23.129744	0.48020473	31.33169	
	
0.169091587932473	0.30918081	31.132235	0.74925177	-12.512229	0.38591718	31.297998	0.38493242	-148.65811	
	0.74925177	-12.512229	0.31012066	31.434037	0.38498157	-148.75165	0.3859687	31.246316	
	0.38591718	31.297998	0.38498157	-148.75165	0.48362945	30.712334	0.63061097	-23.117082	
	0.38493242	-148.65811	0.3859687	31.246316	0.63061097	-23.117082	0.48306652	30.757126	
	
0.172997708486424	0.31167185	30.520933	0.74555967	-12.443415	0.38858566	30.819474	0.38772024	-149.40612	
	0.74555967	-12.443415	0.31196218	30.842696	0.3875987	-149.31592	0.38835566	30.620494	
	0.38858566	30.819474	0.3875987	-149.31592	0.48649833	30.050584	0.62520945	-22.983846	
	0.38772024	-149.40612	0.38835566	30.620494	0.62520945	-22.983846	0.4866411	30.179483	
	
0.176994062847797	0.313659	30.073452	0.74245186	-12.37078	0.39040567	30.194394	0.3897736	-149.85292	
	0.74245186	-12.37078	0.31389881	30.520349	0.3898264	-150.00183	0.39087451	30.056599	
	0.39040567	30.194394	0.3898264	-150.00183	0.4896476	29.567126	0.61967771	-22.958943	
	0.3897736	-149.85292	0.39087451	30.056599	0.61967771	-22.958943	0.48863202	29.513591	
	
0.181082735473506	0.31547237	29.301266	0.73831552	-12.289717	0.39276795	29.573442	0.392331	-150.34815	
	0.73831552	-12.289717	0.3161593	29.682064	0.39208104	-150.58638	0.39302629	29.541435	
	0.39276795	29.573442	0.39208104	-150.58638	0.49176228	29.014688	0.61408999	-22.917386	
	0.392331	-150.34815	0.39302629	29.541435	0.61408999	-22.917386	0.49151915	28.911168	
	
0.185265858972714	0.31720056	28.881262	0.73527134	-12.151221	0.39503074	29.086538	0.39409529	-150.92418	
	0.73527134	-12.151221	0.31814104	29.454466	0.39447335	-151.08676	0.39481182	28.887253	
	0.39503074	29.086538	0.39447335	-151.08676	0.49480578	28.456742	0.60890154	-22.842225	
	0.39409529	-150.92418	0.39481182	28.887253	0.60890154	-22.842225	0.4937495	28.469461	
	
0.18954561521918	0.31953255	28.502298	0.73157388	-12.063141	0.39667287	28.389655	0.39561511	-151.5221	
	0.73157388	-12.063141	0.3188836	28.841952	0.39543438	-151.73382	0.39698702	28.370489	
	0.39667287	28.389655	0.39543438	-151.73382	0.49689723	27.879217	0.60335174	-22.679411	
	0.39561511	-151.5221	0.39698702	28.370489	0.60335174	-22.679411	0.49686265	27.911174	
	
0.193924236489297	0.32145421	27.838285	0.72875894	-11.999082	0.39864147	27.957544	0.39772483	-152.06274	
	0.72875894	-11.999082	0.32001258	28.165357	0.39818362	-152.14263	0.39920567	27.84964	
	0.39864147	27.957544	0.39818362	-152.14263	0.49958162	27.403122	0.59862939	-22.61675	
	0.39772483	-152.06274	0.39920567	27.84964	0.59862939	-22.61675	0.49955995	27.405399	
	
0.19840400662643	0.32325248	27.207752	0.72591643	-11.87732	0.40123502	27.422615	0.40012937	-152.71649	
	0.72591643	-11.87732	0.32186477	27.649922	0.40147278	-152.69036	0.40175537	27.296283	
	0.40123502	27.422615	0.40147278	-152.69036	0.50179772	26.86744	0.59379298	-22.550592	
	0.40012937	-152.71649	0.40175537	27.296283	0.59379298	-22.550592	0.50163672	26.76502	
	
0.202987262232139	0.32314735	26.583873	0.72247009	-11.747755	0.40257545	26.844069	0.40194093	-153.0094	
	0.72247009	-11.747755	0.32433917	26.96351	0.40172824	-153.26196	0.40192887	26.729153	
	0.40257545	26.844069	0.40172824	-153.26196	0.50356426	26.280985	0.58800253	-22.448384	
	0.40194093	-153.0094	0.40192887	26.729153	0.58800253	-22.448384	0.50341978	26.381031	
	
0.207676393884933	0.32503629	26.193013	0.71933067	-11.651659	0.40514762	26.321465	0.40375172	-153.6615	
	0.71933067	-11.651659	0.32560885	26.624865	0.40411949	-153.80373	0.40520724	26.221251	
	0.40514762	26.321465	0.40411949	-153.80373	0.50675709	25.811136	0.58311127	-22.303498	
	0.40375172	-153.6615	0.40520724	26.221251	0.58311127	-22.303498	0.50584366	25.860283	
	
0.212473847387164	0.32726426	25.636831	0.71652702	-11.544646	0.40641568	25.822596	0.40546886	-154.19691	
	0.71652702	-11.544646	0.32691561	25.979597	0.40615872	-154.29801	0.40650712	25.692357	
	0.40641568	25.822596	0.40615872	-154.29801	0.50827901	25.27735	0.57853939	-22.159662	
	0.40546886	-154.19691	0.40650712	25.692357	0.57853939	-22.159662	0.50834245	25.314335	
	
0.217382125040737	0.32904062	25.105611	0.71350623	-11.441482	0.40750658	25.279901	0.40673596	-154.71978	
	0.71350623	-11.441482	0.32793381	25.358095	0.40757727	-154.83241	0.40886137	25.205841	
	0.40750658	25.279901	0.40757727	-154.83241	0.51075353	24.89983	0.5733683	-21.95454	
	0.40673596	-154.71978	0.40886137	25.205841	0.5733683	-21.95454	0.50990982	24.790648	
	
0.222403786952283	0.33016807	24.648918	0.71084973	-11.292311	0.40946622	24.747505	0.4088039	-155.24579	
	0.71084973	-11.292311	0.32979331	25.11984	0.40909755	-155.38698	0.4099144	24.64673	
	0.40946622	24.747505	0.40909755	-155.38698	0.5126592	24.343675	0.56932287	-21.877328	
	0.4088039	-155.24579	0.4099144	24.64673	0.56932287	-21.877328	0.51180545	24.378329	
	
0.227541452368483	0.33041742	24.06941	0.7078109	-11.146695	0.41116076	24.331089	0.41032999	-155.72141	
	0.7078109	-11.146695	0.33133296	24.39131	0.41024631	-155.77468	0.411282	24.152097	
	0.41116076	24.331089	0.41024631	-155.77468	0.51501879	23.890071	0.56486198	-21.639453	
	0.41032999	-155.72141	0.411282	24.152097	0.56486198	-21.639453	0.51488328	24.010512	
	
0.232797801042241	0.33311533	23.582689	0.70551274	-11.02818	0.41246313	23.797235	0.41177175	-156.25322	
	0.70551274	-11.02818	0.33125641	24.032987	0.41206676	-156.33109	0.41339957	23.649821	
	0.41246313	23.797235	0.41206676	-156.33109	0.51677167	23.399321	0.56004832	-21.528879	
	0.41177175	-156.25322	0.41339957	23.649821	0.56004832	-21.528879	0.51543247	23.404966	
	
0.238175574630416	0.33364186	23.181642	0.7024995	-10.9136	0.41415797	23.342374	0.41367618	-156.69042	
	0.7024995	-10.9136	0.33302179	23.412542	0.41322446	-156.8026	0.41480647	23.19703	
	0.41415797	23.342374	0.41322446	-156.8026	0.51865706	22.914143	0.5565967	-21.333447	
	0.41367618	-156.69042	0.41480647	23.19703	0.5565967	-21.333447	0.51769371	22.881267	
	
0.24367757812384	0.33485522	22.571803	0.70009144	-10.738756	0.41602083	22.844294	0.41475854	-157.16403	
	0.70009144	-10.738756	0.33432031	22.899578	0.41527105	-157.40002	0.41553943	22.697425	
	0.41602083	22.844294	0.41527105	-157.40002	0.5201033	22.444342	0.55212956	-21.110628	
	0.41475854	-157.16403	0.41553943	22.697425	0.55212956	-21.110628	0.51954109	22.445764	
	
0.249306681310373	0.33503162	22.156865	0.69822838	-10.61183	0.41785953	22.372162	0.41652815	-157.62111	
	0.69822838	-10.61183	0.33462574	22.586065	0.41673367	-157.74161	0.41742619	22.268698	
	0.41785953	22.372162	0.41673367	-157.74161	0.52153881	22.022703	0.54847754	-20.922169	
	0.41652815	-157.62111	0.41742619	22.268698	0.54847754	-20.922169	0.52116751	22.02716	
	
0.255065820271756	0.33641482	21.674628	0.69570491	-10.486461	0.41883776	21.96275	0.41754531	-158.06	
	0.69570491	-10.486461	0.33615018	21.971281	0.41838631	-158.33072	0.41850765	21.778352	
	0.41883776	21.96275	0.41838631	-158.33072	0.52345303	21.567363	0.54419576	-20.677812	
	0.41754531	-158.06	0.41850765	21.778352	0.54419576	-20.677812	0.52295929	21.587722	
	
0.260957998915036	0.33834716	21.302295	0.69334702	-10.311141	0.41890258	21.531777	0.41823025	-158.60351	
	0.69334702	-10.311141	0.33760462	21.543138	0.41892606	-158.64735	0.41945542	21.385487	
	0.41890258	21.531777	0.41892606	-158.64735	0.52408752	21.044218	0.54047691	-20.525409	
	0.41823025	-158.60351	0.41945542	21.385487	0.54047691	-20.525409	0.52361306	21.056772	
	
0.266986290539378	0.33835527	20.828663	0.69131455	-10.161763	0.42079068	20.990218	0.4200633	-159.04671	
	0.69131455	-10.161763	0.33832384	21.226305	0.42031622	-159.13004	0.42124435	20.871738	
	0.42079068	20.990218	0.42031622	-159.13004	0.52699819	20.662181	0.53627716	-20.290374	
	0.4200633	-159.04671	0.42124435	20.871738	0.53627716	-20.290374	0.52631642	20.686759	
	
0.273153839439064	0.33948437	20.390671	0.68960807	-10.058991	0.42165439	20.543277	0.42111065	-159.44394	
	0.68960807	-10.058991	0.3388711	20.653715	0.42146209	-159.57926	0.42205887	20.466263	
	0.42165439	20.543277	0.42146209	-159.57926	0.52737041	20.221194	0.53272483	-20.068426	
	0.42111065	-159.44394	0.42205887	20.466263	0.53272483	-20.068426	0.52688711	20.2574	
	
0.279463862543524	0.33999085	19.94608	0.68716268	-9.9103575	0.42377321	20.237845	0.42273936	-159.81768	
	0.68716268	-9.9103575	0.34041471	20.154161	0.42293549	-159.94838	0.42319613	19.99458	
	0.42377321	20.237845	0.42293549	-159.94838	0.52862256	19.743598	0.52935055	-19.861749	
	0.42273936	-159.81768	0.42319613	19.99458	0.52935055	-19.861749	0.52848591	19.800368	
	
0.285919651095252	0.34086717	19.623999	0.68536956	-9.7528372	0.42367206	19.71372	0.42328855	-160.36592	
	0.68536956	-9.7528372	0.34112017	19.811307	0.42339551	-160.45437	0.42428322	19.594494	
	0.42367206	19.71372	0.42339551	-160.45437	0.52996421	19.408308	0.52667286	-19.650361	
	0.42328855	-160.36592	0.42428322	19.594494	0.52667286	-19.650361	0.53005343	19.400937	
	
0.292524572366485	0.3422031	19.141588	0.68323953	-9.6318921	0.42465276	19.348251	0.42427761	-160.78829	
	0.68323953	-9.6318921	0.34204569	19.722348	0.42450331	-160.92454	0.42511022	19.092578	
	0.42465276	19.348251	0.42450331	-160.92454	0.53178005	19.03623	0.52285099	-19.379111	
	0.42427761	-160.78829	0.42511022	19.092578	0.52285099	-19.379111	0.5312174	19.00282	
	
0.299282071415539	0.34358705	18.887965	0.68109212	-9.4268857	0.42527829	18.862048	0.42462523	-161.17261	
	0.68109212	-9.4268857	0.34249899	19.269775	0.42490718	-161.383	0.42552016	18.613266	
	0.42527829	18.862048	0.42490718	-161.383	0.5326888	18.590648	0.52007221	-19.11807	
	0.42462523	-161.17261	0.42552016	18.613266	0.52007221	-19.11807	0.532804	18.61138	
	
0.30619567288371	0.34335336	18.50419	0.67959729	-9.3226737	0.42651938	18.427139	0.42533451	-161.52153	
	0.67959729	-9.3226737	0.34307363	18.735823	0.42624447	-161.66516	0.42603992	18.338366	
	0.42651938	18.427139	0.42624447	-161.66516	0.53429881	18.224031	0.51723166	-18.89252	
	0.42533451	-161.52153	0.42603992	18.338366	0.51723166	-18.89252	0.53381073	18.239709	
	
0.313268982833699	0.34451074	17.87889	0.6776633	-9.1258605	0.42805359	18.13423	0.42692128	-161.92295	
	0.6776633	-9.1258605	0.34414216	18.308027	0.42750893	-162.04209	0.4277314	17.968481	
	0.42805359	18.13423	0.42750893	-162.04209	0.53520925	17.779601	0.51351471	-18.620528	
	0.42692128	-161.92295	0.4277314	17.968481	0.51351471	-18.620528	0.53414456	17.832608	
	
0.320505690630487	0.34433279	17.418876	0.6764055	-8.9437322	0.42804372	17.73194	0.42778837	-162.24064	
	0.6764055	-8.9437322	0.34393495	17.88761	0.42764629	-162.34368	0.42914046	17.615745	
	0.42804372	17.73194	0.42764629	-162.34368	0.53533905	17.39273	0.51031281	-18.356077	
	0.42778837	-162.24064	0.42914046	17.615745	0.51031281	-18.356077	0.53496427	17.38127	
	
0.327909570865677	0.34381714	16.921373	0.67443394	-8.8183143	0.42993771	17.480001	0.42886876	-162.59713	
	0.67443394	-8.8183143	0.3437077	17.31175	0.42902206	-162.68059	0.43031108	17.246392	
	0.42993771	17.480001	0.42902206	-162.68059	0.5371748	17.03118	0.50778818	-18.055542	
	0.42886876	-162.59713	0.43031108	17.246392	0.50778818	-18.055542	0.53670796	17.030912	
	
0.335484485326279	0.34564462	16.731616	0.67299168	-8.6744498	0.43039607	17.039314	0.42951055	-162.99808	
	0.67299168	-8.6744498	0.34526263	16.895786	0.43010048	-163.00057	0.430827	16.983866	
	0.43039607	17.039314	0.43010048	-163.00057	0.53751197	16.600096	0.50500187	-17.835486	
	0.42951055	-162.99808	0.430827	16.983866	0.50500187	-17.835486	0.53761762	16.594929	
	
0.343234385008977	0.34581368	16.335969	0.67162832	-8.5470387	0.43145805	16.649887	0.43053384	-163.36414	
