# MHz S MA R 50

0.1	0.48749814	2.3687674	0.50928257	-2.4389936	0.484729	2.6376884	0.48357097	-177.49102	
	0.50928257	-2.4389936	0.48553228	2.6678915	0.48550463	-177.8414	0.48748829	2.1431114	
	0.484729	2.6376884	0.48550463	-177.8414	0.48713022	2.0977715	0.5088006	-2.3767565	
	0.48357097	-177.49102	0.48748829	2.1431114	0.5088006	-2.3767565	0.48679423	2.362591	
	
0.102310062021247	0.48805192	2.111515	0.50814198	-2.3341979	0.48500355	2.6656898	0.48423167	-177.3989	
	0.50814198	-2.3341979	0.48708073	2.3692671	0.48594199	-177.704	0.48719844	2.2718125	
	0.48500355	2.6656898	0.48594199	-177.704	0.49017191	2.1206609	0.50785206	-2.3565795	
	0.48423167	-177.3989	0.48719844	2.2718125	0.50785206	-2.3565795	0.48823628	2.2523802	
	
0.104673487907914	0.4895337	2.2201989	0.50835168	-2.2969674	0.48562181	2.3349063	0.48447701	-177.61191	
	0.50835168	-2.2969674	0.4875898	2.2706014	0.48472141	-177.68053	0.48513263	2.4564469	
	0.48562181	2.3349063	0.48472141	-177.68053	0.48933268	2.4324947	0.50774295	-2.2173317	
	0.48447701	-177.61191	0.48513263	2.4564469	0.50774295	-2.2173317	0.48861689	2.259124	
	
0.107091510398389	0.48853084	2.1382078	0.50803183	-2.2404991	0.48594008	2.3977642	0.48509436	-177.61978	
	0.50803183	-2.2404991	0.48876261	2.2854056	0.48448969	-177.65052	0.48565561	2.3730737	
	0.48594008	2.3977642	0.48448969	-177.65052	0.48855368	2.2530248	0.50782107	-2.1807443	
	0.48509436	-177.61978	0.48565561	2.3730737	0.50782107	-2.1807443	0.48900055	2.3554625	
	
0.109565390708082	0.48971211	2.2153291	0.50820047	-2.2332212	0.48565825	2.3435214	0.48499526	-177.63413	
	0.50820047	-2.2332212	0.48759697	2.2708008	0.48500998	-177.83106	0.48646999	2.3063497	
	0.48565825	2.3435214	0.48500998	-177.83106	0.48793786	2.2798297	0.50787808	-2.220536	
	0.48499526	-177.63413	0.48646999	2.3063497	0.50787808	-2.220536	0.48822793	2.1562722	
	
0.112096419187261	0.48937417	1.9988815	0.50855782	-2.1787351	0.48599672	2.2798182	0.48503191	-177.69682	
	0.50855782	-2.1787351	0.48759963	2.1542122	0.4849515	-177.78349	0.48570857	2.2331962	
	0.48599672	2.2798182	0.4849515	-177.78349	0.48836199	2.1339864	0.50786367	-2.1659313	
	0.48503191	-177.69682	0.48570857	2.2331962	0.50786367	-2.1659313	0.48745053	2.220034	
	
0.114685915994083	0.48903529	2.0485878	0.50800025	-2.0837225	0.48571513	2.2728612	0.48456959	-177.78352	
	0.50800025	-2.0837225	0.48672993	2.2130691	0.4857305	-177.81472	0.48642215	2.2262926	
	0.48571513	2.2728612	0.4857305	-177.81472	0.49052192	2.1461303	0.50738557	-2.1178298	
	0.48456959	-177.78352	0.48642215	2.2262926	0.50738557	-2.1178298	0.48890208	2.2435853	
	
0.117335231783182	0.48968005	1.9533474	0.50787869	-2.0995146	0.48610028	2.2526888	0.4857169	-177.79845	
	0.50787869	-2.0995146	0.48757989	2.1243056	0.48564256	-177.84796	0.48710343	2.157372	
	0.48610028	2.2526888	0.48564256	-177.84796	0.48950765	2.0205441	0.50761362	-2.0471337	
	0.4857169	-177.79845	0.48710343	2.157372	0.50761362	-2.0471337	0.48870787	2.027441	
	
0.120045748410147	0.49041317	1.9803423	0.50679716	-2.0193724	0.48613603	2.252983	0.48427737	-177.79353	
	0.50679716	-2.0193724	0.48762625	2.1286774	0.48486043	-177.90682	0.4867432	2.0985665	
	0.48613603	2.252983	0.48486043	-177.90682	0.48945253	1.9710846	0.50668042	-2.0066547	
	0.48427737	-177.79353	0.4867432	2.0985665	0.50668042	-2.0066547	0.48798677	2.0089932	
	
0.122818879652292	0.48884056	1.965874	0.50750436	-2.0491926	0.48643029	2.1880678	0.48526957	-177.87933	
	0.50750436	-2.0491926	0.48888336	1.9788993	0.48585982	-177.98154	0.48702916	2.0070178	
	0.48643029	2.1880678	0.48585982	-177.98154	0.48911843	1.9110675	0.50738444	-1.9942816	
	0.48526957	-177.87933	0.48702916	2.0070178	0.50738444	-1.9942816	0.48879921	2.0545563	
	
0.125656071946061	0.48957135	1.8926211	0.50766087	-1.9978567	0.48664138	2.1419475	0.48588992	-177.86462	
	0.50766087	-1.9978567	0.48772626	1.9435912	0.48629779	-177.98027	0.48699399	2.0017818	
	0.48664138	2.1419475	0.48629779	-177.98027	0.48897676	1.9676595	0.50809426	-1.9360583	
	0.48588992	-177.86462	0.48699399	2.0017818	0.50809426	-1.9360583	0.48869909	1.9215576	
	
0.128558805141477	0.48877681	1.7736158	0.50740361	-1.9795986	0.48652463	2.1149453	0.48544472	-177.96987	
	0.50740361	-1.9795986	0.48811886	2.040904	0.4854674	-178.09948	0.48660286	1.9690469	
	0.48652463	2.1149453	0.4854674	-178.09948	0.48972539	1.8862096	0.50739179	-1.9044482	
	0.48544472	-177.96987	0.48660286	1.9690469	0.50739179	-1.9044482	0.48870256	1.8949548	
	
0.131528593274019	0.48944623	1.8896919	0.50703884	-1.9199492	0.48697504	2.042256	0.48627893	-178.01878	
	0.50703884	-1.9199492	0.48938064	1.8526379	0.48620303	-178.1301	0.4871536	1.9162876	
	0.48697504	2.042256	0.48620303	-178.1301	0.49014798	1.8033157	0.50752218	-1.8365331	
	0.48627893	-178.01878	0.4871536	1.9162876	0.50752218	-1.8365331	0.48837679	1.9336849	
	
0.134566985354323	0.48984505	1.6927296	0.50766671	-1.8828233	0.4863368	1.9791706	0.48598849	-178.12245	
	0.50766671	-1.8828233	0.48909385	1.9287583	0.48635147	-178.19072	0.48697994	1.9302584	
	0.4863368	1.9791706	0.48635147	-178.19072	0.48959257	1.8728198	0.50699354	-1.8248989	
	0.48598849	-178.12245	0.48697994	1.9302584	0.50699354	-1.8248989	0.48863438	1.799806	
	
0.13767556617613	0.48989942	1.7534291	0.50698044	-1.8607984	0.48604207	1.9931674	0.48494378	-178.0236	
	0.50698044	-1.8607984	0.48909195	1.9224125	0.48567139	-178.17585	0.48651784	1.8490452	
	0.48604207	1.9931674	0.48567139	-178.17585	0.48954016	1.6981295	0.5070306	-1.7757387	
	0.48494378	-178.0236	0.48651784	1.8490452	0.5070306	-1.7757387	0.4887813	1.7139196	
	
0.140855957142902	0.49013621	1.748413	0.50784898	-1.8748619	0.48653584	1.9509587	0.48598523	-178.0818	
	0.50784898	-1.8748619	0.48790648	1.8409297	0.48574778	-178.27388	0.48697832	1.8673565	
	0.48653584	1.9509587	0.48574778	-178.27388	0.48915753	1.8438177	0.50682597	-1.7971198	
	0.48598523	-178.0818	0.48697832	1.8673565	0.50682597	-1.7971198	0.48777707	1.7564785	
	
0.144109817113524	0.49044832	1.6356686	0.50734638	-1.7882999	0.48650665	1.9007173	0.48559449	-178.13383	
	0.50734638	-1.7882999	0.48837855	1.7278202	0.48630319	-178.25251	0.48675776	1.8089655	
	0.48650665	1.9007173	0.48630319	-178.25251	0.49018804	1.7433002	0.50675679	-1.7741223	
	0.48559449	-178.13383	0.48675776	1.8089655	0.50675679	-1.7741223	0.48926863	1.7604711	
	
0.147438843267552	0.4906606	1.6488103	0.5070755	-1.718481	0.48753145	1.8773507	0.48616699	-178.30389	
	0.5070755	-1.718481	0.48864152	1.7496379	0.48680838	-178.29682	0.48745843	1.8131241	
	0.48753145	1.8773507	0.48680838	-178.29682	0.48895731	1.7804496	0.50683097	-1.7544539	
	0.48616699	-178.30389	0.48745843	1.8131241	0.50683097	-1.7544539	0.48913813	1.8047849	
	
0.150844771990442	0.49033115	1.5978881	0.50663936	-1.7555808	0.48684784	1.8689187	0.48560445	-178.18645	
	0.50663936	-1.7555808	0.4877686	1.7368008	0.48592591	-178.28984	0.48707964	1.7440771	
	0.48684784	1.8689187	0.48592591	-178.28984	0.49010177	1.7257085	0.50658978	-1.6822533	
	0.48560445	-178.18645	0.48707964	1.7440771	0.50658978	-1.6822533	0.48963308	1.734502	
	
0.154329379779229	0.49022099	1.6734415	0.50699038	-1.6935031	0.48706847	1.8307213	0.48545962	-178.27973	
	0.50699038	-1.6935031	0.48878895	1.7465769	0.4865004	-178.33966	0.48713626	1.6741899	
	0.48706847	1.8307213	0.4865004	-178.33966	0.4897648	1.5995513	0.506271	-1.6520814	
	0.48545962	-178.27973	0.48713626	1.6741899	0.506271	-1.6520814	0.4892877	1.6964818	
	
0.157894484169135	0.48967459	1.5712368	0.50700826	-1.6818275	0.48679033	1.7642516	0.48644851	-178.26389	
	0.50700826	-1.6818275	0.48817614	1.7634099	0.4864135	-178.37915	0.48794364	1.7442325	
	0.48679033	1.7642516	0.4864135	-178.37915	0.49051735	1.6350187	0.50682717	-1.6528022	
	0.48644851	-178.26389	0.48794364	1.7442325	0.50682717	-1.6528022	0.48896529	1.7134637	
	
0.16154194468157	0.49071763	1.535366	0.50729979	-1.664344	0.48692271	1.7095119	0.48643013	-178.29008	
	0.50729979	-1.664344	0.48861559	1.5908719	0.48663304	-178.37952	0.48728753	1.7071712	
	0.48692271	1.7095119	0.48663304	-178.37952	0.48978369	1.6049776	0.50631513	-1.6023616	
	0.48643013	-178.29008	0.48728753	1.7071712	0.50631513	-1.6023616	0.4901344	1.6362319	
	
0.165273663794043	0.49098063	1.5005477	0.50645036	-1.6564846	0.4868981	1.7280944	0.48585696	-178.27451	
	0.50645036	-1.6564846	0.48912558	1.5657873	0.48598856	-178.45326	0.48691662	1.6615953	
	0.4868981	1.7280944	0.48598856	-178.45326	0.48960426	1.61836	0.50651207	-1.6262247	
	0.48585696	-178.27451	0.48691662	1.6615953	0.50651207	-1.6262247	0.48888951	1.5735099	
	
0.169091587932473	0.49046445	1.5014504	0.50632293	-1.6351051	0.48715398	1.6937679	0.48614705	-178.31101	
	0.50632293	-1.6351051	0.48988785	1.5824975	0.48639571	-178.45732	0.48724141	1.6522434	
	0.48715398	1.6937679	0.48639571	-178.45732	0.49020414	1.5587573	0.50589519	-1.6265233	
	0.48614705	-178.31101	0.48724141	1.6522434	0.50589519	-1.6265233	0.48967686	1.577596	
	
0.172997708486424	0.49010468	1.4541856	0.50698881	-1.5928038	0.48731846	1.733128	0.4870319	-178.48012	
	0.50698881	-1.5928038	0.48906424	1.556264	0.48625042	-178.45732	0.48745786	1.575399	
	0.48731846	1.733128	0.48625042	-178.45732	0.48969085	1.4379449	0.50677367	-1.5236777	
	0.4870319	-178.48012	0.48745786	1.575399	0.50677367	-1.5236777	0.48953296	1.5430392	
	
0.176994062847797	0.49025549	1.4006473	0.50655916	-1.6042233	0.48707993	1.6284605	0.48608297	-178.43998	
	0.50655916	-1.6042233	0.48932555	1.6408196	0.48673655	-178.6174	0.48737728	1.5634185	
	0.48707993	1.6284605	0.48673655	-178.6174	0.49085973	1.5073329	0.50627959	-1.5354985	
	0.48608297	-178.43998	0.48737728	1.5634185	0.50627959	-1.5354985	0.48893091	1.4423325	
	
0.181082735473506	0.49032626	1.3164948	0.50666325	-1.5343514	0.48732756	1.5618664	0.48666321	-178.40872	
	0.50666325	-1.5343514	0.48920749	1.3912934	0.4865788	-178.61067	0.48734334	1.5347609	
	0.48732756	1.5618664	0.4865788	-178.61067	0.48973632	1.5110236	0.50645279	-1.5145311	
	0.48666321	-178.40872	0.48734334	1.5347609	0.50645279	-1.5145311	0.48957184	1.2987099	
	
0.185265858972714	0.49052381	1.3685781	0.50660139	-1.519826	0.48738411	1.5373775	0.48656757	-178.46041	
	0.50660139	-1.519826	0.4897868	1.4632048	0.48707617	-178.64176	0.48737624	1.4452075	
	0.48738411	1.5373775	0.48707617	-178.64176	0.49040991	1.3335935	0.506131	-1.4469682	
	0.48656757	-178.46041	0.48737624	1.4452075	0.506131	-1.4469682	0.49012425	1.4038228	
	
0.18954561521918	0.49098422	1.4005085	0.50534886	-1.4745903	0.48753546	1.485507	0.48580195	-178.50168	
	0.50534886	-1.4745903	0.48881557	1.6285972	0.48595368	-178.66675	0.48715884	1.4779394	
	0.48753546	1.485507	0.48595368	-178.66675	0.49015932	1.4521157	0.50610435	-1.4500555	
	0.48580195	-178.50168	0.48715884	1.4779394	0.50610435	-1.4500555	0.48929395	1.3014251	
	
0.193924236489297	0.49076196	1.3766485	0.50633865	-1.5060902	0.48743831	1.5253028	0.48609232	-178.57406	
	0.50633865	-1.5060902	0.48894144	1.4317591	0.48680051	-178.6682	0.48732084	1.4330123	
	0.48743831	1.5253028	0.48680051	-178.6682	0.49035309	1.3506412	0.50623899	-1.3771617	
	0.48609232	-178.57406	0.48732084	1.4330123	0.50623899	-1.3771617	0.4898623	1.3233658	
	
0.19840400662643	0.49016146	1.2750955	0.50621502	-1.4765029	0.48775254	1.5230525	0.48603897	-178.61598	
	0.50621502	-1.4765029	0.48921601	1.2627098	0.48665975	-178.70685	0.48763999	1.3963854	
	0.48775254	1.5230525	0.48665975	-178.70685	0.489876	1.2809169	0.50621971	-1.4204709	
	0.48603897	-178.61598	0.48763999	1.3963854	0.50621971	-1.4204709	0.48939708	1.3417565	
	
0.202987262232139	0.49031139	1.2730755	0.5066618	-1.4583323	0.48716778	1.4329262	0.48606959	-178.51847	
	0.5066618	-1.4583323	0.48933607	1.4031358	0.48602521	-178.73565	0.48678707	1.3091612	
	0.48716778	1.4329262	0.48602521	-178.73565	0.48955325	1.3144324	0.50565539	-1.3957445	
	0.48606959	-178.51847	0.48678707	1.3091612	0.50565539	-1.3957445	0.48993086	1.3121912	
	
0.207676393884933	0.4903781	1.2460269	0.50600085	-1.4400195	0.48740466	1.4268626	0.48571487	-178.68195	
	0.50600085	-1.4400195	0.48955009	1.3639214	0.48670461	-178.75782	0.48757956	1.3547553	
	0.48740466	1.4268626	0.48670461	-178.75782	0.49056953	1.2832789	0.50561932	-1.360474	
	0.48571487	-178.68195	0.48757956	1.3547553	0.50561932	-1.360474	0.48962235	1.2312608	
	
0.212473847387164	0.49098196	1.1762723	0.5061049	-1.4161357	0.48753604	1.4310248	0.48642893	-178.68111	
	0.5061049	-1.4161357	0.49009469	1.3066349	0.48721409	-178.72906	0.48759481	1.2967485	
	0.48753604	1.4310248	0.48721409	-178.72906	0.49022163	1.2745342	0.50605234	-1.3089317	
	0.48642893	-178.68111	0.48759481	1.2967485	0.50605234	-1.3089317	0.48984248	1.2893776	
	
0.217382125040737	0.49159107	1.217268	0.50581432	-1.4101887	0.48744886	1.3428297	0.48606178	-178.69789	
	0.50581432	-1.4101887	0.48971274	1.2124816	0.48674692	-178.83482	0.48756869	1.3111937	
	0.48744886	1.3428297	0.48674692	-178.83482	0.48929258	1.3872983	0.50580307	-1.2951826	
	0.48606178	-178.69789	0.48756869	1.3111937	0.50580307	-1.2951826	0.48990235	1.3236574	
	
0.222403786952283	0.49128755	1.169165	0.50594148	-1.3853551	0.48770116	1.3499674	0.48711436	-178.70169	
	0.50594148	-1.3853551	0.48915775	1.3898958	0.48728628	-178.90121	0.48791418	1.2652019	
	0.48770116	1.3499674	0.48728628	-178.90121	0.49102047	1.2615894	0.50587093	-1.3176362	
	0.48711436	-178.70169	0.48791418	1.2652019	0.50587093	-1.3176362	0.48990719	1.1907598	
	
0.227541452368483	0.49041695	1.1685331	0.50592594	-1.291194	0.4872266	1.3645856	0.48674066	-178.67105	
	0.50592594	-1.291194	0.49018086	1.3059995	0.48662208	-178.80899	0.48784076	1.1993138	
	0.4872266	1.3645856	0.48662208	-178.80899	0.49126541	1.2545004	0.50575758	-1.28857	
	0.48674066	-178.67105	0.48784076	1.1993138	0.50575758	-1.28857	0.48970441	1.2575937	
	
0.232797801042241	0.49125894	1.2200854	0.50607503	-1.3054928	0.48751281	1.2398791	0.48676718	-178.75634	
	0.50607503	-1.3054928	0.48916966	1.2785512	0.48686739	-178.88225	0.4883912	1.2871613	
	0.48751281	1.2398791	0.48686739	-178.88225	0.49088143	1.2089207	0.50546073	-1.2527904	
	0.48676718	-178.75634	0.4883912	1.2871613	0.50546073	-1.2527904	0.4893189	1.1942864	
	
0.238175574630416	0.49063315	1.104295	0.50566376	-1.3313774	0.48758588	1.2923063	0.48653817	-178.77117	
	0.50566376	-1.3313774	0.48934387	1.2246684	0.48665581	-178.90887	0.48789881	1.2137849	
	0.48758588	1.2923063	0.48665581	-178.90887	0.49139878	1.2545534	0.50562675	-1.300487	
	0.48653817	-178.77117	0.48789881	1.2137849	0.50562675	-1.300487	0.48952447	1.1411146	
	
0.24367757812384	0.49047707	1.061916	0.50583347	-1.2916506	0.48806877	1.2845828	0.48672557	-178.85743	
	0.50583347	-1.2916506	0.48928898	1.2520203	0.48721523	-179.00128	0.48807367	1.1657639	
	0.48806877	1.2845828	0.48721523	-179.00128	0.49062357	1.1339499	0.50574322	-1.2468326	
	0.48672557	-178.85743	0.48807367	1.1657639	0.50574322	-1.2468326	0.490165	1.185578	
	
0.249306681310373	0.4911243	1.059249	0.50621055	-1.313389	0.48846758	1.2869783	0.48738653	-178.78327	
	0.50621055	-1.313389	0.48861957	1.1844978	0.48768627	-178.8939	0.48843039	1.2428651	
	0.48846758	1.2869783	0.48768627	-178.8939	0.49119554	1.1518307	0.5057584	-1.3005306	
	0.48738653	-178.78327	0.48843039	1.2428651	0.5057584	-1.3005306	0.48966938	1.1495908	
	
0.255065820271756	0.49143343	0.96379071	0.50598174	-1.2687031	0.4883066	1.2633681	0.48720276	-178.84662	
	0.50598174	-1.2687031	0.48970496	1.1459978	0.48743883	-178.97129	0.48798521	1.1921632	
	0.4883066	1.2633681	0.48743883	-178.97129	0.49022602	1.1496428	0.50561797	-1.2019076	
	0.48720276	-178.84662	0.48798521	1.1921632	0.50561797	-1.2019076	0.48984697	1.2416017	
	
0.260957998915036	0.49187053	1.1144744	0.50596741	-1.212217	0.48793248	1.2536458	0.48735255	-178.89876	
	0.50596741	-1.212217	0.49002928	1.1208052	0.48786665	-178.98256	0.48827317	1.1711187	
	0.48793248	1.2536458	0.48786665	-178.98256	0.49050873	1.0087785	0.50578209	-1.2044451	
	0.48735255	-178.89876	0.48827317	1.1711187	0.50578209	-1.2044451	0.48978351	1.1040473	
	
0.266986290539378	0.49118997	1.0074362	0.50569768	-1.2659038	0.48835386	1.1741517	0.48763935	-178.91509	
	0.50569768	-1.2659038	0.48971018	1.1664535	0.48775565	-178.99852	0.48868136	1.1117954	
	0.48835386	1.1741517	0.48775565	-178.99852	0.49118555	1.1119366	0.50555282	-1.171057	
	0.48763935	-178.91509	0.48868136	1.1117954	0.50555282	-1.171057	0.49024292	1.08661	
	
0.273153839439064	0.49114378	1.0606819	0.50649677	-1.2824258	0.48824026	1.2123841	0.48762921	-178.89709	
	0.50649677	-1.2824258	0.48939213	1.1247985	0.48784097	-179.02007	0.48852809	1.1649277	
	0.48824026	1.2123841	0.48784097	-179.02007	0.49020906	1.0314331	0.50551796	-1.1381658	
	0.48762921	-178.89709	0.48852809	1.1649277	0.50551796	-1.1381658	0.49032049	1.0699948	
	
0.279463862543524	0.49163272	0.93387408	0.50614821	-1.2441183	0.48887472	1.1826562	0.48827483	-178.89208	
	0.50614821	-1.2441183	0.4896656	1.0865026	0.48788381	-179.02403	0.48800667	1.0733637	
	0.48887472	1.1826562	0.48788381	-179.02403	0.49125759	0.95696067	0.5053876	-1.1690813	
	0.48827483	-178.89208	0.48800667	1.0733637	0.5053876	-1.1690813	0.49029004	1.0254606	
	
0.285919651095252	0.4912112	1.1303565	0.50544495	-1.2362063	0.48843254	1.1502507	0.48780288	-178.99771	
	0.50544495	-1.2362063	0.49060606	1.1121631	0.4877827	-179.08582	0.48848863	1.0633868	
	0.48843254	1.1502507	0.4877827	-179.08582	0.49084679	1.0334817	0.50558002	-1.2190559	
	0.48780288	-178.99771	0.48848863	1.0633868	0.50558002	-1.2190559	0.49067066	0.98440929	
	
0.292524572366485	0.49207304	0.99825926	0.50509253	-1.2487945	0.48821797	1.1703671	0.48767661	-179.01946	
	0.50509253	-1.2487945	0.48956918	1.2410385	0.48826987	-179.1829	0.48883828	1.0097971	
	0.48821797	1.1703671	0.48826987	-179.1829	0.491885	1.0889032	0.50552619	-1.1767597	
	0.48767661	-179.01946	0.48883828	1.0097971	0.50552619	-1.1767597	0.49052218	1.0036788	
	
0.299282071415539	0.49193165	1.0238383	0.50528305	-1.1873206	0.48803278	1.0800238	0.48726786	-179.02968	
	0.50528305	-1.1873206	0.49017701	1.2575772	0.48791533	-179.20744	0.48858331	0.93923573	
	0.48803278	1.0800238	0.48791533	-179.20744	0.49073396	1.1195474	0.50552455	-1.1413237	
	0.48726786	-179.02968	0.48858331	0.93923573	0.50552455	-1.1413237	0.49030918	1.0921883	
	
0.30619567288371	0.49191483	1.0107585	0.50539023	-1.2491181	0.48879005	1.0642075	0.48768726	-179.0449	
	0.50539023	-1.2491181	0.4906414	1.1256953	0.48797019	-179.15466	0.4880856	1.0009589	
	0.48879005	1.0642075	0.48797019	-179.15466	0.49152619	1.0668736	0.50481853	-1.149921	
	0.48768726	-179.0449	0.4880856	1.0009589	0.50481853	-1.149921	0.49102993	1.0396002	
	
0.313268982833699	0.49202908	0.91422241	0.50532003	-1.1456368	0.48870151	1.1179806	0.48780776	-179.03505	
	0.50532003	-1.1456368	0.49027338	1.0385243	0.48833558	-179.1388	0.48900902	0.97061902	
	0.48870151	1.1179806	0.48833558	-179.1388	0.49128034	0.94284971	0.50520305	-1.1008337	
	0.48780776	-179.03505	0.48900902	0.97061902	0.50520305	-1.1008337	0.49019261	0.97782542	
	
0.320505690630487	0.49169625	0.89728573	0.50547119	-1.1190152	0.48824641	1.0825745	0.48817363	-178.9859	
	0.50547119	-1.1190152	0.49022641	0.92933767	0.48793588	-179.10244	0.48936037	0.98899681	
	0.48824641	1.0825745	0.48793588	-179.10244	0.49115858	0.88980617	0.50537025	-1.0681554	
	0.48817363	-178.9859	0.48936037	0.98899681	0.50537025	-1.0681554	0.49013391	0.84935551	
	
0.327909570865677	0.49120119	0.69800785	0.50510963	-1.1008077	0.48921126	1.1620036	0.48813915	-179.01562	
	0.50510963	-1.1008077	0.49041131	0.8124456	0.48828431	-179.11031	0.48926226	0.96830569	
	0.48921126	1.1620036	0.48828431	-179.11031	0.49147819	0.87038499	0.50507656	-0.96314475	
	0.48813915	-179.01562	0.48926226	0.96830569	0.50507656	-0.96314475	0.49026421	0.75731538	
	
0.335484485326279	0.49111601	0.79526621	0.50495893	-1.0524828	0.48886625	1.0596448	0.48818015	-179.05999	
	0.50495893	-1.0524828	0.49041352	0.9024968	0.48804369	-179.08414	0.48884576	1.0774407	
	0.48886625	1.0596448	0.48804369	-179.08414	0.49091924	0.78279898	0.50541905	-0.9785455	
	0.48818015	-179.05999	0.48884576	1.0774407	0.50541905	-0.9785455	0.49148504	0.80150639	
	
0.343234385008977	0.49128737	0.8082499	0.50515697	-1.1130663	0.48954978	1.0652023	0.48840785	-179.03579	
