# MHz S MA R 50

0.1	0.13753643	41.100395	0.89703886	-5.8660793	0.27657472	41.054797	0.27516461	-139.06495	
	0.89703886	-5.8660793	0.13836556	43.705381	0.27630477	-139.49243	0.27742243	40.39091	
	0.27657472	41.054797	0.27630477	-139.49243	0.55545343	39.407857	0.66741754	-32.084423	
	0.27516461	-139.06495	0.27742243	40.39091	0.66741754	-32.084423	0.5588627	39.320295	
	
0.102310062021247	0.13757533	39.718407	0.89481282	-5.9229146	0.27990308	40.749612	0.27950584	-139.30925	
	0.89481282	-5.9229146	0.13881232	42.11282	0.27982619	-139.75915	0.28049202	40.138361	
	0.27990308	40.749612	0.27982619	-139.75915	0.56344786	38.834245	0.66102321	-32.584131	
	0.27950584	-139.30925	0.28049202	40.138361	0.66102321	-32.584131	0.56497673	39.023265	
	
0.104673487907914	0.14215161	39.842116	0.89298381	-5.9270547	0.28125624	39.813045	0.28082881	-140.13854	
	0.89298381	-5.9270547	0.14140344	40.164715	0.28048993	-140.21006	0.28133577	39.949319	
	0.28125624	39.813045	0.28048993	-140.21006	0.56715357	38.278636	0.65297861	-32.658356	
	0.28082881	-140.13854	0.28133577	39.949319	0.65297861	-32.658356	0.56626493	38.391047	
	
0.107091510398389	0.14199181	39.120936	0.8910135	-5.9229059	0.28445547	39.282815	0.28359435	-140.68396	
	0.8910135	-5.9229059	0.14342258	39.614021	0.2835469	-140.65682	0.28388257	39.257143	
	0.28445547	39.282815	0.2835469	-140.65682	0.5725608	37.861311	0.64653687	-32.898403	
	0.28359435	-140.68396	0.28388257	39.257143	0.64653687	-32.898403	0.57239593	37.8821	
	
0.109565390708082	0.14486586	38.706811	0.88965835	-5.9198681	0.28744265	38.580513	0.28689838	-141.33367	
	0.88965835	-5.9198681	0.14362442	39.808296	0.28710216	-141.60805	0.2876118	38.490107	
	0.28744265	38.580513	0.28710216	-141.60805	0.57800328	37.161731	0.63944571	-33.176755	
	0.28689838	-141.33367	0.2876118	38.490107	0.63944571	-33.176755	0.57769627	37.167861	
	
0.112096419187261	0.14529757	37.414212	0.8870963	-5.9017453	0.28957627	38.011181	0.28926545	-141.98937	
	0.8870963	-5.9017453	0.14473168	38.523406	0.2891639	-142.14006	0.28953838	37.907499	
	0.28957627	38.011181	0.2891639	-142.14006	0.58260568	36.547333	0.63164343	-33.426642	
	0.28926545	-141.98937	0.28953838	37.907499	0.63164343	-33.426642	0.58217409	36.579762	
	
0.114685915994083	0.14719621	37.589735	0.88555829	-5.8880287	0.2926227	37.434502	0.29207173	-142.61798	
	0.88555829	-5.8880287	0.14616228	38.666708	0.29242056	-142.65877	0.29329843	37.296069	
	0.2926227	37.434502	0.29242056	-142.65877	0.58818032	36.003228	0.62527874	-33.621537	
	0.29207173	-142.61798	0.29329843	37.296069	0.62527874	-33.621537	0.58847505	36.081168	
	
0.117335231783182	0.14823313	36.626093	0.88339035	-5.864245	0.29506924	36.831948	0.29500883	-143.16721	
	0.88339035	-5.864245	0.14757009	38.029075	0.2946399	-143.23538	0.29580165	36.7739	
	0.29506924	36.831948	0.2946399	-143.23538	0.59269725	35.413736	0.61781008	-33.952653	
	0.29500883	-143.16721	0.29580165	36.7739	0.61781008	-33.952653	0.59319938	35.501566	
	
0.120045748410147	0.14955048	35.962142	0.88162847	-5.8541502	0.29743753	36.397066	0.29654857	-143.68689	
	0.88162847	-5.8541502	0.14764716	37.90563	0.29701221	-143.82061	0.29797327	36.068156	
	0.29743753	36.397066	0.29701221	-143.82061	0.59713312	34.789711	0.61028254	-34.048633	
	0.29654857	-143.68689	0.29797327	36.068156	0.61028254	-34.048633	0.59761948	34.813866	
	
0.122818879652292	0.14979839	35.629673	0.87973739	-5.8349485	0.30006577	35.645661	0.29945808	-144.42139	
	0.87973739	-5.8349485	0.14995882	36.310317	0.29976404	-144.4555	0.30023736	35.439597	
	0.30006577	35.645661	0.29976404	-144.4555	0.60245345	34.198907	0.60291988	-34.291182	
	0.29945808	-144.42139	0.30023736	35.439597	0.60291988	-34.291182	0.60227224	34.24323	
	
0.125656071946061	0.1513705	34.969471	0.87788098	-5.8029237	0.3024594	35.062293	0.30249143	-144.88733	
	0.87788098	-5.8029237	0.15069469	36.166411	0.30246175	-145.08155	0.30290039	34.961851	
	0.3024594	35.062293	0.30246175	-145.08155	0.60606168	33.620899	0.59612483	-34.46268	
	0.30249143	-144.88733	0.30290039	34.961851	0.59612483	-34.46268	0.6068049	33.717687	
	
0.128558805141477	0.15200863	34.08174	0.87515752	-5.8023913	0.30440202	34.464566	0.30376175	-145.59488	
	0.87515752	-5.8023913	0.1526554	35.528646	0.30364538	-145.70994	0.30494494	34.304623	
	0.30440202	34.464566	0.30364538	-145.70994	0.61077945	33.009474	0.58772706	-34.574001	
	0.30376175	-145.59488	0.30494494	34.304623	0.58772706	-34.574001	0.61088298	33.077544	
	
0.131528593274019	0.15342237	34.034616	0.87386368	-5.7641235	0.30735965	33.933394	0.30694448	-146.18281	
	0.87386368	-5.7641235	0.15418073	34.973553	0.30718305	-146.19347	0.3079081	33.687402	
	0.30735965	33.933394	0.30718305	-146.19347	0.6166425	32.480491	0.58126631	-34.857719	
	0.30694448	-146.18281	0.3079081	33.687402	0.58126631	-34.857719	0.61577745	32.584984	
	
0.134566985354323	0.15557971	33.160324	0.87133537	-5.7057299	0.30883436	33.234414	0.30813965	-146.7611	
	0.87133537	-5.7057299	0.15578441	34.375334	0.30805766	-146.87157	0.30897348	33.219186	
	0.30883436	33.234414	0.30805766	-146.87157	0.61891627	32.00696	0.57337024	-34.975729	
	0.30813965	-146.7611	0.30897348	33.219186	0.57337024	-34.975729	0.61917532	32.032976	
	
0.13767556617613	0.15701019	32.517432	0.86913997	-5.686757	0.3108164	32.767946	0.31030405	-147.20388	
	0.86913997	-5.686757	0.15676562	33.944929	0.31050313	-147.34205	0.31133364	32.626331	
	0.3108164	32.767946	0.31050313	-147.34205	0.62342837	31.383063	0.56778403	-35.103535	
	0.31030405	-147.20388	0.31133364	32.626331	0.56778403	-35.103535	0.621907	31.461332	
	
0.140855957142902	0.15776284	31.670637	0.86701874	-5.6828523	0.3129656	32.161805	0.31251046	-147.86928	
	0.86701874	-5.6828523	0.15817857	33.099019	0.31218945	-148.07973	0.31379121	31.887238	
	0.3129656	32.161805	0.31218945	-148.07973	0.62642277	30.843812	0.55869694	-35.282607	
	0.31251046	-147.86928	0.31379121	31.887238	0.55869694	-35.282607	0.62645094	31.031311	
	
0.144109817113524	0.15925198	31.117246	0.86523874	-5.5985422	0.31500345	31.589668	0.31451065	-148.41426	
	0.86523874	-5.5985422	0.1589962	32.375613	0.31468226	-148.56112	0.31537788	31.38152	
	0.31500345	31.589668	0.31468226	-148.56112	0.63048045	30.316741	0.55295557	-35.35243	
	0.31451065	-148.41426	0.31537788	31.38152	0.55295557	-35.35243	0.63104566	30.480868	
	
0.147438843267552	0.16015524	31.176518	0.86380427	-5.5654816	0.31765627	30.915446	0.31690045	-149.12816	
	0.86380427	-5.5654816	0.16067861	31.584894	0.31727698	-149.2036	0.31787364	30.804927	
	0.31765627	30.915446	0.31727698	-149.2036	0.63542304	29.790502	0.54547468	-35.462128	
	0.31690045	-149.12816	0.31787364	30.804927	0.54547468	-35.462128	0.63561903	29.927515	
	
0.150844771990442	0.16062655	30.231985	0.86192042	-5.5010306	0.31949434	30.510355	0.31851878	-149.52602	
	0.86192042	-5.5010306	0.16004835	31.214911	0.31874973	-149.70038	0.3194586	30.244106	
	0.31949434	30.510355	0.31874973	-149.70038	0.63947112	29.339625	0.53918019	-35.520341	
	0.31851878	-149.52602	0.3194586	30.244106	0.53918019	-35.520341	0.63861686	29.301898	
	
0.154329379779229	0.16265385	30.091613	0.86064356	-5.4421654	0.3214007	29.878298	0.32050662	-150.21911	
	0.86064356	-5.4421654	0.16200246	30.965408	0.32129863	-150.3501	0.32171627	29.657946	
	0.3214007	29.878298	0.32129863	-150.3501	0.64315125	28.874476	0.53171636	-35.616077	
	0.32050662	-150.21911	0.32171627	29.657946	0.53171636	-35.616077	0.64259907	28.785579	
	
0.157894484169135	0.1628873	28.990505	0.85917493	-5.3944475	0.32281957	29.297026	0.32270307	-150.75592	
	0.85917493	-5.3944475	0.16156691	30.130454	0.32254391	-150.85248	0.3235876	29.166017	
	0.32281957	29.297026	0.32254391	-150.85248	0.64610357	28.204759	0.52505137	-35.690851	
	0.32270307	-150.75592	0.3235876	29.166017	0.52505137	-35.690851	0.64568669	28.267323	
	
0.16154194468157	0.16470466	28.698384	0.85704588	-5.3573691	0.32431428	28.775965	0.32367546	-151.25445	
	0.85704588	-5.3573691	0.16300151	29.293205	0.32466226	-151.32999	0.32512081	28.636925	
	0.32431428	28.775965	0.32466226	-151.32999	0.64946412	27.634798	0.51848241	-35.728022	
	0.32367546	-151.25445	0.32512081	28.636925	0.51848241	-35.728022	0.6499032	27.800675	
	
0.165273663794043	0.16502984	27.619909	0.85478538	-5.340058	0.32638566	28.159687	0.32564531	-151.7288	
	0.85478538	-5.340058	0.16475407	28.665619	0.32591895	-151.92597	0.32648153	28.129929	
	0.32638566	28.159687	0.32591895	-151.92597	0.65171898	27.131065	0.51131472	-35.799308	
	0.32564531	-151.7288	0.32648153	28.129929	0.51131472	-35.799308	0.65217472	27.21507	
	
0.169091587932473	0.16520729	27.151506	0.85317716	-5.2682532	0.32817151	27.64402	0.32722362	-152.29187	
	0.85317716	-5.2682532	0.16570723	28.089231	0.32747984	-152.38916	0.3281124	27.592933	
	0.32817151	27.64402	0.32747984	-152.38916	0.65570659	26.701383	0.50475989	-35.785978	
	0.32722362	-152.29187	0.3281124	27.592933	0.50475989	-35.785978	0.65602984	26.749238	
	
0.172997708486424	0.16592012	26.715011	0.85170256	-5.1895932	0.3300644	27.203388	0.32929167	-152.98768	
	0.85170256	-5.1895932	0.16755934	27.766782	0.32923219	-153.01229	0.32976516	27.052513	
	0.3300644	27.203388	0.32923219	-153.01229	0.65886563	26.154841	0.49836086	-35.727319	
	0.32929167	-152.98768	0.32976516	27.052513	0.49836086	-35.727319	0.65954035	26.222036	
	
0.176994062847797	0.16833362	26.508988	0.85081305	-5.1304006	0.331123	26.624076	0.33046662	-153.42553	
	0.85081305	-5.1304006	0.16637818	27.545174	0.33052993	-153.57043	0.3314728	26.507242	
	0.331123	26.624076	0.33052993	-153.57043	0.6623001	25.657817	0.49185695	-35.738864	
	0.33046662	-153.42553	0.3314728	26.507242	0.49185695	-35.738864	0.66060982	25.638924	
	
0.181082735473506	0.16812099	25.498148	0.84867167	-5.0799715	0.33260223	26.017344	0.33256899	-153.88232	
	0.84867167	-5.0799715	0.16811873	26.673424	0.33205207	-154.15341	0.33278419	25.970939	
	0.33260223	26.017344	0.33205207	-154.15341	0.66427845	25.17173	0.48524309	-35.715036	
	0.33256899	-153.88232	0.33278419	25.970939	0.48524309	-35.715036	0.66404451	25.129263	
	
0.185265858972714	0.16895074	25.261749	0.84775885	-5.0074219	0.3340935	25.564215	0.33374383	-154.4092	
	0.84775885	-5.0074219	0.168559	26.33409	0.33393355	-154.57062	0.3340985	25.446608	
	0.3340935	25.564215	0.33393355	-154.57062	0.66688002	24.679538	0.47913906	-35.676813	
	0.33374383	-154.4092	0.3340985	25.446608	0.47913906	-35.676813	0.66746602	24.701524	
	
0.18954561521918	0.16963994	24.987726	0.84608924	-4.952888	0.33534701	25.023279	0.33462222	-154.88246	
	0.84608924	-4.952888	0.16930011	25.917331	0.33492408	-155.16682	0.33586138	24.91466	
	0.33534701	25.023279	0.33492408	-155.16682	0.66959583	24.132749	0.47277318	-35.599965	
	0.33462222	-154.88246	0.33586138	24.91466	0.47277318	-35.599965	0.66976663	24.110688	
	
0.193924236489297	0.17149394	24.478507	0.84465387	-4.8981587	0.336565	24.549904	0.33566301	-155.45685	
	0.84465387	-4.8981587	0.16990744	24.980084	0.3365294	-155.5272	0.33694027	24.491139	
	0.336565	24.549904	0.3365294	-155.5272	0.67215595	23.712271	0.46695525	-35.493104	
	0.33566301	-155.45685	0.33694027	24.491139	0.46695525	-35.493104	0.67246289	23.721933	
	
0.19840400662643	0.17207718	23.892201	0.84348425	-4.838442	0.33813283	24.099395	0.33731978	-155.99041	
	0.84348425	-4.838442	0.17066993	24.704649	0.33841243	-155.9815	0.33881794	23.950379	
	0.33813283	24.099395	0.33841243	-155.9815	0.67543257	23.216395	0.46054529	-35.495726	
	0.33731978	-155.99041	0.33881794	23.950379	0.46054529	-35.495726	0.6748523	23.191658	
	
0.202987262232139	0.17176885	23.061656	0.84157028	-4.7493041	0.33905727	23.535564	0.33804126	-156.32399	
	0.84157028	-4.7493041	0.17215045	24.093058	0.33825798	-156.54712	0.33877764	23.424237	
	0.33905727	23.535564	0.33825798	-156.54712	0.67639982	22.74587	0.45468113	-35.399029	
	0.33804126	-156.32399	0.33877764	23.424237	0.45468113	-35.399029	0.67633375	22.838227	
	
0.207676393884933	0.1719637	22.930195	0.84072524	-4.6692242	0.3405241	23.102414	0.33973367	-156.89947	
	0.84072524	-4.6692242	0.17246332	23.733335	0.33974105	-157.06084	0.34087382	22.959357	
	0.3405241	23.102414	0.33974105	-157.06084	0.67974881	22.332576	0.44921094	-35.254599	
	0.33973367	-156.89947	0.34087382	22.959357	0.44921094	-35.254599	0.67925741	22.310636	
	
0.212473847387164	0.1743037	22.372748	0.83954846	-4.6040116	0.34181443	22.637915	0.34097564	-157.40142	
	0.83954846	-4.6040116	0.1725157	23.202236	0.34158068	-157.46913	0.34158783	22.481965	
	0.34181443	22.637915	0.34158068	-157.46913	0.68179898	21.945837	0.44331599	-35.164902	
	0.34097564	-157.40142	0.34158783	22.481965	0.44331599	-35.164902	0.6814715	21.904696	
	
0.217382125040737	0.17467103	21.628108	0.83845309	-4.5709506	0.34236309	22.121119	0.3417718	-157.84822	
	0.83845309	-4.5709506	0.17251651	22.267418	0.34252274	-157.99537	0.34301936	22.10935	
	0.34236309	22.121119	0.34252274	-157.99537	0.68313829	21.410918	0.43753305	-34.931571	
	0.3417718	-157.84822	0.34301936	22.10935	0.43753305	-34.931571	0.68412631	21.518083	
	
0.222403786952283	0.17494444	21.490356	0.83732237	-4.4901836	0.34349917	21.663398	0.342981	-158.2984	
	0.83732237	-4.4901836	0.17391717	22.736954	0.34360061	-158.4957	0.34411036	21.563733	
	0.34349917	21.663398	0.34360061	-158.4957	0.68633238	20.982713	0.43193381	-34.890742	
	0.342981	-158.2984	0.34411036	21.563733	0.43193381	-34.890742	0.68541823	21.056865	
	
0.227541452368483	0.1746027	20.729972	0.83609883	-4.4028384	0.34466313	21.280966	0.34424023	-158.75279	
	0.83609883	-4.4028384	0.17477956	21.850844	0.34440093	-158.8991	0.34468283	21.102401	
	0.34466313	21.280966	0.34440093	-158.8991	0.68843158	20.613256	0.42750131	-34.644945	
	0.34424023	-158.75279	0.34468283	21.102401	0.42750131	-34.644945	0.68819789	20.630776	
	
0.232797801042241	0.17602862	20.411199	0.83525825	-4.3398939	0.34537135	20.769734	0.34510444	-159.18816	
	0.83525825	-4.3398939	0.17420817	21.61272	0.34531626	-159.29472	0.34668324	20.722097	
	0.34537135	20.769734	0.34531626	-159.29472	0.69020311	20.224402	0.42166942	-34.514162	
	0.34510444	-159.18816	0.34668324	20.722097	0.42166942	-34.514162	0.68958013	20.260967	
	
0.238175574630416	0.17573913	20.012269	0.83371317	-4.29322	0.34674143	20.387581	0.34630281	-159.62729	
	0.83371317	-4.29322	0.17518032	20.799236	0.3460223	-159.7367	0.34724207	20.270673	
	0.34674143	20.387581	0.3460223	-159.7367	0.69288919	19.808418	0.41714306	-34.322142	
	0.34630281	-159.62729	0.34724207	20.270673	0.41714306	-34.322142	0.69256228	19.799601	
	
0.24367757812384	0.17633972	19.557421	0.83329086	-4.2025109	0.34807511	20.03204	0.34684737	-159.99363	
	0.83329086	-4.2025109	0.17557538	20.54635	0.34771508	-160.24341	0.34781127	19.805662	
	0.34807511	20.03204	0.34771508	-160.24341	0.69379166	19.390016	0.41161175	-34.098737	
	0.34684737	-159.99363	0.34781127	19.805662	0.41161175	-34.098737	0.69316839	19.40241	
	
0.249306681310373	0.17620731	18.943095	0.83316514	-4.1519835	0.34885579	19.572082	0.34856408	-160.48502	
	0.83316514	-4.1519835	0.17486535	20.120852	0.34883912	-160.55666	0.34910236	19.427492	
	0.34885579	19.572082	0.34883912	-160.55666	0.69530031	18.991737	0.4071844	-33.931704	
	0.34856408	-160.48502	0.34910236	19.427492	0.4071844	-33.931704	0.69594201	18.987692	
	
0.255065820271756	0.17718398	18.785648	0.83195724	-4.0696578	0.34975274	19.208216	0.34888983	-160.80355	
	0.83195724	-4.0696578	0.1758097	19.544158	0.34957389	-161.02288	0.34973108	19.066702	
	0.34975274	19.208216	0.34957389	-161.02288	0.69686612	18.61229	0.40229781	-33.644093	
	0.34888983	-160.80355	0.34973108	19.066702	0.40229781	-33.644093	0.69712668	18.6581	
	
0.260957998915036	0.17887074	18.492634	0.83020519	-3.9771632	0.34947748	18.791234	0.34913089	-161.29088	
	0.83020519	-3.9771632	0.17708279	18.954926	0.34987913	-161.41845	0.35015826	18.625342	
	0.34947748	18.791234	0.34987913	-161.41845	0.69764059	18.152836	0.3972019	-33.449063	
	0.34913089	-161.29088	0.35015826	18.625342	0.3972019	-33.449063	0.69693572	18.246624	
	
0.266986290539378	0.17791755	18.076865	0.83002025	-3.9285377	0.35100728	18.361271	0.35035619	-161.71375	
	0.83002025	-3.9285377	0.17704997	18.821362	0.35048462	-161.76935	0.35171027	18.255116	
	0.35100728	18.361271	0.35048462	-161.76935	0.70069375	17.856516	0.39261453	-33.236241	
	0.35035619	-161.71375	0.35171027	18.255116	0.39261453	-33.236241	0.70010063	17.850209	
	
0.273153839439064	0.1784246	17.913581	0.82958073	-3.8847153	0.3517502	17.979341	0.35117687	-162.05298	
	0.82958073	-3.8847153	0.17745206	18.283082	0.35162241	-162.15909	0.35172981	17.870593	
	0.3517502	17.979341	0.35162241	-162.15909	0.70116278	17.468875	0.38837894	-32.955822	
	0.35117687	-162.05298	0.35172981	17.870593	0.38837894	-32.955822	0.7019792	17.543422	
	
0.279463862543524	0.17822128	17.053728	0.82813536	-3.7994912	0.35302624	17.649959	0.35174394	-162.38409	
	0.82813536	-3.7994912	0.17839532	18.095207	0.35213972	-162.5709	0.35212066	17.4673	
	0.35302624	17.649959	0.35213972	-162.5709	0.70386724	17.095919	0.3842706	-32.80338	
	0.35174394	-162.38409	0.35212066	17.4673	0.3842706	-32.80338	0.70203028	17.124883	
	
0.285919651095252	0.1789539	17.295281	0.82809331	-3.7355993	0.35310331	17.201562	0.35254293	-162.91252	
	0.82809331	-3.7355993	0.17803624	17.603827	0.35269761	-162.96509	0.35353983	17.092978	
	0.35310331	17.201562	0.35269761	-162.96509	0.70398186	16.760199	0.38040033	-32.474505	
	0.35254293	-162.91252	0.35353983	17.092978	0.38040033	-32.474505	0.70476096	16.745678	
	
0.292524572366485	0.17916616	16.505341	0.8270512	-3.6921145	0.35341035	16.917061	0.35352974	-163.16106	
	0.8270512	-3.6921145	0.17770965	17.890969	0.35330067	-163.45107	0.35428019	16.59937	
	0.35341035	16.917061	0.35330067	-163.45107	0.70570369	16.402527	0.37591416	-32.125688	
	0.35352974	-163.16106	0.35428019	16.59937	0.37591416	-32.125688	0.70561845	16.40124	
	
0.299282071415539	0.18061113	16.287136	0.82552445	-3.6066026	0.35377804	16.45783	0.35312621	-163.56558	
	0.82552445	-3.6066026	0.17948591	17.585093	0.35332855	-163.76486	0.35438161	16.231565	
	0.35377804	16.45783	0.35332855	-163.76486	0.70570072	16.058027	0.37187443	-31.800247	
	0.35312621	-163.56558	0.35438161	16.231565	0.37187443	-31.800247	0.70672355	16.112129	
	
0.30619567288371	0.17996196	15.957676	0.825577	-3.5464616	0.35473447	16.130255	0.35390201	-163.91196	
	0.825577	-3.5464616	0.1795059	16.916378	0.35397555	-164.01595	0.35437079	15.976066	
	0.35473447	16.130255	0.35397555	-164.01595	0.70810092	15.774536	0.36818828	-31.531521	
	0.35390201	-163.91196	0.35437079	15.976066	0.36818828	-31.531521	0.7081001	15.694908	
	
0.313268982833699	0.18036622	15.440243	0.8246334	-3.4487594	0.35553522	15.82931	0.35458685	-164.21621	
	0.8246334	-3.4487594	0.17951308	16.439371	0.3552848	-164.43239	0.35576901	15.611331	
	0.35553522	15.82931	0.3552848	-164.43239	0.71016539	15.384505	0.36426723	-31.191138	
	0.35458685	-164.21621	0.35576901	15.611331	0.36426723	-31.191138	0.70852141	15.37156	
	
0.320505690630487	0.17987537	14.881819	0.82431644	-3.3594121	0.35597166	15.532507	0.35550801	-164.52735	
	0.82431644	-3.3594121	0.17948782	15.882797	0.35568601	-164.67302	0.35666254	15.354939	
	0.35597166	15.532507	0.35568601	-164.67302	0.70983979	15.060332	0.36077603	-30.909784	
	0.35550801	-164.52735	0.35666254	15.354939	0.36077603	-30.909784	0.71043803	15.048569	
	
0.327909570865677	0.1790135	14.171766	0.82389715	-3.2946253	0.35728117	15.268745	0.35633261	-164.78587	
	0.82389715	-3.2946253	0.17892395	15.215697	0.3561459	-164.9119	0.35753196	15.025671	
	0.35728117	15.268745	0.3561459	-164.9119	0.71158321	14.709378	0.35684068	-30.592327	
	0.35633261	-164.78587	0.35753196	15.025671	0.35684068	-30.592327	0.71111125	14.737775	
	
0.335484485326279	0.18039754	14.238824	0.82313998	-3.2582075	0.35740123	14.863901	0.35671195	-165.16233	
	0.82313998	-3.2582075	0.17957091	14.67432	0.35713851	-165.19335	0.35786855	14.851631	
	0.35740123	14.863901	0.35713851	-165.19335	0.71211779	14.394244	0.35410524	-30.243564	
	0.35671195	-165.16233	0.35786855	14.851631	0.35410524	-30.243564	0.71247897	14.439039	
	
0.343234385008977	0.18023734	13.963488	0.82286438	-3.2106799	0.3579844	14.474905	0.35738416	-165.49951	
