# MHz S MA R 50

0.1	0.41001196	29.646215	0.67187205	-17.623002	0.40907541	30.231595	0.40794791	-149.98017	
	0.67187205	-17.623002	0.40967709	30.183952	0.4095039	-150.31553	0.41047072	29.530521	
	0.40907541	30.231595	0.4095039	-150.31553	0.40930027	29.567041	0.67132541	-17.705711	
	0.40794791	-149.98017	0.41047072	29.530521	0.67132541	-17.705711	0.41177304	29.78185	
	
0.102310062021247	0.41312654	29.17329	0.66644271	-17.735169	0.41290569	29.891359	0.41219587	-150.23113	
	0.66644271	-17.735169	0.41334432	29.444774	0.41328098	-150.59732	0.4142914	29.375219	
	0.41290569	29.891359	0.41328098	-150.59732	0.41393691	29.001464	0.66632571	-17.817576	
	0.41219587	-150.23113	0.4142914	29.375219	0.66632571	-17.817576	0.41515546	29.383597	
	
0.104673487907914	0.41667597	28.567554	0.66313891	-17.674454	0.41429199	28.99309	0.41299672	-150.95488	
	0.66313891	-17.674454	0.41546531	28.883348	0.4132376	-150.94988	0.41353091	29.211277	
	0.41429199	28.99309	0.4132376	-150.94988	0.41755803	28.825747	0.66188104	-17.676937	
	0.41299672	-150.95488	0.41353091	29.211277	0.66188104	-17.676937	0.41518319	28.845129	
	
0.107091510398389	0.41742296	28.16097	0.65873882	-17.598833	0.41671825	28.600979	0.41568389	-151.41613	
	0.65873882	-17.598833	0.41892335	28.322011	0.41544545	-151.3884	0.41613186	28.58173	
	0.41671825	28.600979	0.41544545	-151.3884	0.41858599	28.343104	0.65810836	-17.562882	
	0.41568389	-151.41613	0.41613186	28.58173	0.65810836	-17.562882	0.41869159	28.396712	
	
0.109565390708082	0.42121737	27.695086	0.654613	-17.471571	0.41887761	28.032997	0.41823465	-151.96012	
	0.654613	-17.471571	0.41982371	27.858102	0.41826159	-152.17005	0.41939421	27.958668	
	0.41887761	28.032997	0.41826159	-152.17005	0.42038522	27.874448	0.65377552	-17.432981	
	0.41823465	-151.96012	0.41939421	27.958668	0.65377552	-17.432981	0.42069174	27.70059	
	
0.112096419187261	0.42198549	27.00873	0.65054685	-17.384791	0.42107589	27.502896	0.42043907	-152.44964	
	0.65054685	-17.384791	0.42158378	27.275219	0.42040307	-152.56274	0.42122265	27.45023	
	0.42107589	27.502896	0.42040307	-152.56274	0.42251378	27.188269	0.65001061	-17.411589	
	0.42043907	-152.44964	0.42122265	27.45023	0.65001061	-17.411589	0.42324771	27.298245	
	
0.114685915994083	0.42491334	26.508618	0.64575706	-17.274427	0.42315183	27.060938	0.42221444	-153.00516	
	0.64575706	-17.274427	0.42450695	26.887373	0.42298379	-152.98106	0.42432287	26.914204	
	0.42315183	27.060938	0.42298379	-152.98106	0.4256792	26.824287	0.64560766	-17.296514	
	0.42221444	-153.00516	0.42432287	26.914204	0.64560766	-17.296514	0.42403423	26.875016	
	
0.117335231783182	0.42651477	26.129093	0.64194413	-17.176622	0.42554695	26.617526	0.42499836	-153.45028	
	0.64194413	-17.176622	0.42690689	26.40415	0.4245185	-153.49668	0.42642089	26.459705	
	0.42554695	26.617526	0.4245185	-153.49668	0.42713677	26.266597	0.64118144	-17.184882	
	0.42499836	-153.45028	0.42642089	26.459705	0.64118144	-17.184882	0.42689036	26.261284	
	
0.120045748410147	0.42891305	25.631209	0.63748097	-17.103796	0.42737131	26.123408	0.42595862	-153.90871	
	0.63748097	-17.103796	0.42837188	26.039984	0.4261193	-154.00139	0.4275986	25.930357	
	0.42737131	26.123408	0.4261193	-154.00139	0.42916939	25.74876	0.6370469	-17.031285	
	0.42595862	-153.90871	0.4275986	25.930357	0.6370469	-17.031285	0.42888294	25.61999	
	
0.122818879652292	0.43035881	25.240484	0.63443896	-16.946067	0.42952935	25.593819	0.42855049	-154.45345	
	0.63443896	-16.946067	0.43029577	25.313126	0.42891051	-154.53023	0.42997523	25.41976	
	0.42952935	25.593819	0.42891051	-154.53023	0.43129046	25.208091	0.63341788	-16.921258	
	0.42855049	-154.45345	0.42997523	25.41976	0.63341788	-16.921258	0.43114921	25.332218	
	
0.125656071946061	0.43233696	24.728498	0.63089424	-16.821987	0.43140408	25.11932	0.43113938	-154.87213	
	0.63089424	-16.821987	0.43196611	24.946726	0.43134287	-155.02092	0.43236412	24.980387	
	0.43140408	25.11932	0.43134287	-155.02092	0.43279933	24.811382	0.63010206	-16.778332	
	0.43113938	-154.87213	0.43236412	24.980387	0.63010206	-16.778332	0.43311918	24.787905	
	
0.128558805141477	0.43359824	24.268294	0.62650629	-16.708347	0.43309592	24.721576	0.43225158	-155.41731	
	0.62650629	-16.708347	0.43470698	24.512554	0.4321945	-155.52153	0.43351938	24.432073	
	0.43309592	24.721576	0.4321945	-155.52153	0.43545139	24.37348	0.62604943	-16.608285	
	0.43225158	-155.41731	0.43351938	24.432073	0.62604943	-16.608285	0.43468403	24.336549	
	
0.131528593274019	0.43617484	23.905824	0.62301393	-16.582282	0.43554782	24.187866	0.43466872	-155.89532	
	0.62301393	-16.582282	0.4371152	24.060852	0.4348641	-155.99227	0.43565478	24.005764	
	0.43554782	24.187866	0.4348641	-155.99227	0.43746325	23.848899	0.62268948	-16.519544	
	0.43466872	-155.89532	0.43565478	24.005764	0.62268948	-16.519544	0.43623462	23.941437	
	
0.134566985354323	0.43793816	23.287013	0.61965646	-16.402691	0.4362123	23.681185	0.43575973	-156.37373	
	0.61965646	-16.402691	0.43857923	23.563356	0.43586673	-156.44604	0.43674409	23.630518	
	0.4362123	23.681185	0.43586673	-156.44604	0.43961889	23.444222	0.61844377	-16.37466	
	0.43575973	-156.37373	0.43674409	23.630518	0.61844377	-16.37466	0.43838678	23.445107	
	
0.13767556617613	0.43933236	22.890082	0.61571627	-16.264139	0.43800219	23.299045	0.43656904	-156.72155	
	0.61571627	-16.264139	0.43981464	23.175299	0.43735385	-156.84018	0.43825294	23.172499	
	0.43800219	23.299045	0.43735385	-156.84018	0.44030833	22.842636	0.61532195	-16.265516	
	0.43656904	-156.72155	0.43825294	23.172499	0.61532195	-16.265516	0.43916361	22.845181	
	
0.140855957142902	0.44153735	22.463832	0.61306296	-16.141531	0.43986678	22.82719	0.43949583	-157.2097	
	0.61306296	-16.141531	0.44090954	22.561843	0.43896128	-157.38733	0.44052874	22.688566	
	0.43986678	22.82719	0.43896128	-157.38733	0.44156948	22.50731	0.61196723	-16.08886	
	0.43949583	-157.2097	0.44052874	22.688566	0.61196723	-16.08886	0.44031381	22.630942	
	
0.144109817113524	0.44341586	21.959644	0.60943784	-15.90571	0.44126184	22.405576	0.44034015	-157.67489	
	0.60943784	-15.90571	0.44229396	22.144708	0.44073212	-157.80415	0.44130109	22.226799	
	0.44126184	22.405576	0.44073212	-157.80415	0.44279501	22.077778	0.60884729	-15.940308	
	0.44034015	-157.67489	0.44130109	22.226799	0.60884729	-15.940308	0.44248481	22.078551	
	
0.147438843267552	0.4446065	21.617662	0.60597152	-15.771513	0.44376473	21.864785	0.44230441	-158.25741	
	0.60597152	-15.771513	0.44450342	21.608692	0.44295781	-158.21773	0.44346649	21.819727	
	0.44376473	21.864785	0.44295781	-158.21773	0.44453773	21.758689	0.60575228	-15.731803	
	0.44230441	-158.25741	0.44346649	21.819727	0.60575228	-15.731803	0.44439048	21.755883	
	
0.150844771990442	0.44530334	21.097247	0.60278412	-15.605207	0.4447766	21.509577	0.44322395	-158.51306	
	0.60278412	-15.605207	0.44513875	21.291624	0.44401092	-158.64078	0.44457658	21.369151	
	0.4447766	21.509577	0.44401092	-158.64078	0.44682412	21.271407	0.60219994	-15.539094	
	0.44322395	-158.51306	0.44457658	21.369151	0.60219994	-15.539094	0.44561567	21.225292	
	
0.154329379779229	0.44739554	20.830402	0.59985458	-15.350632	0.4461375	21.038255	0.44449582	-159.06268	
	0.59985458	-15.350632	0.44661709	20.840815	0.44521875	-159.15882	0.44602156	20.857541	
	0.4461375	21.038255	0.44521875	-159.15882	0.44696876	20.669706	0.59884854	-15.422089	
	0.44449582	-159.06268	0.44602156	20.857541	0.59884854	-15.422089	0.44724529	20.822765	
	
0.157894484169135	0.44857036	20.25213	0.59696844	-15.198742	0.4473398	20.579941	0.44686339	-159.46586	
	0.59696844	-15.198742	0.44773146	20.56442	0.44689942	-159.53681	0.44796985	20.486824	
	0.4473398	20.579941	0.44689942	-159.53681	0.4495635	20.300928	0.59634514	-15.244936	
	0.44686339	-159.46586	0.44796985	20.486824	0.59634514	-15.244936	0.44819156	20.365017	
	
0.16154194468157	0.45022699	19.832606	0.59403214	-15.048694	0.44806242	20.211916	0.44716297	-159.86655	
	0.59403214	-15.048694	0.44914513	19.891914	0.44785954	-159.93547	0.44870858	20.08837	
	0.44806242	20.211916	0.44785954	-159.93547	0.45018376	19.829968	0.59277692	-15.055168	
	0.44716297	-159.86655	0.44870858	20.08837	0.59277692	-15.055168	0.44953782	20.020142	
	
0.165273663794043	0.45136794	19.353512	0.590533	-14.908191	0.44950503	19.808483	0.44843876	-160.22414	
	0.590533	-14.908191	0.45148836	19.584243	0.44860021	-160.33097	0.44949139	19.727697	
	0.44950503	19.808483	0.44860021	-160.33097	0.45086628	19.488638	0.59014906	-14.846635	
	0.44843876	-160.22414	0.44949139	19.727697	0.59014906	-14.846635	0.45130468	19.524492	
	
0.169091587932473	0.45233666	18.96738	0.58788944	-14.712513	0.4508251	19.332749	0.44994049	-160.61276	
	0.58788944	-14.712513	0.45237148	19.195985	0.45007905	-160.71554	0.45071878	19.312418	
	0.4508251	19.332749	0.45007905	-160.71554	0.45241195	19.136131	0.58745146	-14.675736	
	0.44994049	-160.61276	0.45071878	19.312418	0.58745146	-14.675736	0.45250977	19.114795	
	
0.172997708486424	0.4527585	18.620029	0.58546897	-14.469328	0.45231135	19.033044	0.45111073	-161.16915	
	0.58546897	-14.469328	0.45319576	18.712056	0.45128574	-161.10922	0.45181854	18.884824	
	0.45231135	19.033044	0.45128574	-161.10922	0.45405512	18.6224	0.58503554	-14.40798	
	0.45111073	-161.16915	0.45181854	18.884824	0.58503554	-14.40798	0.4532846	18.771719	
	
0.176994062847797	0.45460623	18.236679	0.58277281	-14.311456	0.45291686	18.556225	0.45189047	-161.51042	
	0.58277281	-14.311456	0.4544176	18.538678	0.45199799	-161.60397	0.45300203	18.449123	
	0.45291686	18.556225	0.45199799	-161.60397	0.45535717	18.295007	0.58202236	-14.252916	
	0.45189047	-161.51042	0.45300203	18.449123	0.58202236	-14.252916	0.45355983	18.197684	
	
0.181082735473506	0.45532206	17.689365	0.57997704	-14.081295	0.45393576	18.127524	0.45317108	-161.82034	
	0.57997704	-14.081295	0.4555646	17.923748	0.45308925	-161.96823	0.45421479	18.118038	
	0.45393576	18.127524	0.45308925	-161.96823	0.45600124	17.998512	0.57940467	-14.0635	
	0.45317108	-161.82034	0.45421479	18.118038	0.57940467	-14.0635	0.45473314	17.845666	
	
0.185265858972714	0.45649228	17.476072	0.5777032	-13.84497	0.45515519	17.80121	0.45384274	-162.18392	
	0.5777032	-13.84497	0.45636274	17.591875	0.45445918	-162.3571	0.45501356	17.642378	
	0.45515519	17.80121	0.45445918	-162.3571	0.45671787	17.504311	0.57691342	-13.840409	
	0.45384274	-162.18392	0.45501356	17.642378	0.57691342	-13.840409	0.45655747	17.510951	
	
0.18954561521918	0.45780558	17.17362	0.57545479	-13.654715	0.45582919	17.346721	0.45478549	-162.63376	
	0.57545479	-13.654715	0.45596573	17.329408	0.45469616	-162.81231	0.45597009	17.262208	
	0.45582919	17.346721	0.45469616	-162.81231	0.45784221	17.121057	0.57475349	-13.591399	
	0.45478549	-162.63376	0.45597009	17.262208	0.57475349	-13.591399	0.45745996	17.128927	
	
0.193924236489297	0.45830824	16.761575	0.57318788	-13.472549	0.45629435	17.042915	0.45502772	-163.02095	
	0.57318788	-13.472549	0.45802407	16.955608	0.45600704	-163.09568	0.45662325	16.960658	
	0.45629435	17.042915	0.45600704	-163.09568	0.45874723	16.75935	0.57267965	-13.407707	
	0.45502772	-163.02095	0.45662325	16.960658	0.57267965	-13.407707	0.45869346	16.745165	
	
0.19840400662643	0.45981813	16.286573	0.57088251	-13.281448	0.45795782	16.734196	0.45662369	-163.423	
	0.57088251	-13.281448	0.45885187	16.426837	0.45735484	-163.5014	0.45806498	16.529377	
	0.45795782	16.734196	0.45735484	-163.5014	0.4588942	16.308038	0.57039702	-13.219315	
	0.45662369	-163.423	0.45806498	16.529377	0.57039702	-13.219315	0.45911577	16.339421	
	
0.202987262232139	0.45982662	15.910838	0.56900357	-13.066713	0.45808804	16.241612	0.45725351	-163.62585	
	0.56900357	-13.066713	0.45998463	16.052586	0.45700679	-163.83755	0.45764274	16.161271	
	0.45808804	16.241612	0.45700679	-163.83755	0.45996756	16.041827	0.56759561	-13.04244	
	0.45725351	-163.62585	0.45764274	16.161271	0.56759561	-13.04244	0.45941812	16.106784	
	
0.207676393884933	0.46081961	15.683357	0.56680677	-12.835162	0.45923517	15.933345	0.45795679	-164.06495	
	0.56680677	-12.835162	0.46032011	15.745128	0.45844906	-164.18099	0.45910545	15.855425	
	0.45923517	15.933345	0.45844906	-164.18099	0.46160127	15.723356	0.56600985	-12.795579	
	0.45795679	-164.06495	0.45910545	15.855425	0.56600985	-12.795579	0.46081304	15.770893	
	
0.212473847387164	0.46177124	15.275613	0.56476063	-12.630892	0.45996793	15.594787	0.45881867	-164.44425	
	0.56476063	-12.630892	0.46134082	15.504368	0.45938463	-164.5235	0.4599981	15.480333	
	0.45996793	15.594787	0.45938463	-164.5235	0.46146394	15.335635	0.56396968	-12.592652	
	0.45881867	-164.44425	0.4599981	15.480333	0.56396968	-12.592652	0.46180699	15.288591	
	
0.217382125040737	0.46320195	15.028082	0.5630804	-12.425687	0.46030323	15.249979	0.45895628	-164.7665	
	0.5630804	-12.425687	0.46141955	15.018356	0.45981512	-164.88924	0.46076106	15.208317	
	0.46030323	15.249979	0.45981512	-164.88924	0.46258483	15.054393	0.56190053	-12.364215	
	0.45895628	-164.7665	0.46076106	15.208317	0.56190053	-12.364215	0.46137706	15.048907	
	
0.222403786952283	0.46324323	14.720193	0.56137376	-12.189586	0.46112111	14.906472	0.46050888	-165.08237	
	0.56137376	-12.189586	0.46273055	14.957191	0.46084789	-165.27606	0.46170568	14.804003	
	0.46112111	14.906472	0.46084789	-165.27606	0.46385375	14.757946	0.56030987	-12.209546	
	0.46050888	-165.08237	0.46170568	14.804003	0.56030987	-12.209546	0.46238614	14.727673	
	
0.227541452368483	0.46393749	14.246578	0.55904951	-11.982452	0.46178819	14.635714	0.46115145	-165.41102	
	0.55904951	-11.982452	0.46319457	14.425283	0.46083794	-165.50236	0.46177181	14.441876	
	0.46178819	14.635714	0.46083794	-165.50236	0.46394646	14.433144	0.55884479	-11.965357	
	0.46115145	-165.41102	0.46177181	14.441876	0.55884479	-11.965357	0.4640511	14.381316	
	
0.232797801042241	0.46502171	13.93739	0.55780544	-11.787303	0.4620475	14.222547	0.46145222	-165.76641	
	0.55780544	-11.787303	0.46358247	14.205511	0.46175976	-165.8592	0.46303787	14.163901	
	0.4620475	14.222547	0.46175976	-165.8592	0.4645868	14.100633	0.55676781	-11.781114	
	0.46145222	-165.76641	0.46303787	14.163901	0.55676781	-11.781114	0.46239502	14.041057	
	
0.238175574630416	0.46505443	13.634557	0.55566241	-11.625909	0.46297367	13.938068	0.46191481	-166.09447	
	0.55566241	-11.625909	0.46419186	13.819868	0.46207484	-166.13671	0.46342813	13.847726	
	0.46297367	13.938068	0.46207484	-166.13671	0.46606781	13.860174	0.55529782	-11.577677	
	0.46191481	-166.09447	0.46342813	13.847726	0.55529782	-11.577677	0.4641618	13.717442	
	
0.24367757812384	0.4656969	13.324163	0.554391	-11.356738	0.46374727	13.671505	0.46237065	-166.3589	
	0.554391	-11.356738	0.4648769	13.522871	0.46306507	-166.5197	0.46408807	13.524711	
	0.46374727	13.671505	0.46306507	-166.5197	0.46481097	13.508913	0.55395387	-11.344951	
	0.46237065	-166.3589	0.46408807	13.524711	0.55395387	-11.344951	0.46520011	13.638558	
	
0.249306681310373	0.46563229	13.109187	0.55379893	-11.182751	0.46491311	13.374138	0.46417858	-166.6687	
	0.55379893	-11.182751	0.46508022	13.220788	0.4639822	-166.72471	0.46482364	13.26772	
	0.46491311	13.374138	0.4639822	-166.72471	0.46544505	13.1894	0.55296501	-11.172354	
	0.46417858	-166.6687	0.46482364	13.26772	0.55296501	-11.172354	0.46523868	13.12444	
	
0.255065820271756	0.46648555	12.701393	0.55174339	-11.001036	0.46514216	13.083275	0.46388857	-166.92579	
	0.55174339	-11.001036	0.46560061	12.904508	0.46426991	-167.17134	0.46495492	13.004727	
	0.46514216	13.083275	0.46426991	-167.17134	0.46659588	12.85654	0.55125943	-10.895862	
	0.46388857	-166.92579	0.46495492	13.004727	0.55125943	-10.895862	0.46593478	12.994389	
	
0.260957998915036	0.46753007	12.456289	0.55053243	-10.756506	0.46444653	12.830151	0.46398914	-167.27501	
	0.55053243	-10.756506	0.46655039	12.688779	0.46434578	-167.3384	0.46492909	12.749588	
	0.46444653	12.830151	0.46434578	-167.3384	0.46677631	12.54942	0.54976099	-10.705093	
	0.46398914	-167.27501	0.46492909	12.749588	0.54976099	-10.705093	0.46619975	12.545978	
	
0.266986290539378	0.4673696	12.224139	0.54939963	-10.550738	0.46595178	12.459627	0.46498918	-167.58413	
	0.54939963	-10.550738	0.46664307	12.390325	0.465229	-167.62753	0.46592818	12.353041	
	0.46595178	12.459627	0.465229	-167.62753	0.46730971	12.318941	0.5485041	-10.545732	
	0.46498918	-167.58413	0.46592818	12.353041	0.5485041	-10.545732	0.46643128	12.248394	
	
0.273153839439064	0.46798109	12.031364	0.54869149	-10.377921	0.4662739	12.222174	0.46558202	-167.82901	
	0.54869149	-10.377921	0.46673128	12.126873	0.46589281	-167.93405	0.46638836	12.15823	
	0.4662739	12.222174	0.46589281	-167.93405	0.46720498	12.012099	0.54730158	-10.301071	
	0.46558202	-167.82901	0.46638836	12.15823	0.54730158	-10.301071	0.46740775	12.062067	
	
0.279463862543524	0.46794152	11.651835	0.54693906	-10.210773	0.46741357	11.984243	0.46614495	-168.0758	
	0.54693906	-10.210773	0.46727449	11.835121	0.4662774	-168.16845	0.46650011	11.782106	
	0.46741357	11.984243	0.4662774	-168.16845	0.46845489	11.597412	0.54640706	-10.141691	
	0.46614495	-168.0758	0.46650011	11.782106	0.54640706	-10.141691	0.46768228	11.75678	
	
0.285919651095252	0.46861202	11.549262	0.54585105	-9.9982063	0.46653756	11.660766	0.46591565	-168.41881	
	0.54585105	-9.9982063	0.46830511	11.584059	0.46629087	-168.49074	0.46722755	11.579279	
	0.46653756	11.660766	0.46629087	-168.49074	0.46765083	11.498182	0.54533052	-9.9707013	
	0.46591565	-168.41881	0.46722755	11.579279	0.54533052	-9.9707013	0.46843623	11.537011	
	
0.292524572366485	0.46806891	11.16651	0.54447881	-9.8294937	0.46670522	11.404159	0.46609357	-168.67675	
	0.54447881	-9.8294937	0.46928339	11.453839	0.46675659	-168.85422	0.46783018	11.246236	
	0.46670522	11.404159	0.46675659	-168.85422	0.46908416	11.299636	0.54404218	-9.7700301	
	0.46609357	-168.67675	0.46783018	11.246236	0.54404218	-9.7700301	0.46824447	11.286127	
	
0.299282071415539	0.46975728	10.958104	0.54345744	-9.5887498	0.46675888	11.158901	0.4660569	-168.90945	
	0.54345744	-9.5887498	0.46874869	11.268139	0.46642097	-169.07505	0.46724366	10.949863	
	0.46675888	11.158901	0.46642097	-169.07505	0.46849388	11.022708	0.54305981	-9.5532387	
	0.4660569	-168.90945	0.46724366	10.949863	0.54305981	-9.5532387	0.46818193	11.132523	
	
0.30619567288371	0.469992	10.72868	0.54275056	-9.4521644	0.46716571	10.920443	0.46652663	-169.12725	
	0.54275056	-9.4521644	0.46915357	10.946197	0.46672602	-169.25118	0.46708914	10.764308	
	0.46716571	10.920443	0.46672602	-169.25118	0.46939499	10.883769	0.54142356	-9.3766325	
	0.46652663	-169.12725	0.46708914	10.764308	0.54142356	-9.3766325	0.46902174	10.712383	
	
0.313268982833699	0.47020507	10.389352	0.5411902	-9.2155286	0.46813442	10.683428	0.46673902	-169.341	
	0.5411902	-9.2155286	0.46874793	10.578968	0.46768241	-169.49516	0.46817195	10.502644	
	0.46813442	10.683428	0.46768241	-169.49516	0.47077725	10.554741	0.54080951	-9.1529249	
	0.46673902	-169.341	0.46817195	10.502644	0.54080951	-9.1529249	0.46885388	10.480201	
	
0.320505690630487	0.4701163	10.209964	0.5408829	-9.0129767	0.46800411	10.441734	0.46765616	-169.57099	
	0.5408829	-9.0129767	0.46915361	10.318235	0.46784365	-169.66225	0.46923666	10.342259	
	0.46800411	10.441734	0.46784365	-169.66225	0.46982553	10.232778	0.54020244	-8.9672181	
	0.46765616	-169.57099	0.46923666	10.342259	0.54020244	-8.9672181	0.46882521	10.196851	
	
0.327909570865677	0.46939051	9.8481066	0.53963664	-8.8269761	0.46918885	10.324559	0.4682984	-169.73413	
	0.53963664	-8.8269761	0.469401	9.9735694	0.46847699	-169.90676	0.46957419	10.151646	
	0.46918885	10.324559	0.46847699	-169.90676	0.47086412	9.8850965	0.53926154	-8.730109	
	0.4682984	-169.73413	0.46957419	10.151646	0.53926154	-8.730109	0.46968917	10.007116	
	
0.335484485326279	0.47054401	9.7338923	0.53889891	-8.6609776	0.46915028	10.058637	0.46826997	-170.03795	
	0.53889891	-8.6609776	0.47001896	9.7882655	0.46845057	-170.05896	0.4694484	9.9958318	
	0.46915028	10.058637	0.46845057	-170.05896	0.47026202	9.5949937	0.53833583	-8.5886805	
	0.46826997	-170.03795	0.4694484	9.9958318	0.53833583	-8.5886805	0.47008219	9.7172516	
	
0.343234385008977	0.47010398	9.4340645	0.5382707	-8.5047912	0.46954419	9.7530228	0.46891787	-170.23491	
