# MHz S MA R 50

0.1	0.13528489	42.680112	0.90109781	-5.9613733	0.27329082	43.30982	0.27234474	-136.75488	
	0.90109781	-5.9613733	0.13742915	45.297091	0.27380952	-137.16162	0.27422367	42.675778	
	0.27329082	43.30982	0.27380952	-137.16162	0.54992815	41.97211	0.69354966	-32.2399	
	0.27234474	-136.75488	0.27422367	42.675778	0.69354966	-32.2399	0.55364238	42.020032	
	
0.102310062021247	0.13624918	41.702608	0.89921177	-6.0292693	0.27729227	42.97343	0.27676528	-137.04373	
	0.89921177	-6.0292693	0.13772155	43.706874	0.27720732	-137.49017	0.27814233	42.457955	
	0.27729227	42.97343	0.27720732	-137.49017	0.55750247	41.412201	0.68703513	-32.793723	
	0.27676528	-137.04373	0.27814233	42.457955	0.68703513	-32.793723	0.55982538	41.642039	
	
0.104673487907914	0.14079657	41.60576	0.89711094	-6.0547982	0.2789998	41.992331	0.27842581	-137.86066	
	0.89711094	-6.0547982	0.1402482	41.964778	0.27868335	-138.01414	0.27893886	42.238018	
	0.2789998	41.992331	0.27868335	-138.01414	0.56334231	40.816104	0.67939484	-32.906712	
	0.27842581	-137.86066	0.27893886	42.238018	0.67939484	-32.906712	0.5613832	40.907572	
	
0.107091510398389	0.14069539	40.857382	0.89525567	-6.0595692	0.28243796	41.475318	0.28156712	-138.50587	
	0.89525567	-6.0595692	0.14168927	41.619308	0.28182468	-138.46503	0.28204029	41.486348	
	0.28243796	41.475318	0.28182468	-138.46503	0.56880359	40.361117	0.67262161	-33.20014	
	0.28156712	-138.50587	0.28204029	41.486348	0.67262161	-33.20014	0.56868186	40.362594	
	
0.109565390708082	0.14322163	40.639794	0.8936939	-6.0606998	0.28532445	40.754112	0.28490702	-139.14719	
	0.8936939	-6.0606998	0.14264423	41.642197	0.28491964	-139.44986	0.28570266	40.749376	
	0.28532445	40.754112	0.28491964	-139.44986	0.57471461	39.676269	0.66477793	-33.527559	
	0.28490702	-139.14719	0.28570266	40.749376	0.66477793	-33.527559	0.57478832	39.68751	
	
0.112096419187261	0.14360211	39.345153	0.89113665	-6.0556263	0.28783572	40.227398	0.28723683	-139.75261	
	0.89113665	-6.0556263	0.14414466	40.49624	0.28739686	-139.95786	0.28792866	40.075817	
	0.28783572	40.227398	0.28739686	-139.95786	0.57982111	38.968441	0.65690786	-33.866746	
	0.28723683	-139.75261	0.28792866	40.075817	0.65690786	-33.866746	0.5790016	39.063348	
	
0.114685915994083	0.14614219	39.123048	0.88935497	-6.039879	0.29102696	39.612613	0.29006003	-140.52546	
	0.88935497	-6.039879	0.14506952	40.087968	0.29089716	-140.49295	0.29156004	39.459817	
	0.29102696	39.612613	0.29089716	-140.49295	0.58470154	38.501034	0.64987617	-34.101578	
	0.29006003	-140.52546	0.29156004	39.459817	0.64987617	-34.101578	0.58581345	38.507561	
	
0.117335231783182	0.14709908	38.427311	0.88736593	-6.0450486	0.29388744	39.046885	0.29392297	-141.0412	
	0.88736593	-6.0450486	0.14636642	39.623452	0.29327179	-141.08251	0.29469556	38.890443	
	0.29388744	39.046885	0.29327179	-141.08251	0.59108024	37.840483	0.64241996	-34.501826	
	0.29392297	-141.0412	0.29469556	38.890443	0.64241996	-34.501826	0.59106384	37.935727	
	
0.120045748410147	0.14842865	37.506416	0.88458661	-6.0304206	0.29621648	38.486471	0.29558574	-141.5697	
	0.88458661	-6.0304206	0.14698372	39.630958	0.29577968	-141.694	0.29687607	38.115666	
	0.29621648	38.486471	0.29577968	-141.694	0.59569826	37.225721	0.63460434	-34.664994	
	0.29558574	-141.5697	0.29687607	38.115666	0.63460434	-34.664994	0.59540225	37.174086	
	
0.122818879652292	0.14929173	37.449501	0.88242435	-6.0202238	0.29936059	37.729455	0.29861191	-142.31538	
	0.88242435	-6.0202238	0.15012114	38.229549	0.29855675	-142.38862	0.29965322	37.490871	
	0.29936059	37.729455	0.29855675	-142.38862	0.60116293	36.564959	0.62657049	-34.967327	
	0.29861191	-142.31538	0.29965322	37.490871	0.62657049	-34.967327	0.60140245	36.630592	
	
0.125656071946061	0.15074765	36.544555	0.88125106	-6.0023478	0.30212653	37.094389	0.30194285	-142.82093	
	0.88125106	-6.0023478	0.1499427	37.785092	0.30170525	-143.03393	0.30239377	37.001702	
	0.30212653	37.094389	0.30170525	-143.03393	0.6055612	35.984633	0.61932275	-35.210688	
	0.30194285	-142.82093	0.30239377	37.001702	0.61932275	-35.210688	0.60653657	36.099992	
	
0.128558805141477	0.15125735	35.794009	0.87829799	-6.0001854	0.30449422	36.508122	0.30353876	-143.55006	
	0.87829799	-6.0001854	0.15226945	37.276123	0.3034448	-143.67503	0.30460404	36.316757	
	0.30449422	36.508122	0.3034448	-143.67503	0.61041164	35.324008	0.61121207	-35.39478	
	0.30353876	-143.55006	0.30460404	36.316757	0.61121207	-35.39478	0.61104713	35.423729	
	
0.131528593274019	0.15302787	35.736163	0.87707429	-5.9928813	0.30725621	35.930241	0.30684653	-144.26063	
	0.87707429	-5.9928813	0.15421119	36.792213	0.30673221	-144.28836	0.30805675	35.716994	
	0.30725621	35.930241	0.30673221	-144.28836	0.61648569	34.797749	0.60389477	-35.728682	
	0.30684653	-144.26063	0.30805675	35.716994	0.60389477	-35.728682	0.61681496	34.863797	
	
0.134566985354323	0.15545426	34.494658	0.87434058	-5.9279012	0.30886955	35.202684	0.30860274	-144.8331	
	0.87434058	-5.9279012	0.15519288	36.138317	0.30831384	-144.88551	0.30917079	35.141268	
	0.30886955	35.202684	0.30831384	-144.88551	0.62042464	34.24028	0.59582828	-35.908822	
	0.30860274	-144.8331	0.30917079	35.141268	0.59582828	-35.908822	0.62068477	34.235312	
	
0.13767556617613	0.15628527	34.079641	0.87217233	-5.9306185	0.31102073	34.750095	0.31036416	-145.30801	
	0.87217233	-5.9306185	0.15718318	35.517541	0.3110885	-145.38072	0.31158073	34.555123	
	0.31102073	34.750095	0.3110885	-145.38072	0.62466405	33.625374	0.58948876	-36.117857	
	0.31036416	-145.30801	0.31158073	34.555123	0.58948876	-36.117857	0.62361352	33.624269	
	
0.140855957142902	0.15827569	33.16537	0.8704777	-5.8993375	0.31355321	34.145148	0.31322417	-145.95565	
	0.8704777	-5.8993375	0.15676591	34.671477	0.31326888	-146.12763	0.31429229	33.925364	
	0.31355321	34.145148	0.31326888	-146.12763	0.62813559	33.027381	0.58048479	-36.370349	
	0.31322417	-145.95565	0.31429229	33.925364	0.58048479	-36.370349	0.62920093	33.128231	
	
0.144109817113524	0.15876771	32.641771	0.86783001	-5.8207143	0.31561425	33.45608	0.3149058	-146.54739	
	0.86783001	-5.8207143	0.15939762	34.062859	0.31539114	-146.60911	0.31610615	33.298604	
	0.31561425	33.45608	0.31539114	-146.60911	0.63220497	32.440101	0.57360588	-36.505723	
	0.3149058	-146.54739	0.31610615	33.298604	0.57360588	-36.505723	0.63331805	32.52891	
	
0.147438843267552	0.16045683	32.626965	0.86642999	-5.7924797	0.31858853	32.807046	0.31762704	-147.30637	
	0.86642999	-5.7924797	0.16087776	33.287477	0.31827923	-147.31283	0.31856478	32.785037	
	0.31858853	32.807046	0.31827923	-147.31283	0.6380591	31.92881	0.56579726	-36.679963	
	0.31762704	-147.30637	0.31856478	32.785037	0.56579726	-36.679963	0.63851105	32.030249	
	
0.150844771990442	0.16083437	31.774769	0.86449311	-5.7481577	0.32072355	32.363987	0.31975006	-147.66147	
	0.86449311	-5.7481577	0.15998452	32.635007	0.3200405	-147.81847	0.32085946	32.125885	
	0.32072355	32.363987	0.3200405	-147.81847	0.64196131	31.377151	0.55891916	-36.804527	
	0.31975006	-147.66147	0.32085946	32.125885	0.55891916	-36.804527	0.6425837	31.338652	
	
0.154329379779229	0.16312029	31.427164	0.86260257	-5.6953884	0.32258831	31.714505	0.32180861	-148.39534	
	0.86260257	-5.6953884	0.16267976	32.388027	0.32236626	-148.47637	0.32270516	31.449644	
	0.32258831	31.714505	0.32236626	-148.47637	0.64571178	30.787027	0.55088352	-36.971914	
	0.32180861	-148.39534	0.32270516	31.449644	0.55088352	-36.971914	0.64612174	30.817222	
	
0.157894484169135	0.16345892	30.497606	0.86134844	-5.6457775	0.32491239	31.108579	0.32453611	-148.97884	
	0.86134844	-5.6457775	0.16164231	31.692915	0.32448927	-149.04009	0.32554024	30.97856	
	0.32491239	31.108579	0.32448927	-149.04009	0.6507867	30.129326	0.5438289	-37.145982	
	0.32453611	-148.97884	0.32554024	30.97856	0.5438289	-37.145982	0.65013339	30.288054	
	
0.16154194468157	0.16509338	30.025923	0.85909274	-5.6191622	0.32631311	30.602249	0.32562732	-149.53114	
	0.85909274	-5.6191622	0.16370727	30.761656	0.32665468	-149.61562	0.32728594	30.409024	
	0.32631311	30.602249	0.32665468	-149.61562	0.65415828	29.638969	0.53620742	-37.24297	
	0.32562732	-149.53114	0.32728594	30.409024	0.53620742	-37.24297	0.65472463	29.736114	
	
0.165273663794043	0.16541079	29.274514	0.85698827	-5.5979096	0.32856545	29.959427	0.32790291	-150.00594	
	0.85698827	-5.5979096	0.16544468	30.299807	0.32789333	-150.12899	0.32863951	29.911246	
	0.32856545	29.959427	0.32789333	-150.12899	0.65725846	29.050225	0.52909379	-37.329983	
	0.32790291	-150.00594	0.32863951	29.911246	0.52909379	-37.329983	0.65724369	29.133466	
	
0.169091587932473	0.16621804	28.854757	0.85495656	-5.5493358	0.33034757	29.352287	0.32962011	-150.57879	
	0.85495656	-5.5493358	0.16712445	29.417093	0.32953973	-150.62497	0.33014549	29.318635	
	0.33034757	29.352287	0.32953973	-150.62497	0.66102884	28.577204	0.52169293	-37.411011	
	0.32962011	-150.57879	0.33014549	29.318635	0.52169293	-37.411011	0.66006834	28.576924	
	
0.172997708486424	0.1665682	28.244866	0.85400978	-5.4733591	0.33280566	28.837408	0.33200776	-151.29751	
	0.85400978	-5.4733591	0.16740776	29.040109	0.33232153	-151.27728	0.33264735	28.760297	
	0.33280566	28.837408	0.33232153	-151.27728	0.66519286	27.939267	0.5147823	-37.407595	
	0.33200776	-151.29751	0.33264735	28.760297	0.5147823	-37.407595	0.66556167	28.094318	
	
0.176994062847797	0.16875409	27.838626	0.85233087	-5.4314612	0.33362823	28.32482	0.33316178	-151.77756	
	0.85233087	-5.4314612	0.16741439	28.945516	0.33302943	-151.89311	0.33430755	28.174373	
	0.33362823	28.32482	0.33302943	-151.89311	0.66859556	27.499366	0.50797048	-37.467032	
	0.33316178	-151.77756	0.33430755	28.174373	0.50797048	-37.467032	0.66722719	27.451268	
	
0.181082735473506	0.16905667	26.920264	0.8498078	-5.3616643	0.3353759	27.670146	0.33523016	-152.25638	
	0.8498078	-5.3616643	0.169653	27.964974	0.33478343	-152.45542	0.33577407	27.616022	
	0.3353759	27.670146	0.33478343	-152.45542	0.67091493	26.948192	0.50031285	-37.531117	
	0.33523016	-152.25638	0.33577407	27.616022	0.50031285	-37.531117	0.67142327	26.953312	
	
0.185265858972714	0.17031836	26.698879	0.84870759	-5.2794853	0.33689981	27.192179	0.3366404	-152.81186	
	0.84870759	-5.2794853	0.17009934	27.615563	0.33690801	-152.9761	0.33740426	27.022199	
	0.33689981	27.192179	0.33690801	-152.9761	0.67382989	26.408718	0.49381895	-37.5103	
	0.3366404	-152.81186	0.33740426	27.022199	0.49381895	-37.5103	0.67478678	26.428145	
	
0.18954561521918	0.17121809	26.420434	0.8466642	-5.210787	0.33827501	26.620632	0.3378947	-153.30187	
	0.8466642	-5.210787	0.17008744	27.287599	0.3375823	-153.6043	0.33880365	26.532106	
	0.33827501	26.620632	0.3375823	-153.6043	0.6778213	25.790544	0.48687588	-37.493857	
	0.3378947	-153.30187	0.33880365	26.532106	0.48687588	-37.493857	0.67773561	25.847799	
	
0.193924236489297	0.17262209	25.866718	0.84551406	-5.1800587	0.33978977	26.106579	0.33907705	-153.90323	
	0.84551406	-5.1800587	0.1713164	26.305023	0.33966439	-153.98022	0.34028051	26.049636	
	0.33978977	26.106579	0.33966439	-153.98022	0.68023124	25.373353	0.48035622	-37.474897	
	0.33907705	-153.90323	0.34028051	26.049636	0.48035622	-37.474897	0.68025763	25.365097	
	
0.19840400662643	0.17333223	24.974257	0.84409019	-5.1200548	0.34170021	25.698943	0.34088562	-154.44297	
	0.84409019	-5.1200548	0.17214962	26.038278	0.34161947	-154.56977	0.34176329	25.44637	
	0.34170021	25.698943	0.34161947	-154.56977	0.68332331	24.867824	0.47376061	-37.515486	
	0.34088562	-154.44297	0.34176329	25.44637	0.47376061	-37.515486	0.68281342	24.91321	
	
0.202987262232139	0.17299494	24.407846	0.84234496	-5.0419737	0.34261134	25.063889	0.34199356	-154.82275	
	0.84234496	-5.0419737	0.17367665	25.43899	0.34183333	-155.04004	0.34249872	24.92755	
	0.34261134	25.063889	0.34183333	-155.04004	0.68574861	24.389393	0.46685429	-37.487356	
	0.34199356	-154.82275	0.34249872	24.92755	0.46685429	-37.487356	0.68521983	24.466357	
	
0.207676393884933	0.17338071	23.988329	0.84126468	-4.9651685	0.34437139	24.626354	0.34308661	-155.40277	
	0.84126468	-4.9651685	0.17376675	24.893679	0.34339469	-155.58774	0.34433674	24.443264	
	0.34437139	24.626354	0.34339469	-155.58774	0.68866539	23.91212	0.46060109	-37.440757	
	0.34308661	-155.40277	0.34433674	24.443264	0.46060109	-37.440757	0.68829848	23.932978	
	
0.212473847387164	0.17538577	23.612659	0.83991317	-4.894355	0.34583967	24.096608	0.34474928	-155.88436	
	0.83991317	-4.894355	0.17426174	24.475127	0.34557046	-156.06946	0.34578363	23.963614	
	0.34583967	24.096608	0.34557046	-156.06946	0.69084229	23.427994	0.4545725	-37.36249	
	0.34474928	-155.88436	0.34578363	23.963614	0.4545725	-37.36249	0.69046952	23.464875	
	
0.217382125040737	0.17670226	23.016018	0.83848083	-4.8297079	0.34654169	23.601251	0.3456386	-156.40928	
	0.83848083	-4.8297079	0.17414605	23.566747	0.34669495	-156.54793	0.34738198	23.465998	
	0.34654169	23.601251	0.34669495	-156.54793	0.69348113	22.962181	0.44795216	-37.18611	
	0.3456386	-156.40928	0.34738198	23.465998	0.44795216	-37.18611	0.69269133	22.951756	
	
0.222403786952283	0.17658641	22.772698	0.83759891	-4.7926163	0.34793187	23.106229	0.34764305	-156.91874	
	0.83759891	-4.7926163	0.17579499	23.638518	0.34801524	-157.13051	0.34800036	22.92408	
	0.34793187	23.106229	0.34801524	-157.13051	0.69577269	22.477863	0.44210792	-37.163536	
	0.34764305	-156.91874	0.34800036	22.92408	0.44210792	-37.163536	0.69571042	22.561763	
	
0.227541452368483	0.17644935	21.660198	0.83563086	-4.6793487	0.34868072	22.627929	0.34838837	-157.37065	
	0.83563086	-4.6793487	0.17683031	22.958888	0.3486128	-157.49438	0.34913228	22.418505	
	0.34868072	22.627929	0.3486128	-157.49438	0.69783874	22.089593	0.43642344	-37.034694	
	0.34838837	-157.37065	0.34913228	22.418505	0.43642344	-37.034694	0.69812098	22.023939	
	
0.232797801042241	0.17801621	21.746514	0.83558147	-4.6174903	0.34987314	22.135009	0.3498076	-157.85377	
	0.83558147	-4.6174903	0.17585258	22.59179	0.35004394	-157.93085	0.35080632	22.045403	
	0.34987314	22.135009	0.35004394	-157.93085	0.70064203	21.620512	0.43032714	-36.981157	
	0.3498076	-157.85377	0.35080632	22.045403	0.43032714	-36.981157	0.70004978	21.633201	
	
0.238175574630416	0.17790131	21.401371	0.83401207	-4.5576824	0.35139099	21.713769	0.35119887	-158.24072	
	0.83401207	-4.5576824	0.17727492	21.992	0.35084862	-158.42016	0.35195714	21.586541	
	0.35139099	21.713769	0.35084862	-158.42016	0.70279901	21.221323	0.42515986	-36.806738	
	0.35119887	-158.24072	0.35195714	21.586541	0.42515986	-36.806738	0.7027832	21.174606	
	
0.24367757812384	0.17874467	20.663506	0.83291331	-4.4811856	0.35284663	21.288421	0.35172197	-158.68811	
	0.83291331	-4.4811856	0.17737414	21.755258	0.352777	-158.92235	0.35269733	21.095664	
	0.35284663	21.288421	0.352777	-158.92235	0.70422791	20.767221	0.4194058	-36.572938	
	0.35172197	-158.68811	0.35269733	21.095664	0.4194058	-36.572938	0.70486345	20.796278	
	
0.249306681310373	0.17805188	19.969181	0.83215565	-4.4251523	0.354324	20.798747	0.35349696	-159.17363	
	0.83215565	-4.4251523	0.1770909	21.056932	0.35327099	-159.27635	0.35389263	20.687043	
	0.354324	20.798747	0.35327099	-159.27635	0.70649542	20.287182	0.41436845	-36.485	
	0.35349696	-159.17363	0.35389263	20.687043	0.41436845	-36.485	0.70650114	20.312587	
	
0.255065820271756	0.17881096	19.695178	0.83124058	-4.3547142	0.35479829	20.436522	0.3540347	-159.61917	
	0.83124058	-4.3547142	0.17821327	20.442127	0.3541636	-159.78723	0.35450657	20.28259	
	0.35479829	20.436522	0.3541636	-159.78723	0.70806533	19.840917	0.40851975	-36.26095	
	0.3540347	-159.61917	0.35450657	20.28259	0.40851975	-36.26095	0.70794553	19.925144	
	
0.260957998915036	0.18043535	19.438826	0.82971638	-4.2646072	0.35482478	20.055323	0.35437701	-160.05624	
	0.82971638	-4.2646072	0.17926645	20.011306	0.3548801	-160.14926	0.35532952	19.887178	
	0.35482478	20.055323	0.3548801	-160.14926	0.70905171	19.467022	0.40337805	-36.094767	
	0.35437701	-160.05624	0.35532952	19.887178	0.40337805	-36.094767	0.7092977	19.512931	
	
0.266986290539378	0.18027967	19.048224	0.82932595	-4.1911216	0.3561773	19.542273	0.35606555	-160.50132	
	0.82932595	-4.1911216	0.17890055	19.936416	0.35593409	-160.62325	0.35715312	19.411104	
	0.3561773	19.542273	0.35593409	-160.62325	0.71222452	19.052648	0.39796271	-35.918885	
	0.35606555	-160.50132	0.35715312	19.411104	0.39796271	-35.918885	0.71257636	19.049606	
	
0.273153839439064	0.18094226	18.77699	0.82835119	-4.1382093	0.35699673	19.152573	0.35622746	-160.87079	
	0.82835119	-4.1382093	0.17988448	19.403663	0.35660167	-161.00909	0.35709498	19.06929	
	0.35699673	19.152573	0.35660167	-161.00909	0.71283428	18.645457	0.39275835	-35.729284	
	0.35622746	-160.87079	0.35709498	19.06929	0.39275835	-35.729284	0.71331825	18.696241	
	
0.279463862543524	0.18009631	17.795947	0.8271365	-4.0771988	0.35843375	18.83768	0.35746861	-161.22992	
	0.8271365	-4.0771988	0.18062803	18.88286	0.35756923	-161.36543	0.35769934	18.551112	
	0.35843375	18.83768	0.35756923	-161.36543	0.7146137	18.242663	0.38831143	-35.494065	
	0.35746861	-161.22992	0.35769934	18.551112	0.38831143	-35.494065	0.71444267	18.332673	
	
0.285919651095252	0.18129865	18.225781	0.82690294	-4.0081429	0.3586763	18.292625	0.35787335	-161.76511	
	0.82690294	-4.0081429	0.18062573	18.465501	0.35806634	-161.8629	0.35892079	18.223816	
	0.3586763	18.292625	0.35806634	-161.8629	0.71605063	17.977918	0.38402708	-35.264043	
	0.35787335	-161.76511	0.35892079	18.223816	0.38402708	-35.264043	0.716511	17.900663	
	
0.292524572366485	0.18184673	17.393203	0.82568142	-3.9432291	0.35918589	18.047304	0.35827965	-162.12624	
	0.82568142	-3.9432291	0.18081939	18.807479	0.3591142	-162.29965	0.35977737	17.811555	
	0.35918589	18.047304	0.3591142	-162.29965	0.71792742	17.511365	0.37855798	-34.94063	
	0.35827965	-162.12624	0.35977737	17.811555	0.37855798	-34.94063	0.71774938	17.536848	
	
0.299282071415539	0.18325451	17.173019	0.82429511	-3.8617069	0.35979069	17.55238	0.35863671	-162.48128	
	0.82429511	-3.8617069	0.18188262	18.361448	0.35950193	-162.6993	0.35992378	17.365404	
	0.35979069	17.55238	0.35950193	-162.6993	0.71880632	17.15232	0.37461421	-34.659307	
	0.35863671	-162.48128	0.35992378	17.365404	0.37461421	-34.659307	0.71910692	17.211357	
	
0.30619567288371	0.18235348	16.958413	0.82419785	-3.7919642	0.36046543	17.231988	0.35949324	-162.79968	
	0.82419785	-3.7919642	0.18226928	17.57423	0.36036181	-162.98076	0.36064479	17.023664	
	0.36046543	17.231988	0.36036181	-162.98076	0.72027467	16.869983	0.37028794	-34.430166	
	0.35949324	-162.79968	0.36064479	17.023664	0.37028794	-34.430166	0.72154032	16.802228	
	
0.313268982833699	0.18289343	16.146487	0.82272915	-3.6845895	0.36133611	16.898917	0.36032954	-163.21184	
	0.82272915	-3.6845895	0.18289211	17.323138	0.36110083	-163.35363	0.36180001	16.678304	
	0.36133611	16.898917	0.36110083	-163.35363	0.72211641	16.440997	0.36528009	-34.083103	
	0.36032954	-163.21184	0.36180001	16.678304	0.36528009	-34.083103	0.72140686	16.417513	
	
0.320505690630487	0.18294107	15.771558	0.82273733	-3.6143835	0.36169819	16.60491	0.36157198	-163.49314	
	0.82273733	-3.6143835	0.1818757	16.873605	0.36158948	-163.62272	0.3629998	16.365078	
	0.36169819	16.60491	0.36158948	-163.62272	0.72261871	16.114941	0.36160635	-33.831579	
	0.36157198	-163.49314	0.3629998	16.365078	0.36160635	-33.831579	0.72347148	16.086625	
	
0.327909570865677	0.18177614	14.880362	0.82212962	-3.5379908	0.36329588	16.301035	0.3625353	-163.83312	
	0.82212962	-3.5379908	0.18185213	16.02775	0.36226946	-163.9709	0.36343545	16.063908	
	0.36329588	16.301035	0.36226946	-163.9709	0.72490355	15.743276	0.35759759	-33.537905	
	0.3625353	-163.83312	0.36343545	16.063908	0.35759759	-33.537905	0.72484937	15.778124	
	
0.335484485326279	0.18331795	15.188535	0.82181883	-3.4839724	0.36373279	15.896071	0.36318659	-164.1716	
	0.82181883	-3.4839724	0.1817257	15.470977	0.36332464	-164.22063	0.3642253	15.796347	
	0.36373279	15.896071	0.36332464	-164.22063	0.72550149	15.404723	0.35368576	-33.219492	
	0.36318659	-164.1716	0.3642253	15.796347	0.35368576	-33.219492	0.7264219	15.379543	
	
0.343234385008977	0.18275128	14.748998	0.82136042	-3.4412682	0.36444329	15.468119	0.36374782	-164.53839	
