# MHz S MA R 50

0.1	0.27185339	31.348267	0.77713853	-10.578874	0.38050011	31.611959	0.37926624	-148.51838	
	0.77713853	-10.578874	0.27116968	32.783577	0.38037617	-148.90165	0.38174418	30.96419	
	0.38050011	31.611959	0.38037617	-148.90165	0.53379396	30.544677	0.60078826	-27.04621	
	0.37926624	-148.51838	0.38174418	30.96419	0.60078826	-27.04621	0.53653139	30.511783	
	
0.102310062021247	0.27406857	30.701629	0.77388743	-10.650183	0.38428604	31.263632	0.3836007	-148.84504	
	0.77388743	-10.650183	0.27364529	31.628389	0.38419212	-149.16388	0.38517195	30.743585	
	0.38428604	31.263632	0.38419212	-149.16388	0.54002842	29.969852	0.59461107	-27.316577	
	0.3836007	-148.84504	0.38517195	30.743585	0.59461107	-27.316577	0.54027754	30.141318	
	
0.104673487907914	0.27788051	30.473092	0.7712411	-10.60401	0.38524738	30.434279	0.38436618	-149.4957	
	0.7712411	-10.60401	0.27644228	30.72488	0.38418472	-149.57088	0.38519011	30.556051	
	0.38524738	30.434279	0.38418472	-149.57088	0.5420856	29.644823	0.58861845	-27.125878	
	0.38436618	-149.4957	0.38519011	30.556051	0.58861845	-27.125878	0.54107936	29.574164	
	
0.107091510398389	0.2778772	29.88835	0.76829516	-10.540071	0.38838751	29.963008	0.38773776	-150.03469	
	0.76829516	-10.540071	0.27875767	30.222096	0.3872278	-150.00396	0.38776706	29.998148	
	0.38838751	29.963008	0.3872278	-150.00396	0.54633686	29.228828	0.58373781	-27.110419	
	0.38773776	-150.03469	0.38776706	29.998148	0.58373781	-27.110419	0.54611928	29.249471	
	
0.109565390708082	0.28047936	29.402974	0.76584356	-10.461813	0.39017809	29.408403	0.38943516	-150.64295	
	0.76584356	-10.461813	0.27978735	29.875711	0.38975886	-150.78871	0.39076741	29.300029	
	0.39017809	29.408403	0.38975886	-150.78871	0.54848336	28.649844	0.57715791	-27.08151	
	0.38943516	-150.64295	0.39076741	29.300029	0.57715791	-27.08151	0.54816695	28.595171	
	
0.112096419187261	0.28134971	28.631601	0.76291682	-10.424441	0.39234194	28.910471	0.39172819	-151.0521	
	0.76291682	-10.424441	0.28100766	29.137139	0.39197264	-151.20346	0.39256937	28.815654	
	0.39234194	28.910471	0.39197264	-151.20346	0.55159243	28.02266	0.57212029	-27.13055	
	0.39172819	-151.0521	0.39256937	28.815654	0.57212029	-27.13055	0.55152661	28.199234	
	
0.114685915994083	0.2833829	28.457949	0.75990319	-10.303841	0.39478807	28.398239	0.39379937	-151.65556	
	0.75990319	-10.303841	0.28240275	28.828563	0.39482931	-151.66444	0.39555361	28.26965	
	0.39478807	28.398239	0.39482931	-151.66444	0.55529896	27.670489	0.56688959	-27.080941	
	0.39379937	-151.65556	0.39555361	28.26965	0.56688959	-27.080941	0.5547405	27.726691	
	
0.117335231783182	0.28467201	27.64014	0.75702043	-10.254997	0.39707623	27.931463	0.39660542	-152.09297	
	0.75702043	-10.254997	0.28404827	28.287505	0.39630503	-152.15108	0.39767233	27.778103	
	0.39707623	27.931463	0.39630503	-152.15108	0.55762842	27.08057	0.56042919	-27.075473	
	0.39660542	-152.09297	0.39767233	27.778103	0.56042919	-27.075473	0.55780002	27.174338	
	
0.120045748410147	0.28697868	27.319746	0.75412165	-10.173115	0.39901005	27.524538	0.39799828	-152.56512	
	0.75412165	-10.173115	0.2851864	28.097824	0.39827781	-152.65673	0.39980204	27.21526	
	0.39901005	27.524538	0.39827781	-152.65673	0.55987046	26.62749	0.55539394	-26.929792	
	0.39799828	-152.56512	0.39980204	27.21526	0.55539394	-26.929792	0.55968701	26.581443	
	
0.122818879652292	0.28701747	26.895396	0.75180807	-10.093873	0.40112969	26.906989	0.40025477	-153.14262	
	0.75180807	-10.093873	0.28807413	27.221582	0.40060398	-153.16428	0.40133913	26.70919	
	0.40112969	26.906989	0.40060398	-153.16428	0.56311134	26.096439	0.54973634	-26.87589	
	0.40025477	-153.14262	0.40133913	26.70919	0.54973634	-26.87589	0.56288752	26.213779	
	
0.125656071946061	0.28908473	26.318783	0.74931978	-10.005751	0.40336734	26.438389	0.40271428	-153.57097	
	0.74931978	-10.005751	0.28834218	26.827911	0.4028678	-153.71746	0.40383119	26.294835	
	0.40336734	26.438389	0.4028678	-153.71746	0.56499357	25.609818	0.54486903	-26.798736	
	0.40271428	-153.57097	0.40383119	26.294835	0.54486903	-26.798736	0.56532519	25.640445	
	
0.128558805141477	0.28939326	25.738128	0.74625245	-9.9104012	0.40484091	25.999162	0.40376877	-154.12911	
	0.74625245	-9.9104012	0.29036452	26.270864	0.40400792	-154.22692	0.40527844	25.732701	
	0.40484091	25.999162	0.40400792	-154.22692	0.56851404	25.197427	0.53916572	-26.628097	
	0.40376877	-154.12911	0.40527844	25.732701	0.53916572	-26.628097	0.5676031	25.207785	
	
0.131528593274019	0.29146537	25.366481	0.74421623	-9.8417455	0.40736711	25.452868	0.40667701	-154.6382	
	0.74421623	-9.8417455	0.29158239	25.862908	0.40671906	-154.72742	0.40770186	25.299058	
	0.40736711	25.452868	0.40671906	-154.72742	0.57194705	24.758267	0.53413005	-26.629205	
	0.40667701	-154.6382	0.40770186	25.299058	0.53413005	-26.629205	0.57041081	24.762425	
	
0.134566985354323	0.2930255	24.87428	0.74151179	-9.7009547	0.40773881	24.942316	0.4076216	-155.11274	
	0.74151179	-9.7009547	0.29350626	25.250583	0.40709202	-155.20497	0.40853139	24.843342	
	0.40773881	24.942316	0.40709202	-155.20497	0.57292409	24.304061	0.52834899	-26.49275	
	0.4076216	-155.11274	0.40853139	24.843342	0.52834899	-26.49275	0.57287379	24.259197	
	
0.13767556617613	0.29458948	24.324057	0.73852974	-9.6283209	0.40961114	24.548955	0.408697	-155.4853	
	0.73852974	-9.6283209	0.29521494	24.970612	0.40941105	-155.63516	0.41026762	24.3811	
	0.40961114	24.548955	0.40941105	-155.63516	0.57502091	23.756535	0.52416953	-26.393747	
	0.408697	-155.4853	0.41026762	24.3811	0.52416953	-26.393747	0.57388077	23.750106	
	
0.140855957142902	0.29662299	23.810865	0.73660521	-9.5416795	0.4112773	24.035663	0.41119344	-155.9557	
	0.73660521	-9.5416795	0.29496092	24.311474	0.41061383	-156.18019	0.41213012	23.851446	
	0.4112773	24.035663	0.41061383	-156.18019	0.57660558	23.391553	0.51807495	-26.28959	
	0.41119344	-155.9557	0.41213012	23.851446	0.51807495	-26.28959	0.57607805	23.419377	
	
0.144109817113524	0.29762983	23.404404	0.73419498	-9.3746179	0.41308798	23.582323	0.41241627	-156.45394	
	0.73419498	-9.3746179	0.29662137	23.932273	0.41250344	-156.56721	0.41347192	23.468759	
	0.41308798	23.582323	0.41250344	-156.56721	0.57867251	22.870032	0.51392431	-26.141259	
	0.41241627	-156.45394	0.41347192	23.468759	0.51392431	-26.141259	0.57924723	22.97934	
	
0.147438843267552	0.29829883	23.143736	0.7315149	-9.2962296	0.4157122	23.010098	0.41415191	-157.05454	
	0.7315149	-9.2962296	0.29872063	23.301663	0.41505997	-157.09593	0.41562877	22.959798	
	0.4157122	23.010098	0.41505997	-157.09593	0.58159622	22.473688	0.50940854	-25.937112	
	0.41415191	-157.05454	0.41562877	22.959798	0.50940854	-25.937112	0.58249815	22.544938	
	
0.150844771990442	0.29932234	22.565206	0.72974733	-9.1707709	0.41661695	22.737619	0.41559151	-157.3201	
	0.72974733	-9.1707709	0.29791629	22.879082	0.41595803	-157.45968	0.41695389	22.511274	
	0.41661695	22.737619	0.41595803	-157.45968	0.58464107	22.036121	0.50494857	-25.787224	
	0.41559151	-157.3201	0.41695389	22.511274	0.50494857	-25.787224	0.58370089	22.068123	
	
0.154329379779229	0.30083033	22.174483	0.7275317	-9.0285536	0.41830866	22.20829	0.41667682	-157.92752	
	0.7275317	-9.0285536	0.2993606	22.6334	0.41775467	-157.98602	0.41834617	22.035135	
	0.41830866	22.20829	0.41775467	-157.98602	0.5862516	21.557045	0.50050434	-25.640321	
	0.41667682	-157.92752	0.41834617	22.035135	0.50050434	-25.640321	0.58594856	21.621689	
	
0.157894484169135	0.30160333	21.552158	0.72576179	-8.9088389	0.41923061	21.730113	0.41874308	-158.33589	
	0.72576179	-8.9088389	0.29994964	22.101284	0.41909907	-158.34679	0.41990493	21.61417	
	0.41923061	21.730113	0.41909907	-158.34679	0.58861472	21.178651	0.49581708	-25.449518	
	0.41874308	-158.33589	0.41990493	21.61417	0.49581708	-25.449518	0.58760754	21.148213	
	
0.16154194468157	0.30356423	21.04786	0.7236049	-8.84098	0.4203465	21.2931	0.42000505	-158.73901	
	0.7236049	-8.84098	0.30061448	21.292063	0.41998035	-158.82814	0.42090432	21.177838	
	0.4203465	21.2931	0.41998035	-158.82814	0.5899873	20.688579	0.49065207	-25.232951	
	0.42000505	-158.73901	0.42090432	21.177838	0.49065207	-25.232951	0.5891097	20.812705	
	
0.165273663794043	0.30330414	20.621001	0.72101453	-8.7272631	0.42157401	20.877671	0.42061538	-159.09415	
	0.72101453	-8.7272631	0.30333327	21.066685	0.42114107	-159.24638	0.42194476	20.801615	
	0.42157401	20.877671	0.42114107	-159.24638	0.59136203	20.226661	0.48672952	-25.03265	
	0.42061538	-159.09415	0.42194476	20.801615	0.48672952	-25.03265	0.59068463	20.334596	
	
0.169091587932473	0.30415048	20.247512	0.71921215	-8.6185354	0.42302762	20.453464	0.42194002	-159.5463	
	0.71921215	-8.6185354	0.30479466	20.58223	0.42252502	-159.64051	0.4230059	20.401866	
	0.42302762	20.453464	0.42252502	-159.64051	0.5929805	19.885363	0.48276607	-24.891858	
	0.42194002	-159.5463	0.4230059	20.401866	0.48276607	-24.891858	0.59295486	19.910122	
	
0.172997708486424	0.30459741	19.802452	0.71737699	-8.4610737	0.42471113	20.110584	0.42352963	-160.10457	
	0.71737699	-8.4610737	0.3053519	20.202624	0.42400541	-160.06886	0.42444441	19.928864	
	0.42471113	20.110584	0.42400541	-160.06886	0.59549609	19.416293	0.47902507	-24.582018	
	0.42352963	-160.10457	0.42444441	19.928864	0.47902507	-24.582018	0.59429299	19.556683	
	
0.176994062847797	0.30674178	19.47377	0.71575721	-8.346498	0.42532728	19.639114	0.42464102	-160.44462	
	0.71575721	-8.346498	0.30501901	20.000178	0.42475964	-160.56312	0.42544976	19.536741	
	0.42532728	19.639114	0.42475964	-160.56312	0.59743185	19.103054	0.47481	-24.332111	
	0.42464102	-160.44462	0.42544976	19.536741	0.47481	-24.332111	0.59587083	19.054483	
	
0.181082735473506	0.30690112	18.904174	0.71343118	-8.2017126	0.42653322	19.161546	0.42579854	-160.72785	
	0.71343118	-8.2017126	0.30673017	19.379441	0.42558027	-160.96951	0.42658013	19.110007	
	0.42653322	19.161546	0.42558027	-160.96951	0.59736504	18.720783	0.47044283	-24.082846	
	0.42579854	-160.72785	0.42658013	19.110007	0.47044283	-24.082846	0.59741176	18.679384	
	
0.185265858972714	0.30749623	18.517809	0.71212432	-8.0619808	0.42735228	18.771328	0.42659072	-161.20671	
	0.71212432	-8.0619808	0.30745598	19.046652	0.42694176	-161.35653	0.42769021	18.633364	
	0.42735228	18.771328	0.42694176	-161.35653	0.5988282	18.275073	0.46661981	-23.847431	
	0.42659072	-161.20671	0.42769021	18.633364	0.46661981	-23.847431	0.59892342	18.28887	
	
0.18954561521918	0.30866555	18.374247	0.71027763	-7.9463447	0.42827484	18.334668	0.42719426	-161.64515	
	0.71027763	-7.9463447	0.30708834	18.826458	0.42713426	-161.82309	0.42859684	18.306779	
	0.42827484	18.334668	0.42713426	-161.82309	0.59988678	17.846026	0.46337413	-23.549314	
	0.42719426	-161.64515	0.42859684	18.306779	0.46337413	-23.549314	0.60074137	17.921164	
	
0.193924236489297	0.30971756	17.95763	0.70914027	-7.8455985	0.42905629	18.005291	0.42821809	-162.02883	
	0.70914027	-7.8455985	0.30854681	18.179159	0.42870141	-162.12089	0.42961683	17.952788	
	0.42905629	18.005291	0.42870141	-162.12089	0.60160892	17.557102	0.45973822	-23.306673	
	0.42821809	-162.02883	0.42961683	17.952788	0.45973822	-23.306673	0.60158916	17.522525	
	
0.19840400662643	0.31038583	17.462301	0.70743798	-7.7075569	0.43061345	17.612932	0.42938947	-162.42995	
	0.70743798	-7.7075569	0.30916922	17.671024	0.4302942	-162.53437	0.43095729	17.531384	
	0.43061345	17.612932	0.4302942	-162.53437	0.60303068	17.091701	0.45606665	-23.084751	
	0.42938947	-162.42995	0.43095729	17.531384	0.45606665	-23.084751	0.60316069	17.22612	
	
0.202987262232139	0.31060562	16.932796	0.705719	-7.5699679	0.43052169	17.192594	0.42974123	-162.66925	
	0.705719	-7.5699679	0.31041426	17.462042	0.42970267	-162.91907	0.43044415	17.09903	
	0.43052169	17.192594	0.42970267	-162.91907	0.60309984	16.77321	0.45242806	-22.870502	
	0.42974123	-162.66925	0.43044415	17.09903	0.45242806	-22.870502	0.6030175	16.812698	
	
0.207676393884933	0.31045004	16.70825	0.70471839	-7.4298418	0.43192998	16.900112	0.43060823	-163.16389	
	0.70471839	-7.4298418	0.31075809	17.18032	0.43106777	-163.25412	0.43200429	16.777055	
	0.43192998	16.900112	0.43106777	-163.25412	0.60569145	16.429106	0.44925592	-22.532694	
	0.43060823	-163.16389	0.43200429	16.777055	0.44925592	-22.532694	0.60472753	16.441676	
	
0.212473847387164	0.31193401	16.320492	0.703427	-7.3110593	0.43297478	16.504209	0.43193859	-163.5416	
	0.703427	-7.3110593	0.3107685	16.678619	0.43261936	-163.59656	0.43319226	16.395095	
	0.43297478	16.504209	0.43261936	-163.59656	0.60610768	16.125911	0.44649334	-22.247774	
	0.43193859	-163.5416	0.43319226	16.395095	0.44649334	-22.247774	0.60690589	16.131778	
	
0.217382125040737	0.31329679	16.017784	0.70206934	-7.1878012	0.43354444	16.112229	0.43249975	-163.91103	
	0.70206934	-7.1878012	0.31084877	16.243719	0.43305437	-163.99578	0.43387669	16.101902	
	0.43354444	16.112229	0.43305437	-163.99578	0.60785733	15.743314	0.44310148	-21.909052	
	0.43249975	-163.91103	0.43387669	16.101902	0.44310148	-21.909052	0.60744955	15.812214	
	
0.222403786952283	0.31328017	15.733222	0.70097271	-7.0699545	0.43423664	15.766412	0.43366916	-164.21783	
	0.70097271	-7.0699545	0.31229249	16.133991	0.43380035	-164.40532	0.43457427	15.662242	
	0.43423664	15.766412	0.43380035	-164.40532	0.60852656	15.427844	0.440378	-21.679841	
	0.43366916	-164.21783	0.43457427	15.662242	0.440378	-21.679841	0.60736031	15.479571	
	
0.227541452368483	0.31351404	15.223096	0.69934611	-6.903399	0.43447586	15.509819	0.43374238	-164.5336	
	0.69934611	-6.903399	0.31305912	15.611052	0.43393762	-164.63775	0.43487541	15.252607	
	0.43447586	15.509819	0.43393762	-164.63775	0.60932626	15.106293	0.43728665	-21.385294	
	0.43374238	-164.5336	0.43487541	15.252607	0.43728665	-21.385294	0.60860639	15.098639	
	
0.232797801042241	0.31460963	14.956373	0.69874811	-6.8144682	0.43501371	15.099107	0.43451305	-164.93732	
	0.69874811	-6.8144682	0.31204536	15.254278	0.43485972	-165.02908	0.43626605	14.970358	
	0.43501371	15.099107	0.43485972	-165.02908	0.61010324	14.78004	0.43456036	-21.069893	
	0.43451305	-164.93732	0.43626605	14.970358	0.43456036	-21.069893	0.60983023	14.789527	
	
0.238175574630416	0.31407117	14.628389	0.69715785	-6.6618031	0.43590925	14.748661	0.43542377	-165.2364	
	0.69715785	-6.6618031	0.31323254	14.940775	0.43522408	-165.33748	0.43668887	14.668688	
	0.43590925	14.748661	0.43522408	-165.33748	0.61175065	14.480576	0.43229782	-20.804599	
	0.43542377	-165.2364	0.43668887	14.668688	0.43229782	-20.804599	0.61061058	14.41869	
	
0.24367757812384	0.31504749	14.233437	0.6963382	-6.5369265	0.43675025	14.448967	0.4355457	-165.53193	
	0.6963382	-6.5369265	0.31378774	14.619032	0.43652283	-165.75352	0.43702127	14.339757	
	0.43675025	14.448967	0.43652283	-165.75352	0.61094224	14.086745	0.42979878	-20.453693	
	0.4355457	-165.53193	0.43702127	14.339757	0.42979878	-20.453693	0.61157406	14.191207	
	
0.249306681310373	0.31462315	13.811047	0.6959663	-6.4509744	0.4378589	14.131179	0.43684184	-165.87033	
	0.6959663	-6.4509744	0.31300188	14.117021	0.43721664	-165.97644	0.43786931	14.031143	
	0.4378589	14.131179	0.43721664	-165.97644	0.61289361	13.814079	0.427451	-20.138995	
	0.43684184	-165.87033	0.43786931	14.031143	0.427451	-20.138995	0.61195852	13.874884	
	
0.255065820271756	0.31552929	13.512035	0.69475626	-6.3232322	0.43811496	13.875355	0.43725161	-166.13933	
	0.69475626	-6.3232322	0.31405808	13.873287	0.43754295	-166.34635	0.43800464	13.739907	
	0.43811496	13.875355	0.43754295	-166.34635	0.61304609	13.532751	0.42456098	-19.819946	
	0.43725161	-166.13933	0.43800464	13.739907	0.42456098	-19.819946	0.61296611	13.553787	
	
0.260957998915036	0.31676618	13.3796	0.6933602	-6.165583	0.43765079	13.555967	0.43725871	-166.55841	
	0.6933602	-6.165583	0.31547319	13.568265	0.43779827	-166.64577	0.43838595	13.450225	
	0.43765079	13.555967	0.43779827	-166.64577	0.61281956	13.201538	0.42233179	-19.54352	
	0.43725871	-166.55841	0.43838595	13.450225	0.42233179	-19.54352	0.61315711	13.212533	
	
0.266986290539378	0.31612586	13.137263	0.69325882	-6.0678652	0.43901082	13.230644	0.43819283	-166.8641	
	0.69325882	-6.0678652	0.3149512	13.433704	0.43841037	-166.9171	0.43920456	13.100774	
	0.43901082	13.230644	0.43841037	-166.9171	0.61501206	12.948863	0.41985449	-19.226132	
	0.43819283	-166.8641	0.43920456	13.100774	0.41985449	-19.226132	0.61479668	12.979324	
	
0.273153839439064	0.31612908	12.851879	0.69266257	-5.9409837	0.43941029	12.97051	0.43858137	-167.10971	
	0.69266257	-5.9409837	0.31537067	13.159916	0.43899424	-167.20034	0.4396478	12.882094	
	0.43941029	12.97051	0.43899424	-167.20034	0.61503866	12.663392	0.41780349	-18.909729	
	0.43858137	-167.10971	0.4396478	12.882094	0.41780349	-18.909729	0.61538353	12.733118	
	
0.279463862543524	0.31687197	12.397076	0.69114262	-5.83283	0.44028246	12.695013	0.4392343	-167.33286	
	0.69114262	-5.83283	0.31627165	12.716533	0.4392793	-167.5081	0.43931463	12.507036	
	0.44028246	12.695013	0.4392793	-167.5081	0.61534579	12.335197	0.4156811	-18.654423	
	0.4392343	-167.33286	0.43931463	12.507036	0.4156811	-18.654423	0.61500233	12.458957	
	
0.285919651095252	0.31705819	12.312645	0.69086018	-5.7447449	0.43988789	12.378888	0.4394012	-167.74875	
	0.69086018	-5.7447449	0.31594171	12.58327	0.43923575	-167.84677	0.440226	12.27202	
	0.43988789	12.378888	0.43923575	-167.84677	0.61635695	12.080087	0.41425262	-18.382423	
	0.4394012	-167.74875	0.440226	12.27202	0.41425262	-18.382423	0.61591259	12.062839	
	
0.292524572366485	0.31736082	11.893193	0.68996356	-5.6474698	0.44014027	12.105326	0.43966442	-167.98885	
	0.68996356	-5.6474698	0.31607814	12.56278	0.44032096	-168.18701	0.44065473	11.903905	
	0.44014027	12.105326	0.44032096	-168.18701	0.61820901	11.876685	0.41220813	-17.995134	
	0.43966442	-167.98885	0.44065473	11.903905	0.41220813	-17.995134	0.61621495	11.870856	
	
0.299282071415539	0.31823483	11.75652	0.68885894	-5.5086636	0.43987752	11.781847	0.43933223	-168.28578	
	0.68885894	-5.5086636	0.31693952	12.303585	0.43968164	-168.43133	0.44058702	11.630824	
	0.43987752	11.781847	0.43968164	-168.43133	0.61671037	11.605115	0.41065478	-17.686315	
	0.43933223	-168.28578	0.44058702	11.630824	0.41065478	-17.686315	0.61700789	11.641246	
	
0.30619567288371	0.31773836	11.504058	0.68858882	-5.4226151	0.4405922	11.540435	0.43934624	-168.5118	
	0.68858882	-5.4226151	0.31697606	11.928849	0.44015769	-168.60182	0.44071982	11.422834	
	0.4405922	11.540435	0.44015769	-168.60182	0.61805624	11.428281	0.408293	-17.390002	
	0.43934624	-168.5118	0.44071982	11.422834	0.408293	-17.390002	0.6173443	11.255691	
	
0.313268982833699	0.31786593	11.037055	0.68770139	-5.2457089	0.4415944	11.326018	0.4402823	-168.75343	
	0.68770139	-5.2457089	0.31664644	11.577306	0.44110925	-168.85665	0.44168999	11.168248	
	0.4415944	11.326018	0.44110925	-168.85665	0.61897887	11.065666	0.40683688	-17.021197	
	0.4402823	-168.75343	0.44168999	11.168248	0.40683688	-17.021197	0.61803679	11.116126	
	
0.320505690630487	0.31772218	10.836536	0.68726765	-5.163226	0.44174963	11.10606	0.44109183	-168.9289	
	0.68726765	-5.163226	0.31645853	11.140924	0.44100982	-169.03697	0.44270503	10.952565	
	0.44174963	11.10606	0.44100982	-169.03697	0.6185684	10.837772	0.40535416	-16.76627	
	0.44109183	-168.9289	0.44270503	10.952565	0.40535416	-16.76627	0.6180587	10.749035	
	
0.327909570865677	0.31656623	10.371802	0.68668426	-5.0140536	0.44262493	10.896456	0.44131277	-169.15249	
	0.68668426	-5.0140536	0.31661322	10.727516	0.44121995	-169.26459	0.44275492	10.73951	
	0.44262493	10.896456	0.44121995	-169.26459	0.61903399	10.502278	0.40363362	-16.420607	
	0.44131277	-169.15249	0.44275492	10.73951	0.40363362	-16.420607	0.61879031	10.562535	
	
0.335484485326279	0.31802588	10.361083	0.68603859	-4.9286527	0.44266198	10.62862	0.44151979	-169.42518	
	0.68603859	-4.9286527	0.31726426	10.513623	0.44218695	-169.47542	0.44290067	10.610291	
	0.44266198	10.62862	0.44218695	-169.47542	0.619978	10.204422	0.40208345	-16.156299	
	0.44151979	-169.42518	0.44290067	10.610291	0.40208345	-16.156299	0.61903555	10.279359	
	
0.343234385008977	0.31753784	10.02593	0.68568378	-4.847147	0.44316569	10.364047	0.4419512	-169.65391	
	0.68568378	-4.847147	0.31649275	10.524144	0.44244771	-169.84554	0.44327593	10.320629	
